
SetupTitle, (c1) Output curve in LGP
PrimitiveTest, I/V Sweep
TestParameter, Context.MainFrame, B1500A
TestParameter, Channel.UnitType, SMU, SMU
TestParameter, Channel.Unit, SMU1:HR/AS, SMU2:HR/AS
TestParameter, Channel.IName, Ig, Id
TestParameter, Channel.VName, Vg, Vd
TestParameter, Channel.Mode, V, V
TestParameter, Channel.Func, VAR2, VAR1
TestParameter, Channel.Index, 
TestParameter, Channel.Time, 
TestParameter, Measurement.Port.Unit, SMU1:HR/AS, SMU2:HR/AS
TestParameter, Measurement.Port.SeriesResistor, NONE, NONE
TestParameter, Measurement.Port.Filter, ON, ON
TestParameter, Measurement.Port.OutputVoltageComparison, 0, 0
TestParameter, Measurement.Primary.Locus, Double
TestParameter, Measurement.Primary.Scale, LINEAR
TestParameter, Measurement.Primary.Start, 0.1
TestParameter, Measurement.Primary.Stop, -0.5
TestParameter, Measurement.Primary.Step, -0.012
TestParameter, Measurement.Primary.Compliance, 0.1
TestParameter, Measurement.Primary.PowerCompliance, 0
TestParameter, Measurement.Aborting.Condition, CONTINUE AT ANY
TestParameter, Measurement.PostOutput.Value, START
TestParameter, Measurement.PostOutput.Retention, OFF
TestParameter, Measurement.Secondary.Start, 0.1
TestParameter, Measurement.Secondary.Count, 6
TestParameter, Measurement.Secondary.Step, -0.1
TestParameter, Measurement.Secondary.Compliance, 0.0001
TestParameter, Measurement.Secondary.PowerCompliance, 0
TestParameter, Measurement.Bias.Source, 0.1, 0.1
TestParameter, Measurement.Bias.Compliance, 0.0001, 0.1
TestParameter, Measurement.Monitor.Unit, SMU1:HR/AS, SMU2:HR/AS
TestParameter, Measurement.Monitor.Adc, HR ADC, HR ADC
TestParameter, Measurement.Monitor.Measurement, Compliance Side, Compliance Side
TestParameter, Measurement.Monitor.RangingMode, LIMITED, LIMITED
TestParameter, Measurement.Monitor.RangeBoundary, 1nA, 1nA
TestParameter, Measurement.Monitor.RangeRating, BY FULL RANGE, BY FULL RANGE
TestParameter, Measurement.Monitor.RangeRatingCoeff, 50, 50
TestParameter, Measurement.Timing.Hold, 0
TestParameter, Measurement.Timing.Delay, 0
TestParameter, Measurement.Adc.HighSpeed.Mode, AUTO
TestParameter, Measurement.Adc.HighSpeed.Coeff, 1
TestParameter, Measurement.Adc.HighResolution.AutoZero, OFF
TestParameter, Measurement.Adc.HighResolution.Mode, AUTO
TestParameter, Measurement.Adc.HighResolution.Coeff, 6
TestParameter, Measurement.WaitTime.Source.Coeff, 1
TestParameter, Measurement.WaitTime.Source.Offset, 0
TestParameter, Measurement.WaitTime.Monitor.Coeff, 1
TestParameter, Measurement.WaitTime.Monitor.Offset, 0
TestParameter, Output.Graph.Enabled, true
TestParameter, Output.Graph.AutoScaling, false
TestParameter, Output.Graph.XAxis.Data, Vd
TestParameter, Output.Graph.XAxis.Scale, Linear
TestParameter, Output.Graph.XAxis.Left, 0
TestParameter, Output.Graph.XAxis.Right, -0.5
TestParameter, Output.Graph.XAxis.RunTimeAutoScale, true
TestParameter, Output.Graph.YAxis.Data, Id
TestParameter, Output.Graph.YAxis.Scale, Linear
TestParameter, Output.Graph.YAxis.Bottom, -0.1
TestParameter, Output.Graph.YAxis.Top, 0.1
TestParameter, Output.Graph.YAxis.Group, 
TestParameter, Output.Graph.YAxis.RunTimeAutoScale, true
TestParameter, Output.List.Data, Vd, Vg, Id
TestParameter, AutoAnalysis.Interpolation, false
TestParameter, AutoAnalysis.Var2StepCount, 1
TestParameter, AutoAnalysis.Var2StepScript, 
TestParameter, AutoAnalysis.Line1.Enabled, false
TestParameter, AutoAnalysis.Line1.Type, 1
TestParameter, AutoAnalysis.Line1.Fix, True
TestParameter, AutoAnalysis.Line1.YAxis, 0
TestParameter, AutoAnalysis.Line1.Point1.Type, 0
TestParameter, AutoAnalysis.Line1.Point1.XY.X, 
TestParameter, AutoAnalysis.Line1.Point1.XY.Y, 
TestParameter, AutoAnalysis.Line1.Point1.Data.Var, 
TestParameter, AutoAnalysis.Line1.Point1.Data.Condition, 
TestParameter, AutoAnalysis.Line1.Point1.Data.Start, false
TestParameter, AutoAnalysis.Line1.Point1.Data.StartVar, 
TestParameter, AutoAnalysis.Line1.Point1.Data.StartCondition, 
TestParameter, AutoAnalysis.Line1.Point2.Type, 0
TestParameter, AutoAnalysis.Line1.Point2.XY.X, 
TestParameter, AutoAnalysis.Line1.Point2.XY.Y, 
TestParameter, AutoAnalysis.Line1.Point2.Data.Var, 
TestParameter, AutoAnalysis.Line1.Point2.Data.Condition, 
TestParameter, AutoAnalysis.Line1.Point2.Data.Start, false
TestParameter, AutoAnalysis.Line1.Point2.Data.StartVar, 
TestParameter, AutoAnalysis.Line1.Point2.Data.StartCondition, 
TestParameter, AutoAnalysis.Line1.GradientExpr, 0
TestParameter, AutoAnalysis.Line2.Enabled, false
TestParameter, AutoAnalysis.Line2.Type, 1
TestParameter, AutoAnalysis.Line2.Fix, True
TestParameter, AutoAnalysis.Line2.YAxis, 0
TestParameter, AutoAnalysis.Line2.Point1.Type, 0
TestParameter, AutoAnalysis.Line2.Point1.XY.X, 
TestParameter, AutoAnalysis.Line2.Point1.XY.Y, 
TestParameter, AutoAnalysis.Line2.Point1.Data.Var, 
TestParameter, AutoAnalysis.Line2.Point1.Data.Condition, 
TestParameter, AutoAnalysis.Line2.Point1.Data.Start, false
TestParameter, AutoAnalysis.Line2.Point1.Data.StartVar, 
TestParameter, AutoAnalysis.Line2.Point1.Data.StartCondition, 
TestParameter, AutoAnalysis.Line2.Point2.Type, 0
TestParameter, AutoAnalysis.Line2.Point2.XY.X, 
TestParameter, AutoAnalysis.Line2.Point2.XY.Y, 
TestParameter, AutoAnalysis.Line2.Point2.Data.Var, 
TestParameter, AutoAnalysis.Line2.Point2.Data.Condition, 
TestParameter, AutoAnalysis.Line2.Point2.Data.Start, false
TestParameter, AutoAnalysis.Line2.Point2.Data.StartVar, 
TestParameter, AutoAnalysis.Line2.Point2.Data.StartCondition, 
TestParameter, AutoAnalysis.Line2.GradientExpr, 0
TestParameter, AutoAnalysis.Marker.Enabled, false
TestParameter, AutoAnalysis.Marker.Data.Var, 
TestParameter, AutoAnalysis.Marker.Data.Condition, 
TestParameter, AutoAnalysis.Marker.Data.Start, false
TestParameter, AutoAnalysis.Marker.Data.StartVar, 
TestParameter, AutoAnalysis.Marker.Data.StartCondition, 
MetaData, TestRecord.EntryPoint, true
MetaData, TestRecord.RecordTime, 12/22/2024 06:05:51
MetaData, TestRecord.TestTarget, 
MetaData, TestRecord.IterationIndex, 1
MetaData, TestRecord.Preservation, true
MetaData, TestRecord.Flag, 
MetaData, TestRecord.Remarks, developer-s21c2
MetaData, TestRecord.LinkKey, f03cf324-8b10-4552-8551-883047e39f76
MetaData, TestRecord.Parameters, 
Dimension1, 102, 102, 102
Dimension2, 6, 6, 6
DataName, Vd, Vg, Id
DataValue, 0.1, 0.1, 7.415E-05
DataValue, 0.088000000000000009, 0.1, 6.158E-05
DataValue, 0.076, 0.1, 5.0050000000000004E-05
DataValue, 0.064, 0.1, 3.9496E-05
DataValue, 0.052000000000000005, 0.1, 2.9986E-05
DataValue, 0.04, 0.1, 2.1568E-05
DataValue, 0.028, 0.1, 1.4064000000000001E-05
DataValue, 0.016, 0.1, 7.389100000000001E-06
DataValue, 0.004, 0.1, 1.7065E-06
DataValue, -0.008, 0.1, -3.2838000000000002E-06
DataValue, -0.02, 0.1, -7.4582000000000009E-06
DataValue, -0.032, 0.1, -1.09526E-05
DataValue, -0.044000000000000004, 0.1, -1.3352E-05
DataValue, -0.056, 0.1, -1.5700000000000002E-05
DataValue, -0.068, 0.1, -1.762E-05
DataValue, -0.08, 0.1, -1.9194E-05
DataValue, -0.092, 0.1, -2.0340000000000002E-05
DataValue, -0.10400000000000001, 0.1, -2.1186E-05
DataValue, -0.116, 0.1, -2.1846E-05
DataValue, -0.128, 0.1, -2.2316E-05
DataValue, -0.14, 0.1, -2.2606E-05
DataValue, -0.152, 0.1, -2.2738E-05
DataValue, -0.164, 0.1, -2.2842E-05
DataValue, -0.17600000000000002, 0.1, -2.2936000000000002E-05
DataValue, -0.188, 0.1, -2.2902000000000002E-05
DataValue, -0.2, 0.1, -2.2802E-05
DataValue, -0.21200000000000002, 0.1, -2.2802E-05
DataValue, -0.224, 0.1, -2.2786000000000002E-05
DataValue, -0.23600000000000002, 0.1, -2.269E-05
DataValue, -0.248, 0.1, -2.264E-05
DataValue, -0.26, 0.1, -2.262E-05
DataValue, -0.272, 0.1, -2.2576000000000002E-05
DataValue, -0.28400000000000003, 0.1, -2.2488000000000002E-05
DataValue, -0.29600000000000004, 0.1, -2.2432E-05
DataValue, -0.308, 0.1, -2.2398E-05
DataValue, -0.32, 0.1, -2.2386000000000002E-05
DataValue, -0.332, 0.1, -2.2292E-05
DataValue, -0.34400000000000003, 0.1, -2.2226E-05
DataValue, -0.35600000000000004, 0.1, -2.2186E-05
DataValue, -0.368, 0.1, -2.2112E-05
DataValue, -0.38, 0.1, -2.2088E-05
DataValue, -0.392, 0.1, -2.2098E-05
DataValue, -0.404, 0.1, -2.2032000000000002E-05
DataValue, -0.41600000000000004, 0.1, -2.1982E-05
DataValue, -0.42800000000000005, 0.1, -2.2024E-05
DataValue, -0.44, 0.1, -2.1992000000000002E-05
DataValue, -0.452, 0.1, -2.1902E-05
DataValue, -0.464, 0.1, -2.1912E-05
DataValue, -0.47600000000000003, 0.1, -2.194E-05
DataValue, -0.48800000000000004, 0.1, -2.1916E-05
DataValue, -0.5, 0.1, -2.1858E-05
DataValue, -0.5, 0.1, -2.1852E-05
DataValue, -0.48800000000000004, 0.1, -2.1844E-05
DataValue, -0.47600000000000003, 0.1, -2.1802000000000002E-05
DataValue, -0.464, 0.1, -2.1700000000000002E-05
DataValue, -0.452, 0.1, -2.1692000000000002E-05
DataValue, -0.44, 0.1, -2.1674E-05
DataValue, -0.42800000000000005, 0.1, -2.1586E-05
DataValue, -0.41600000000000004, 0.1, -2.1544000000000002E-05
DataValue, -0.404, 0.1, -2.1562E-05
DataValue, -0.392, 0.1, -2.1494E-05
DataValue, -0.38, 0.1, -2.1388E-05
DataValue, -0.368, 0.1, -2.1392E-05
DataValue, -0.35600000000000004, 0.1, -2.1364E-05
DataValue, -0.34400000000000003, 0.1, -2.1284E-05
DataValue, -0.332, 0.1, -2.125E-05
DataValue, -0.32, 0.1, -2.1224000000000002E-05
DataValue, -0.308, 0.1, -2.1168E-05
DataValue, -0.29600000000000004, 0.1, -2.1054000000000002E-05
DataValue, -0.28400000000000003, 0.1, -2.1000000000000002E-05
DataValue, -0.272, 0.1, -2.0984E-05
DataValue, -0.26, 0.1, -2.0874E-05
DataValue, -0.248, 0.1, -2.072E-05
DataValue, -0.23600000000000002, 0.1, -2.065E-05
DataValue, -0.224, 0.1, -2.0586E-05
DataValue, -0.21200000000000002, 0.1, -2.0444E-05
DataValue, -0.2, 0.1, -2.0302E-05
DataValue, -0.188, 0.1, -2.0188E-05
DataValue, -0.17600000000000002, 0.1, -2.0028000000000002E-05
DataValue, -0.164, 0.1, -1.9790000000000002E-05
DataValue, -0.152, 0.1, -1.9502E-05
DataValue, -0.14, 0.1, -1.921E-05
DataValue, -0.128, 0.1, -1.8822E-05
DataValue, -0.116, 0.1, -1.8236E-05
DataValue, -0.10400000000000001, 0.1, -1.7562000000000002E-05
DataValue, -0.092, 0.1, -1.6814000000000002E-05
DataValue, -0.08, 0.1, -1.5754000000000002E-05
DataValue, -0.068, 0.1, -1.4434000000000001E-05
DataValue, -0.056, 0.1, -1.2904E-05
DataValue, -0.044000000000000004, 0.1, -1.1012E-05
DataValue, -0.032, 0.1, -8.7274E-06
DataValue, -0.02, 0.1, -5.9317E-06
DataValue, -0.008, 0.1, -2.6017000000000004E-06
DataValue, 0.004, 0.1, 1.4082000000000001E-06
DataValue, 0.016, 0.1, 6.0099000000000007E-06
DataValue, 0.028, 0.1, 1.1379600000000002E-05
DataValue, 0.04, 0.1, 1.805E-05
DataValue, 0.052000000000000005, 0.1, 2.5148E-05
DataValue, 0.064, 0.1, 3.3236E-05
DataValue, 0.076, 0.1, 4.2668E-05
DataValue, 0.088000000000000009, 0.1, 5.2884000000000004E-05
DataValue, 0.1, 0.1, 6.4370000000000009E-05
DataValue, 0.1, 0, 0.00015354
DataValue, 0.088000000000000009, 0, 0.00013022
DataValue, 0.076, 0, 0.00010812
DataValue, 0.064, 0, 8.7326E-05
DataValue, 0.052000000000000005, 0, 6.8122E-05
DataValue, 0.04, 0, 5.0092E-05
DataValue, 0.028, 0, 3.3456E-05
DataValue, 0.016, 0, 1.8278E-05
DataValue, 0.004, 0, 4.2260000000000007E-06
DataValue, -0.008, 0, -8.4150000000000016E-06
DataValue, -0.02, 0, -1.9914E-05
DataValue, -0.032, 0, -3.03E-05
DataValue, -0.044000000000000004, 0, -3.9566E-05
DataValue, -0.056, 0, -4.7864E-05
DataValue, -0.068, 0, -5.528E-05
DataValue, -0.08, 0, -6.1652E-05
DataValue, -0.092, 0, -6.716E-05
DataValue, -0.10400000000000001, 0, -7.2048E-05
DataValue, -0.116, 0, -7.6176E-05
DataValue, -0.128, 0, -7.9486E-05
DataValue, -0.14, 0, -8.2464E-05
DataValue, -0.152, 0, -8.4956E-05
DataValue, -0.164, 0, -8.6664000000000009E-05
DataValue, -0.17600000000000002, 0, -8.8302000000000009E-05
DataValue, -0.188, 0, -8.9612000000000009E-05
DataValue, -0.2, 0, -9.0632000000000009E-05
DataValue, -0.21200000000000002, 0, -9.1416000000000007E-05
DataValue, -0.224, 0, -9.2056E-05
DataValue, -0.23600000000000002, 0, -9.2594E-05
DataValue, -0.248, 0, -9.294400000000001E-05
DataValue, -0.26, 0, -9.3232E-05
DataValue, -0.272, 0, -9.3536000000000007E-05
DataValue, -0.28400000000000003, 0, -9.381E-05
DataValue, -0.29600000000000004, 0, -9.3866E-05
DataValue, -0.308, 0, -9.4108E-05
DataValue, -0.32, 0, -9.4312E-05
DataValue, -0.332, 0, -9.44E-05
DataValue, -0.34400000000000003, 0, -9.4444E-05
DataValue, -0.35600000000000004, 0, -9.4642E-05
DataValue, -0.368, 0, -9.4718E-05
DataValue, -0.38, 0, -9.479E-05
DataValue, -0.392, 0, -9.4890000000000008E-05
DataValue, -0.404, 0, -9.5114E-05
DataValue, -0.41600000000000004, 0, -9.5102E-05
DataValue, -0.42800000000000005, 0, -9.5142E-05
DataValue, -0.44, 0, -9.5262E-05
DataValue, -0.452, 0, -9.533600000000001E-05
DataValue, -0.464, 0, -9.535E-05
DataValue, -0.47600000000000003, 0, -9.5462E-05
DataValue, -0.48800000000000004, 0, -9.5526E-05
DataValue, -0.5, 0, -9.5542E-05
DataValue, -0.5, 0, -9.5494E-05
DataValue, -0.48800000000000004, 0, -9.55E-05
DataValue, -0.47600000000000003, 0, -9.5394E-05
DataValue, -0.464, 0, -9.521E-05
DataValue, -0.452, 0, -9.5096E-05
DataValue, -0.44, 0, -9.5092E-05
DataValue, -0.42800000000000005, 0, -9.4948E-05
DataValue, -0.41600000000000004, 0, -9.4816000000000008E-05
DataValue, -0.404, 0, -9.4684E-05
DataValue, -0.392, 0, -9.459E-05
DataValue, -0.38, 0, -9.4338E-05
DataValue, -0.368, 0, -9.4178E-05
DataValue, -0.35600000000000004, 0, -9.4068000000000008E-05
DataValue, -0.34400000000000003, 0, -9.376E-05
DataValue, -0.332, 0, -9.355E-05
DataValue, -0.32, 0, -9.335E-05
DataValue, -0.308, 0, -9.3126E-05
DataValue, -0.29600000000000004, 0, -9.284E-05
DataValue, -0.28400000000000003, 0, -9.2482E-05
DataValue, -0.272, 0, -9.2182E-05
DataValue, -0.26, 0, -9.1838E-05
DataValue, -0.248, 0, -9.1294E-05
DataValue, -0.23600000000000002, 0, -9.0806E-05
DataValue, -0.224, 0, -9.0206E-05
DataValue, -0.21200000000000002, 0, -8.9318E-05
DataValue, -0.2, 0, -8.8304E-05
DataValue, -0.188, 0, -8.724E-05
DataValue, -0.17600000000000002, 0, -8.582E-05
DataValue, -0.164, 0, -8.4108E-05
DataValue, -0.152, 0, -8.2122E-05
DataValue, -0.14, 0, -7.974E-05
DataValue, -0.128, 0, -7.6868E-05
DataValue, -0.116, 0, -7.3530000000000009E-05
DataValue, -0.10400000000000001, 0, -6.9506000000000008E-05
DataValue, -0.092, 0, -6.4934E-05
DataValue, -0.08, 0, -5.973E-05
DataValue, -0.068, 0, -5.3476E-05
DataValue, -0.056, 0, -4.6448E-05
DataValue, -0.044000000000000004, 0, -3.8614E-05
DataValue, -0.032, 0, -2.9582000000000002E-05
DataValue, -0.02, 0, -1.9438E-05
DataValue, -0.008, 0, -8.3649E-06
DataValue, 0.004, 0, 4.2504000000000008E-06
DataValue, 0.016, 0, 1.8304E-05
DataValue, 0.028, 0, 3.3564E-05
DataValue, 0.04, 0, 5.0286E-05
DataValue, 0.052000000000000005, 0, 6.8476E-05
DataValue, 0.064, 0, 8.8122000000000008E-05
DataValue, 0.076, 0, 0.00010928
DataValue, 0.088000000000000009, 0, 0.00013352
DataValue, 0.1, 0, 0.00015804
DataValue, 0.1, -0.1, 0.00027888
DataValue, 0.088000000000000009, -0.1, 0.00024006
DataValue, 0.076, -0.1, 0.00020242
DataValue, 0.064, -0.1, 0.0001662
DataValue, 0.052000000000000005, -0.1, 0.0001317
DataValue, 0.04, -0.1, 9.854E-05
DataValue, 0.028, -0.1, 6.7192E-05
DataValue, 0.016, -0.1, 3.7268E-05
DataValue, 0.004, -0.1, 8.8989E-06
DataValue, -0.008, -0.1, -1.785E-05
DataValue, -0.02, -0.1, -4.3076E-05
DataValue, -0.032, -0.1, -6.6604E-05
DataValue, -0.044000000000000004, -0.1, -8.870400000000001E-05
DataValue, -0.056, -0.1, -0.000109346
DataValue, -0.068, -0.1, -0.00012790000000000002
DataValue, -0.08, -0.1, -0.0001455
DataValue, -0.092, -0.1, -0.0001617
DataValue, -0.10400000000000001, -0.1, -0.00017662
DataValue, -0.116, -0.1, -0.00019008000000000002
DataValue, -0.128, -0.1, -0.00020212000000000002
DataValue, -0.14, -0.1, -0.0002132
DataValue, -0.152, -0.1, -0.00022300000000000003
DataValue, -0.164, -0.1, -0.00023160000000000002
DataValue, -0.17600000000000002, -0.1, -0.00023936
DataValue, -0.188, -0.1, -0.00024626
DataValue, -0.2, -0.1, -0.00025216
DataValue, -0.21200000000000002, -0.1, -0.00025698
DataValue, -0.224, -0.1, -0.00026142
DataValue, -0.23600000000000002, -0.1, -0.00026512000000000004
DataValue, -0.248, -0.1, -0.0002681
DataValue, -0.26, -0.1, -0.00027056000000000004
DataValue, -0.272, -0.1, -0.00027276000000000004
DataValue, -0.28400000000000003, -0.1, -0.00027442
DataValue, -0.29600000000000004, -0.1, -0.00027590000000000004
DataValue, -0.308, -0.1, -0.00027698
DataValue, -0.32, -0.1, -0.00027812000000000003
DataValue, -0.332, -0.1, -0.000279
DataValue, -0.34400000000000003, -0.1, -0.00027932
DataValue, -0.35600000000000004, -0.1, -0.00028000000000000003
DataValue, -0.368, -0.1, -0.00028058
DataValue, -0.38, -0.1, -0.00028078
DataValue, -0.392, -0.1, -0.00028128
DataValue, -0.404, -0.1, -0.00028178000000000003
DataValue, -0.41600000000000004, -0.1, -0.00028220000000000003
DataValue, -0.42800000000000005, -0.1, -0.00028248
DataValue, -0.44, -0.1, -0.00028278
DataValue, -0.452, -0.1, -0.00028308
DataValue, -0.464, -0.1, -0.00028352
DataValue, -0.47600000000000003, -0.1, -0.00028372
DataValue, -0.48800000000000004, -0.1, -0.00028392
DataValue, -0.5, -0.1, -0.00028434
DataValue, -0.5, -0.1, -0.00028406000000000004
DataValue, -0.48800000000000004, -0.1, -0.00028336
DataValue, -0.47600000000000003, -0.1, -0.00028250000000000004
DataValue, -0.464, -0.1, -0.0002821
DataValue, -0.452, -0.1, -0.00028168000000000003
DataValue, -0.44, -0.1, -0.00028098
DataValue, -0.42800000000000005, -0.1, -0.00028050000000000004
DataValue, -0.41600000000000004, -0.1, -0.00028012
DataValue, -0.404, -0.1, -0.00027934
DataValue, -0.392, -0.1, -0.00027864000000000003
DataValue, -0.38, -0.1, -0.00027804
DataValue, -0.368, -0.1, -0.00027736000000000004
DataValue, -0.35600000000000004, -0.1, -0.00027636
DataValue, -0.34400000000000003, -0.1, -0.00027552
DataValue, -0.332, -0.1, -0.00027476000000000003
DataValue, -0.32, -0.1, -0.00027348
DataValue, -0.308, -0.1, -0.00027226
DataValue, -0.29600000000000004, -0.1, -0.0002707
DataValue, -0.28400000000000003, -0.1, -0.00026888000000000004
DataValue, -0.272, -0.1, -0.00026676
DataValue, -0.26, -0.1, -0.00026432
DataValue, -0.248, -0.1, -0.0002615
DataValue, -0.23600000000000002, -0.1, -0.00025816
DataValue, -0.224, -0.1, -0.00025444000000000004
DataValue, -0.21200000000000002, -0.1, -0.00025004000000000004
DataValue, -0.2, -0.1, -0.00024494
DataValue, -0.188, -0.1, -0.00023918000000000002
DataValue, -0.17600000000000002, -0.1, -0.00023274000000000003
DataValue, -0.164, -0.1, -0.00022510000000000002
DataValue, -0.152, -0.1, -0.00021672000000000003
DataValue, -0.14, -0.1, -0.00020766
DataValue, -0.128, -0.1, -0.00019696
DataValue, -0.116, -0.1, -0.00018528000000000002
DataValue, -0.10400000000000001, -0.1, -0.00017244000000000002
DataValue, -0.092, -0.1, -0.00015816000000000002
DataValue, -0.08, -0.1, -0.00014248
DataValue, -0.068, -0.1, -0.00012560000000000002
DataValue, -0.056, -0.1, -0.0001071
DataValue, -0.044000000000000004, -0.1, -8.7318E-05
DataValue, -0.032, -0.1, -6.5682E-05
DataValue, -0.02, -0.1, -4.2446E-05
DataValue, -0.008, -0.1, -1.753E-05
DataValue, 0.004, -0.1, 8.8E-06
DataValue, 0.016, -0.1, 3.7382E-05
DataValue, 0.028, -0.1, 6.7266E-05
DataValue, 0.04, -0.1, 9.8898E-05
DataValue, 0.052000000000000005, -0.1, 0.00013288000000000002
DataValue, 0.064, -0.1, 0.00016798
DataValue, 0.076, -0.1, 0.00020478
DataValue, 0.088000000000000009, -0.1, 0.00024302000000000001
DataValue, 0.1, -0.1, 0.00028324000000000003
DataValue, 0.1, -0.2, 0.00040566
DataValue, 0.088000000000000009, -0.2, 0.00035278
DataValue, 0.076, -0.2, 0.00030094000000000003
DataValue, 0.064, -0.2, 0.00024998
DataValue, 0.052000000000000005, -0.2, 0.00020002
DataValue, 0.04, -0.2, 0.00015162000000000002
DataValue, 0.028, -0.2, 0.00010442
DataValue, 0.016, -0.2, 5.8604E-05
DataValue, 0.004, -0.2, 1.4222E-05
DataValue, -0.008, -0.2, -2.8928E-05
DataValue, -0.02, -0.2, -7.0398E-05
DataValue, -0.032, -0.2, -0.00011010800000000001
DataValue, -0.044000000000000004, -0.2, -0.00014824
DataValue, -0.056, -0.2, -0.00018518
DataValue, -0.068, -0.2, -0.00022032
DataValue, -0.08, -0.2, -0.00025354
DataValue, -0.092, -0.2, -0.00028548
