
SetupTitle, (c2) Transfer curve in LGP
PrimitiveTest, I/V Sweep
TestParameter, Context.MainFrame, B1500A
TestParameter, Channel.UnitType, SMU, SMU
TestParameter, Channel.Unit, SMU1:HR/AS, SMU2:HR/AS
TestParameter, Channel.IName, Ig, Id
TestParameter, Channel.VName, Vg, Vd
TestParameter, Channel.Mode, V, V
TestParameter, Channel.Func, VAR1, VAR2
TestParameter, Channel.Index, 
TestParameter, Channel.Time, 
TestParameter, Measurement.Port.Unit, SMU1:HR/AS, SMU2:HR/AS
TestParameter, Measurement.Port.SeriesResistor, NONE, NONE
TestParameter, Measurement.Port.Filter, ON, ON
TestParameter, Measurement.Port.OutputVoltageComparison, 0, 0
TestParameter, Measurement.Primary.Locus, Double
TestParameter, Measurement.Primary.Scale, LINEAR
TestParameter, Measurement.Primary.Start, 0.1
TestParameter, Measurement.Primary.Stop, -0.4
TestParameter, Measurement.Primary.Step, -0.01
TestParameter, Measurement.Primary.Compliance, 0.1
TestParameter, Measurement.Primary.PowerCompliance, 1
TestParameter, Measurement.Aborting.Condition, SKIP AT ANY ABNORMAL
TestParameter, Measurement.PostOutput.Value, START
TestParameter, Measurement.PostOutput.Retention, OFF
TestParameter, Measurement.Secondary.Start, -0.25
TestParameter, Measurement.Secondary.Count, 5
TestParameter, Measurement.Secondary.Step, 0
TestParameter, Measurement.Secondary.Compliance, 0.1
TestParameter, Measurement.Secondary.PowerCompliance, 1
TestParameter, Measurement.Bias.Source, 0.1, -0.25
TestParameter, Measurement.Bias.Compliance, 0.1, 0.1
TestParameter, Measurement.Monitor.Unit, SMU1:HR/AS, SMU2:HR/AS
TestParameter, Measurement.Monitor.Adc, HR ADC, HR ADC
TestParameter, Measurement.Monitor.Measurement, Compliance Side, Compliance Side
TestParameter, Measurement.Monitor.RangingMode, LIMITED, LIMITED
TestParameter, Measurement.Monitor.RangeBoundary, 1nA, 1nA
TestParameter, Measurement.Monitor.RangeRating, BY FULL RANGE, BY FULL RANGE
TestParameter, Measurement.Monitor.RangeRatingCoeff, 50, 50
TestParameter, Measurement.Timing.Hold, 0
TestParameter, Measurement.Timing.Delay, 0
TestParameter, Measurement.Adc.HighSpeed.Mode, AUTO
TestParameter, Measurement.Adc.HighSpeed.Coeff, 1
TestParameter, Measurement.Adc.HighResolution.AutoZero, OFF
TestParameter, Measurement.Adc.HighResolution.Mode, AUTO
TestParameter, Measurement.Adc.HighResolution.Coeff, 6
TestParameter, Measurement.WaitTime.Source.Coeff, 1
TestParameter, Measurement.WaitTime.Source.Offset, 0
TestParameter, Measurement.WaitTime.Monitor.Coeff, 1
TestParameter, Measurement.WaitTime.Monitor.Offset, 0
TestParameter, Output.Graph.Enabled, true
TestParameter, Output.Graph.AutoScaling, false
TestParameter, Output.Graph.XAxis.Data, Vg
TestParameter, Output.Graph.XAxis.Scale, Linear
TestParameter, Output.Graph.XAxis.Left, 0.60000000000000009
TestParameter, Output.Graph.XAxis.Right, -0.60000000000000009
TestParameter, Output.Graph.XAxis.RunTimeAutoScale, true
TestParameter, Output.Graph.YAxis.Data, Id
TestParameter, Output.Graph.YAxis.Scale, Linear
TestParameter, Output.Graph.YAxis.Bottom, -0.1
TestParameter, Output.Graph.YAxis.Top, 0.1
TestParameter, Output.Graph.YAxis.Group, 
TestParameter, Output.Graph.YAxis.RunTimeAutoScale, true
TestParameter, Output.List.Data, Vd, Vg, Id
TestParameter, AutoAnalysis.Interpolation, false
TestParameter, AutoAnalysis.Var2StepCount, 1
TestParameter, AutoAnalysis.Var2StepScript, 
TestParameter, AutoAnalysis.Line1.Enabled, false
TestParameter, AutoAnalysis.Line1.Type, 1
TestParameter, AutoAnalysis.Line1.Fix, True
TestParameter, AutoAnalysis.Line1.YAxis, 0
TestParameter, AutoAnalysis.Line1.Point1.Type, 0
TestParameter, AutoAnalysis.Line1.Point1.XY.X, 
TestParameter, AutoAnalysis.Line1.Point1.XY.Y, 
TestParameter, AutoAnalysis.Line1.Point1.Data.Var, 
TestParameter, AutoAnalysis.Line1.Point1.Data.Condition, 
TestParameter, AutoAnalysis.Line1.Point1.Data.Start, false
TestParameter, AutoAnalysis.Line1.Point1.Data.StartVar, 
TestParameter, AutoAnalysis.Line1.Point1.Data.StartCondition, 
TestParameter, AutoAnalysis.Line1.Point2.Type, 0
TestParameter, AutoAnalysis.Line1.Point2.XY.X, 
TestParameter, AutoAnalysis.Line1.Point2.XY.Y, 
TestParameter, AutoAnalysis.Line1.Point2.Data.Var, 
TestParameter, AutoAnalysis.Line1.Point2.Data.Condition, 
TestParameter, AutoAnalysis.Line1.Point2.Data.Start, false
TestParameter, AutoAnalysis.Line1.Point2.Data.StartVar, 
TestParameter, AutoAnalysis.Line1.Point2.Data.StartCondition, 
TestParameter, AutoAnalysis.Line1.GradientExpr, 0
TestParameter, AutoAnalysis.Line2.Enabled, false
TestParameter, AutoAnalysis.Line2.Type, 1
TestParameter, AutoAnalysis.Line2.Fix, True
TestParameter, AutoAnalysis.Line2.YAxis, 0
TestParameter, AutoAnalysis.Line2.Point1.Type, 0
TestParameter, AutoAnalysis.Line2.Point1.XY.X, 
TestParameter, AutoAnalysis.Line2.Point1.XY.Y, 
TestParameter, AutoAnalysis.Line2.Point1.Data.Var, 
TestParameter, AutoAnalysis.Line2.Point1.Data.Condition, 
TestParameter, AutoAnalysis.Line2.Point1.Data.Start, false
TestParameter, AutoAnalysis.Line2.Point1.Data.StartVar, 
TestParameter, AutoAnalysis.Line2.Point1.Data.StartCondition, 
TestParameter, AutoAnalysis.Line2.Point2.Type, 0
TestParameter, AutoAnalysis.Line2.Point2.XY.X, 
TestParameter, AutoAnalysis.Line2.Point2.XY.Y, 
TestParameter, AutoAnalysis.Line2.Point2.Data.Var, 
TestParameter, AutoAnalysis.Line2.Point2.Data.Condition, 
TestParameter, AutoAnalysis.Line2.Point2.Data.Start, false
TestParameter, AutoAnalysis.Line2.Point2.Data.StartVar, 
TestParameter, AutoAnalysis.Line2.Point2.Data.StartCondition, 
TestParameter, AutoAnalysis.Line2.GradientExpr, 0
TestParameter, AutoAnalysis.Marker.Enabled, false
TestParameter, AutoAnalysis.Marker.Data.Var, 
TestParameter, AutoAnalysis.Marker.Data.Condition, 
TestParameter, AutoAnalysis.Marker.Data.Start, false
TestParameter, AutoAnalysis.Marker.Data.StartVar, 
TestParameter, AutoAnalysis.Marker.Data.StartCondition, 
MetaData, TestRecord.EntryPoint, true
MetaData, TestRecord.RecordTime, 12/22/2024 06:05:05
MetaData, TestRecord.TestTarget, 
MetaData, TestRecord.IterationIndex, 2
MetaData, TestRecord.Preservation, true
MetaData, TestRecord.Flag, 
MetaData, TestRecord.Remarks, developer-s21c2
MetaData, TestRecord.LinkKey, 1cd1d197-9409-4a3c-bf4c-9e1ad06753f3
MetaData, TestRecord.Parameters, 
Dimension1, 102, 102, 102
Dimension2, 5, 5, 5
DataName, Vg, Vd, Id
DataValue, 0.1, -0.25, -1.5584000000000002E-05
DataValue, 0.090000000000000011, -0.25, -1.8106E-05
DataValue, 0.08, -0.25, -2.1282E-05
DataValue, 0.07, -0.25, -2.4942E-05
DataValue, 0.060000000000000005, -0.25, -2.9120000000000002E-05
DataValue, 0.05, -0.25, -3.401E-05
DataValue, 0.04, -0.25, -3.9496E-05
DataValue, 0.030000000000000002, -0.25, -4.5614E-05
DataValue, 0.02, -0.25, -5.2576E-05
DataValue, 0.01, -0.25, -6.0276000000000004E-05
DataValue, 0, -0.25, -6.8732E-05
DataValue, -0.01, -0.25, -7.8118E-05
DataValue, -0.02, -0.25, -8.8654000000000009E-05
DataValue, -0.030000000000000002, -0.25, -9.9924E-05
DataValue, -0.04, -0.25, -0.000112188
DataValue, -0.05, -0.25, -0.0001296
DataValue, -0.060000000000000005, -0.25, -0.00014354
DataValue, -0.07, -0.25, -0.00015898
DataValue, -0.08, -0.25, -0.00017544000000000001
DataValue, -0.090000000000000011, -0.25, -0.00019326
DataValue, -0.1, -0.25, -0.00021244000000000002
DataValue, -0.11, -0.25, -0.00023264000000000002
DataValue, -0.12000000000000001, -0.25, -0.00025418
DataValue, -0.13, -0.25, -0.00027706000000000003
DataValue, -0.14, -0.25, -0.0003008
DataValue, -0.15, -0.25, -0.00032584000000000004
DataValue, -0.16, -0.25, -0.00035216
DataValue, -0.17, -0.25, -0.00037956000000000003
DataValue, -0.18000000000000002, -0.25, -0.00040788
DataValue, -0.19, -0.25, -0.00043724000000000004
DataValue, -0.2, -0.25, -0.00046726000000000005
DataValue, -0.21000000000000002, -0.25, -0.00049780000000000007
DataValue, -0.22, -0.25, -0.00052992
DataValue, -0.23, -0.25, -0.00056254
DataValue, -0.24000000000000002, -0.25, -0.00059522
DataValue, -0.25, -0.25, -0.00062876
DataValue, -0.26, -0.25, -0.00066276000000000009
DataValue, -0.27, -0.25, -0.00069644
DataValue, -0.28, -0.25, -0.00073044000000000006
DataValue, -0.29000000000000004, -0.25, -0.00076532
DataValue, -0.3, -0.25, -0.00079818
DataValue, -0.31, -0.25, -0.0008312
DataValue, -0.32, -0.25, -0.00086386
DataValue, -0.33, -0.25, -0.00089602000000000008
DataValue, -0.34, -0.25, -0.00092722000000000008
DataValue, -0.35000000000000003, -0.25, -0.00095774000000000011
DataValue, -0.36000000000000004, -0.25, -0.00098734
DataValue, -0.37, -0.25, -0.00101598
DataValue, -0.38, -0.25, -0.00104366
DataValue, -0.39, -0.25, -0.00106974
DataValue, -0.4, -0.25, -0.0010948400000000001
DataValue, -0.4, -0.25, -0.0010964400000000002
DataValue, -0.39, -0.25, -0.0010762200000000001
DataValue, -0.38, -0.25, -0.00105436
DataValue, -0.37, -0.25, -0.0010310200000000001
DataValue, -0.36000000000000004, -0.25, -0.00100584
DataValue, -0.35000000000000003, -0.25, -0.0009794
DataValue, -0.34, -0.25, -0.00095216000000000007
DataValue, -0.33, -0.25, -0.00092386000000000009
DataValue, -0.32, -0.25, -0.00089372000000000008
DataValue, -0.31, -0.25, -0.00086386
DataValue, -0.3, -0.25, -0.00083294
DataValue, -0.29000000000000004, -0.25, -0.00080084
DataValue, -0.28, -0.25, -0.00076870000000000009
DataValue, -0.27, -0.25, -0.0007360200000000001
DataValue, -0.26, -0.25, -0.00070324
DataValue, -0.25, -0.25, -0.00067004
DataValue, -0.24000000000000002, -0.25, -0.00063674
DataValue, -0.23, -0.25, -0.00060384
DataValue, -0.22, -0.25, -0.0005712
DataValue, -0.21000000000000002, -0.25, -0.00053868
DataValue, -0.2, -0.25, -0.00050680000000000007
DataValue, -0.19, -0.25, -0.00047592
DataValue, -0.18000000000000002, -0.25, -0.00044514
DataValue, -0.17, -0.25, -0.00041408000000000005
DataValue, -0.16, -0.25, -0.00038608
DataValue, -0.15, -0.25, -0.00035840000000000004
DataValue, -0.14, -0.25, -0.00033180000000000004
DataValue, -0.13, -0.25, -0.00030626000000000004
DataValue, -0.12000000000000001, -0.25, -0.00028156000000000004
DataValue, -0.11, -0.25, -0.00025818
DataValue, -0.1, -0.25, -0.00023610000000000002
DataValue, -0.090000000000000011, -0.25, -0.00021510000000000002
DataValue, -0.08, -0.25, -0.0001952
DataValue, -0.07, -0.25, -0.00017662
DataValue, -0.060000000000000005, -0.25, -0.00015918
DataValue, -0.05, -0.25, -0.00014284
DataValue, -0.04, -0.25, -0.00012770000000000001
DataValue, -0.030000000000000002, -0.25, -0.00011382
DataValue, -0.02, -0.25, -0.00010092
DataValue, -0.01, -0.25, -8.8206E-05
DataValue, 0, -0.25, -7.7874000000000007E-05
DataValue, 0.01, -0.25, -6.8248E-05
DataValue, 0.02, -0.25, -5.9542E-05
DataValue, 0.030000000000000002, -0.25, -5.1592000000000003E-05
DataValue, 0.04, -0.25, -4.4436E-05
DataValue, 0.05, -0.25, -3.7968E-05
DataValue, 0.060000000000000005, -0.25, -3.23E-05
DataValue, 0.07, -0.25, -2.7262E-05
DataValue, 0.08, -0.25, -2.2846E-05
DataValue, 0.090000000000000011, -0.25, -1.9034E-05
DataValue, 0.1, -0.25, -1.5694E-05
DataValue, 0.1, -0.25, -1.3134E-05
DataValue, 0.090000000000000011, -0.25, -1.5566E-05
DataValue, 0.08, -0.25, -1.8456E-05
DataValue, 0.07, -0.25, -2.1778E-05
DataValue, 0.060000000000000005, -0.25, -2.571E-05
DataValue, 0.05, -0.25, -3.0178E-05
DataValue, 0.04, -0.25, -3.5214E-05
DataValue, 0.030000000000000002, -0.25, -4.0978E-05
DataValue, 0.02, -0.25, -4.7516000000000004E-05
DataValue, 0.01, -0.25, -5.4726000000000004E-05
DataValue, 0, -0.25, -6.278E-05
DataValue, -0.01, -0.25, -7.1826E-05
DataValue, -0.02, -0.25, -8.1724E-05
DataValue, -0.030000000000000002, -0.25, -9.2666E-05
DataValue, -0.04, -0.25, -0.000104628
DataValue, -0.05, -0.25, -0.00012194
DataValue, -0.060000000000000005, -0.25, -0.00013524
DataValue, -0.07, -0.25, -0.00015026000000000002
DataValue, -0.08, -0.25, -0.0001665
DataValue, -0.090000000000000011, -0.25, -0.00018396000000000002
DataValue, -0.1, -0.25, -0.00020256
DataValue, -0.11, -0.25, -0.0002231
DataValue, -0.12000000000000001, -0.25, -0.00024408
DataValue, -0.13, -0.25, -0.00026634
DataValue, -0.14, -0.25, -0.0002903
DataValue, -0.15, -0.25, -0.00031526000000000004
DataValue, -0.16, -0.25, -0.00034128
DataValue, -0.17, -0.25, -0.00036896000000000005
DataValue, -0.18000000000000002, -0.25, -0.0003973
DataValue, -0.19, -0.25, -0.00042688000000000003
DataValue, -0.2, -0.25, -0.00045758
DataValue, -0.21000000000000002, -0.25, -0.00048868
DataValue, -0.22, -0.25, -0.00052202
DataValue, -0.23, -0.25, -0.00055426
DataValue, -0.24000000000000002, -0.25, -0.00058722000000000006
DataValue, -0.25, -0.25, -0.00062166
DataValue, -0.26, -0.25, -0.00065584000000000009
DataValue, -0.27, -0.25, -0.00068994
DataValue, -0.28, -0.25, -0.00072500000000000006
DataValue, -0.29000000000000004, -0.25, -0.00075918
DataValue, -0.3, -0.25, -0.00079338
DataValue, -0.31, -0.25, -0.00082736000000000007
DataValue, -0.32, -0.25, -0.00086058
DataValue, -0.33, -0.25, -0.00089332000000000007
DataValue, -0.34, -0.25, -0.00092788000000000007
DataValue, -0.35000000000000003, -0.25, -0.0009583800000000001
DataValue, -0.36000000000000004, -0.25, -0.00098828
DataValue, -0.37, -0.25, -0.00101666
DataValue, -0.38, -0.25, -0.0010439800000000001
DataValue, -0.39, -0.25, -0.00107058
DataValue, -0.4, -0.25, -0.00109508
DataValue, -0.4, -0.25, -0.00109616
DataValue, -0.39, -0.25, -0.00107626
DataValue, -0.38, -0.25, -0.0010544200000000001
DataValue, -0.37, -0.25, -0.00103068
DataValue, -0.36000000000000004, -0.25, -0.00100578
DataValue, -0.35000000000000003, -0.25, -0.00097976
DataValue, -0.34, -0.25, -0.00095234000000000009
DataValue, -0.33, -0.25, -0.00092382000000000011
DataValue, -0.32, -0.25, -0.00089454000000000009
DataValue, -0.31, -0.25, -0.00086424000000000006
DataValue, -0.3, -0.25, -0.00083308
DataValue, -0.29000000000000004, -0.25, -0.00080112
DataValue, -0.28, -0.25, -0.00076784
DataValue, -0.27, -0.25, -0.00073562000000000009
DataValue, -0.26, -0.25, -0.00070256000000000008
DataValue, -0.25, -0.25, -0.00066954
DataValue, -0.24000000000000002, -0.25, -0.0006365
DataValue, -0.23, -0.25, -0.0006032
DataValue, -0.22, -0.25, -0.00057068000000000006
DataValue, -0.21000000000000002, -0.25, -0.00053836
DataValue, -0.2, -0.25, -0.00050638000000000007
DataValue, -0.19, -0.25, -0.00047490000000000005
DataValue, -0.18000000000000002, -0.25, -0.00044380000000000005
DataValue, -0.17, -0.25, -0.00041416
DataValue, -0.16, -0.25, -0.00038504
DataValue, -0.15, -0.25, -0.0003572
DataValue, -0.14, -0.25, -0.00033034000000000004
DataValue, -0.13, -0.25, -0.0003043
DataValue, -0.12000000000000001, -0.25, -0.00027956000000000004
DataValue, -0.11, -0.25, -0.00025628
DataValue, -0.1, -0.25, -0.00023374000000000002
DataValue, -0.090000000000000011, -0.25, -0.00021276000000000002
DataValue, -0.08, -0.25, -0.00019292000000000002
DataValue, -0.07, -0.25, -0.00017438000000000002
DataValue, -0.060000000000000005, -0.25, -0.00015698
DataValue, -0.05, -0.25, -0.00014086
DataValue, -0.04, -0.25, -0.00012584
DataValue, -0.030000000000000002, -0.25, -0.00011190000000000001
DataValue, -0.02, -0.25, -9.801200000000001E-05
DataValue, -0.01, -0.25, -8.685E-05
DataValue, 0, -0.25, -7.6322E-05
DataValue, 0.01, -0.25, -6.6852E-05
DataValue, 0.02, -0.25, -5.818E-05
DataValue, 0.030000000000000002, -0.25, -5.0332E-05
DataValue, 0.04, -0.25, -4.3378000000000004E-05
DataValue, 0.05, -0.25, -3.7172E-05
DataValue, 0.060000000000000005, -0.25, -3.1654E-05
DataValue, 0.07, -0.25, -2.677E-05
DataValue, 0.08, -0.25, -2.2570000000000002E-05
DataValue, 0.090000000000000011, -0.25, -1.8856E-05
DataValue, 0.1, -0.25, -1.5506E-05
DataValue, 0.1, -0.25, -1.339E-05
DataValue, 0.090000000000000011, -0.25, -1.5788000000000002E-05
DataValue, 0.08, -0.25, -1.874E-05
DataValue, 0.07, -0.25, -2.2094000000000002E-05
DataValue, 0.060000000000000005, -0.25, -2.5982E-05
DataValue, 0.05, -0.25, -3.0486000000000003E-05
DataValue, 0.04, -0.25, -3.5568E-05
DataValue, 0.030000000000000002, -0.25, -4.127E-05
DataValue, 0.02, -0.25, -4.7792E-05
DataValue, 0.01, -0.25, -5.503E-05
DataValue, 0, -0.25, -6.3074E-05
DataValue, -0.01, -0.25, -7.2104E-05
DataValue, -0.02, -0.25, -8.206E-05
DataValue, -0.030000000000000002, -0.25, -9.286E-05
DataValue, -0.04, -0.25, -0.000104778
DataValue, -0.05, -0.25, -0.00012216
DataValue, -0.060000000000000005, -0.25, -0.00013556
DataValue, -0.07, -0.25, -0.00015052000000000002
DataValue, -0.08, -0.25, -0.00016682
DataValue, -0.090000000000000011, -0.25, -0.0001844
DataValue, -0.1, -0.25, -0.00020322000000000002
DataValue, -0.11, -0.25, -0.00022332000000000002
DataValue, -0.12000000000000001, -0.25, -0.00024470000000000004
DataValue, -0.13, -0.25, -0.0002675
DataValue, -0.14, -0.25, -0.0002909
DataValue, -0.15, -0.25, -0.00031586
DataValue, -0.16, -0.25, -0.000342
DataValue, -0.17, -0.25, -0.00036918000000000004
DataValue, -0.18000000000000002, -0.25, -0.00039764000000000005
DataValue, -0.19, -0.25, -0.00042800000000000005
DataValue, -0.2, -0.25, -0.00045808000000000003
DataValue, -0.21000000000000002, -0.25, -0.00048958
DataValue, -0.22, -0.25, -0.00052234
DataValue, -0.23, -0.25, -0.00055498000000000006
DataValue, -0.24000000000000002, -0.25, -0.00058952000000000006
DataValue, -0.25, -0.25, -0.00062302000000000006
DataValue, -0.26, -0.25, -0.00065728
DataValue, -0.27, -0.25, -0.00069168000000000007
DataValue, -0.28, -0.25, -0.00072580000000000008
DataValue, -0.29000000000000004, -0.25, -0.0007603
DataValue, -0.3, -0.25, -0.0007946400000000001
DataValue, -0.31, -0.25, -0.0008283600000000001
DataValue, -0.32, -0.25, -0.0008614
DataValue, -0.33, -0.25, -0.00089508
DataValue, -0.34, -0.25, -0.00092652
DataValue, -0.35000000000000003, -0.25, -0.0009573
DataValue, -0.36000000000000004, -0.25, -0.00098768000000000011
DataValue, -0.37, -0.25, -0.0010167000000000002
DataValue, -0.38, -0.25, -0.00104406
DataValue, -0.39, -0.25, -0.00107046
DataValue, -0.4, -0.25, -0.0010954200000000002
DataValue, -0.4, -0.25, -0.00109678
DataValue, -0.39, -0.25, -0.00107734
DataValue, -0.38, -0.25, -0.00105514
DataValue, -0.37, -0.25, -0.0010318
DataValue, -0.36000000000000004, -0.25, -0.00100716
DataValue, -0.35000000000000003, -0.25, -0.00098074000000000013
DataValue, -0.34, -0.25, -0.00095308
DataValue, -0.33, -0.25, -0.0009251000000000001
DataValue, -0.32, -0.25, -0.00089564000000000006
DataValue, -0.31, -0.25, -0.00086496
DataValue, -0.3, -0.25, -0.00083400000000000011
DataValue, -0.29000000000000004, -0.25, -0.00080244000000000008
DataValue, -0.28, -0.25, -0.00076988
DataValue, -0.27, -0.25, -0.00073712000000000007
DataValue, -0.26, -0.25, -0.00070438
DataValue, -0.25, -0.25, -0.00066838
DataValue, -0.24000000000000002, -0.25, -0.00063656
DataValue, -0.23, -0.25, -0.00060398000000000006
DataValue, -0.22, -0.25, -0.00057130000000000006
DataValue, -0.21000000000000002, -0.25, -0.00053888
DataValue, -0.2, -0.25, -0.00050722000000000007
DataValue, -0.19, -0.25, -0.00047534000000000004
DataValue, -0.18000000000000002, -0.25, -0.00044500000000000003
DataValue, -0.17, -0.25, -0.0004154
DataValue, -0.16, -0.25, -0.00038632
DataValue, -0.15, -0.25, -0.00035834
DataValue, -0.14, -0.25, -0.00033170000000000004
DataValue, -0.13, -0.25, -0.00030576
DataValue, -0.12000000000000001, -0.25, -0.00028118
DataValue, -0.11, -0.25, -0.00025756
DataValue, -0.1, -0.25, -0.00023544
DataValue, -0.090000000000000011, -0.25, -0.00021418
DataValue, -0.08, -0.25, -0.00019416000000000003
DataValue, -0.07, -0.25, -0.00017568
DataValue, -0.060000000000000005, -0.25, -0.00015776
DataValue, -0.05, -0.25, -0.00014166
DataValue, -0.04, -0.25, -0.00012680000000000002
DataValue, -0.030000000000000002, -0.25, -0.00011286000000000001
DataValue, -0.02, -0.25, -0.00010012000000000001
DataValue, -0.01, -0.25, -8.7332E-05
DataValue, 0, -0.25, -7.711E-05
DataValue, 0.01, -0.25, -6.7568E-05
DataValue, 0.02, -0.25, -5.8838E-05
DataValue, 0.030000000000000002, -0.25, -5.1122E-05
DataValue, 0.04, -0.25, -4.3816E-05
DataValue, 0.05, -0.25, -3.753E-05
DataValue, 0.060000000000000005, -0.25, -3.2032E-05
DataValue, 0.07, -0.25, -2.7124E-05
DataValue, 0.08, -0.25, -2.2858E-05
DataValue, 0.090000000000000011, -0.25, -1.9164E-05
