
SetupTitle, (c1) Output curve in LGP
PrimitiveTest, I/V Sweep
TestParameter, Context.MainFrame, B1500A
TestParameter, Channel.UnitType, SMU, SMU
TestParameter, Channel.Unit, SMU1:HR/AS, SMU2:HR/AS
TestParameter, Channel.IName, Ig, Id
TestParameter, Channel.VName, Vg, Vd
TestParameter, Channel.Mode, V, V
TestParameter, Channel.Func, VAR2, VAR1
TestParameter, Channel.Index, 
TestParameter, Channel.Time, 
TestParameter, Measurement.Port.Unit, SMU1:HR/AS, SMU2:HR/AS
TestParameter, Measurement.Port.SeriesResistor, NONE, NONE
TestParameter, Measurement.Port.Filter, ON, ON
TestParameter, Measurement.Port.OutputVoltageComparison, 0, 0
TestParameter, Measurement.Primary.Locus, Double
TestParameter, Measurement.Primary.Scale, LINEAR
TestParameter, Measurement.Primary.Start, 0.1
TestParameter, Measurement.Primary.Stop, -0.5
TestParameter, Measurement.Primary.Step, -0.012
TestParameter, Measurement.Primary.Compliance, 0.1
TestParameter, Measurement.Primary.PowerCompliance, 0
TestParameter, Measurement.Aborting.Condition, CONTINUE AT ANY
TestParameter, Measurement.PostOutput.Value, START
TestParameter, Measurement.PostOutput.Retention, OFF
TestParameter, Measurement.Secondary.Start, 0.1
TestParameter, Measurement.Secondary.Count, 6
TestParameter, Measurement.Secondary.Step, -0.1
TestParameter, Measurement.Secondary.Compliance, 0.0001
TestParameter, Measurement.Secondary.PowerCompliance, 0
TestParameter, Measurement.Bias.Source, 0.1, 0.1
TestParameter, Measurement.Bias.Compliance, 0.0001, 0.1
TestParameter, Measurement.Monitor.Unit, SMU1:HR/AS, SMU2:HR/AS
TestParameter, Measurement.Monitor.Adc, HR ADC, HR ADC
TestParameter, Measurement.Monitor.Measurement, Compliance Side, Compliance Side
TestParameter, Measurement.Monitor.RangingMode, LIMITED, LIMITED
TestParameter, Measurement.Monitor.RangeBoundary, 1nA, 1nA
TestParameter, Measurement.Monitor.RangeRating, BY FULL RANGE, BY FULL RANGE
TestParameter, Measurement.Monitor.RangeRatingCoeff, 50, 50
TestParameter, Measurement.Timing.Hold, 0
TestParameter, Measurement.Timing.Delay, 0
TestParameter, Measurement.Adc.HighSpeed.Mode, AUTO
TestParameter, Measurement.Adc.HighSpeed.Coeff, 1
TestParameter, Measurement.Adc.HighResolution.AutoZero, OFF
TestParameter, Measurement.Adc.HighResolution.Mode, AUTO
TestParameter, Measurement.Adc.HighResolution.Coeff, 6
TestParameter, Measurement.WaitTime.Source.Coeff, 1
TestParameter, Measurement.WaitTime.Source.Offset, 0
TestParameter, Measurement.WaitTime.Monitor.Coeff, 1
TestParameter, Measurement.WaitTime.Monitor.Offset, 0
TestParameter, Output.Graph.Enabled, true
TestParameter, Output.Graph.AutoScaling, false
TestParameter, Output.Graph.XAxis.Data, Vd
TestParameter, Output.Graph.XAxis.Scale, Linear
TestParameter, Output.Graph.XAxis.Left, 0
TestParameter, Output.Graph.XAxis.Right, -0.5
TestParameter, Output.Graph.XAxis.RunTimeAutoScale, true
TestParameter, Output.Graph.YAxis.Data, Id
TestParameter, Output.Graph.YAxis.Scale, Linear
TestParameter, Output.Graph.YAxis.Bottom, -0.1
TestParameter, Output.Graph.YAxis.Top, 0.1
TestParameter, Output.Graph.YAxis.Group, 
TestParameter, Output.Graph.YAxis.RunTimeAutoScale, true
TestParameter, Output.List.Data, Vd, Vg, Id
TestParameter, AutoAnalysis.Interpolation, false
TestParameter, AutoAnalysis.Var2StepCount, 1
TestParameter, AutoAnalysis.Var2StepScript, 
TestParameter, AutoAnalysis.Line1.Enabled, false
TestParameter, AutoAnalysis.Line1.Type, 1
TestParameter, AutoAnalysis.Line1.Fix, True
TestParameter, AutoAnalysis.Line1.YAxis, 0
TestParameter, AutoAnalysis.Line1.Point1.Type, 0
TestParameter, AutoAnalysis.Line1.Point1.XY.X, 
TestParameter, AutoAnalysis.Line1.Point1.XY.Y, 
TestParameter, AutoAnalysis.Line1.Point1.Data.Var, 
TestParameter, AutoAnalysis.Line1.Point1.Data.Condition, 
TestParameter, AutoAnalysis.Line1.Point1.Data.Start, false
TestParameter, AutoAnalysis.Line1.Point1.Data.StartVar, 
TestParameter, AutoAnalysis.Line1.Point1.Data.StartCondition, 
TestParameter, AutoAnalysis.Line1.Point2.Type, 0
TestParameter, AutoAnalysis.Line1.Point2.XY.X, 
TestParameter, AutoAnalysis.Line1.Point2.XY.Y, 
TestParameter, AutoAnalysis.Line1.Point2.Data.Var, 
TestParameter, AutoAnalysis.Line1.Point2.Data.Condition, 
TestParameter, AutoAnalysis.Line1.Point2.Data.Start, false
TestParameter, AutoAnalysis.Line1.Point2.Data.StartVar, 
TestParameter, AutoAnalysis.Line1.Point2.Data.StartCondition, 
TestParameter, AutoAnalysis.Line1.GradientExpr, 0
TestParameter, AutoAnalysis.Line2.Enabled, false
TestParameter, AutoAnalysis.Line2.Type, 1
TestParameter, AutoAnalysis.Line2.Fix, True
TestParameter, AutoAnalysis.Line2.YAxis, 0
TestParameter, AutoAnalysis.Line2.Point1.Type, 0
TestParameter, AutoAnalysis.Line2.Point1.XY.X, 
TestParameter, AutoAnalysis.Line2.Point1.XY.Y, 
TestParameter, AutoAnalysis.Line2.Point1.Data.Var, 
TestParameter, AutoAnalysis.Line2.Point1.Data.Condition, 
TestParameter, AutoAnalysis.Line2.Point1.Data.Start, false
TestParameter, AutoAnalysis.Line2.Point1.Data.StartVar, 
TestParameter, AutoAnalysis.Line2.Point1.Data.StartCondition, 
TestParameter, AutoAnalysis.Line2.Point2.Type, 0
TestParameter, AutoAnalysis.Line2.Point2.XY.X, 
TestParameter, AutoAnalysis.Line2.Point2.XY.Y, 
TestParameter, AutoAnalysis.Line2.Point2.Data.Var, 
TestParameter, AutoAnalysis.Line2.Point2.Data.Condition, 
TestParameter, AutoAnalysis.Line2.Point2.Data.Start, false
TestParameter, AutoAnalysis.Line2.Point2.Data.StartVar, 
TestParameter, AutoAnalysis.Line2.Point2.Data.StartCondition, 
TestParameter, AutoAnalysis.Line2.GradientExpr, 0
TestParameter, AutoAnalysis.Marker.Enabled, false
TestParameter, AutoAnalysis.Marker.Data.Var, 
TestParameter, AutoAnalysis.Marker.Data.Condition, 
TestParameter, AutoAnalysis.Marker.Data.Start, false
TestParameter, AutoAnalysis.Marker.Data.StartVar, 
TestParameter, AutoAnalysis.Marker.Data.StartCondition, 
MetaData, TestRecord.EntryPoint, true
MetaData, TestRecord.RecordTime, 12/22/2024 05:59:53
MetaData, TestRecord.TestTarget, 
MetaData, TestRecord.IterationIndex, 2
MetaData, TestRecord.Preservation, true
MetaData, TestRecord.Flag, 
MetaData, TestRecord.Remarks, developer-s21c1
MetaData, TestRecord.LinkKey, 00baa265-7581-4154-a8a5-b7990437f5b7
MetaData, TestRecord.Parameters, 
Dimension1, 102, 102, 102
Dimension2, 6, 6, 6
DataName, Vd, Vg, Id
DataValue, 0.1, 0.1, 9.829E-06
DataValue, 0.088000000000000009, 0.1, 8.2416000000000008E-06
DataValue, 0.076, 0.1, 6.729E-06
DataValue, 0.064, 0.1, 5.2915000000000009E-06
DataValue, 0.052000000000000005, 0.1, 4.0696000000000008E-06
DataValue, 0.04, 0.1, 2.9321000000000003E-06
DataValue, 0.028, 0.1, 1.8649000000000001E-06
DataValue, 0.016, 0.1, 9.9227999999999988E-07
DataValue, 0.004, 0.1, 1.545E-07
DataValue, -0.008, 0.1, -4.8091999999999994E-07
DataValue, -0.02, 0.1, -1.11276E-06
DataValue, -0.032, 0.1, -1.5089E-06
DataValue, -0.044000000000000004, 0.1, -1.9812E-06
DataValue, -0.056, 0.1, -2.2990000000000004E-06
DataValue, -0.068, 0.1, -2.5993000000000003E-06
DataValue, -0.08, 0.1, -2.8761000000000003E-06
DataValue, -0.092, 0.1, -3.0025000000000005E-06
DataValue, -0.10400000000000001, 0.1, -3.1784000000000004E-06
DataValue, -0.116, 0.1, -3.3115000000000004E-06
DataValue, -0.128, 0.1, -3.3452E-06
DataValue, -0.14, 0.1, -3.4344000000000005E-06
DataValue, -0.152, 0.1, -3.4893E-06
DataValue, -0.164, 0.1, -3.4814000000000002E-06
DataValue, -0.17600000000000002, 0.1, -3.5085000000000004E-06
DataValue, -0.188, 0.1, -3.5570000000000004E-06
DataValue, -0.2, 0.1, -3.5263000000000004E-06
DataValue, -0.21200000000000002, 0.1, -3.5256E-06
DataValue, -0.224, 0.1, -3.5713000000000004E-06
DataValue, -0.23600000000000002, 0.1, -3.5351000000000003E-06
DataValue, -0.248, 0.1, -3.5219000000000005E-06
DataValue, -0.26, 0.1, -3.5696000000000005E-06
DataValue, -0.272, 0.1, -3.5486E-06
DataValue, -0.28400000000000003, 0.1, -3.5174000000000004E-06
DataValue, -0.29600000000000004, 0.1, -3.5649000000000004E-06
DataValue, -0.308, 0.1, -3.5646000000000006E-06
DataValue, -0.32, 0.1, -3.5296000000000005E-06
DataValue, -0.332, 0.1, -3.5639000000000003E-06
DataValue, -0.34400000000000003, 0.1, -3.5773000000000005E-06
DataValue, -0.35600000000000004, 0.1, -3.5332000000000003E-06
DataValue, -0.368, 0.1, -3.5529000000000003E-06
DataValue, -0.38, 0.1, -3.5976000000000005E-06
DataValue, -0.392, 0.1, -3.5549000000000005E-06
DataValue, -0.404, 0.1, -3.5548000000000003E-06
DataValue, -0.41600000000000004, 0.1, -3.5963E-06
DataValue, -0.42800000000000005, 0.1, -3.5591000000000004E-06
DataValue, -0.44, 0.1, -3.5550000000000003E-06
DataValue, -0.452, 0.1, -3.6046E-06
DataValue, -0.464, 0.1, -3.5891000000000005E-06
DataValue, -0.47600000000000003, 0.1, -3.5570000000000004E-06
DataValue, -0.48800000000000004, 0.1, -3.6119000000000005E-06
DataValue, -0.5, 0.1, -3.5741000000000002E-06
DataValue, -0.5, 0.1, -3.5698000000000005E-06
DataValue, -0.48800000000000004, 0.1, -3.5966000000000004E-06
DataValue, -0.47600000000000003, 0.1, -3.5380000000000003E-06
DataValue, -0.464, 0.1, -3.5173E-06
DataValue, -0.452, 0.1, -3.5525000000000003E-06
DataValue, -0.44, 0.1, -3.4972E-06
DataValue, -0.42800000000000005, 0.1, -3.4774000000000004E-06
DataValue, -0.41600000000000004, 0.1, -3.5086E-06
DataValue, -0.404, 0.1, -3.4727000000000002E-06
DataValue, -0.392, 0.1, -3.4380000000000004E-06
DataValue, -0.38, 0.1, -3.4606000000000004E-06
DataValue, -0.368, 0.1, -3.4323E-06
DataValue, -0.35600000000000004, 0.1, -3.3938000000000004E-06
DataValue, -0.34400000000000003, 0.1, -3.4184E-06
DataValue, -0.332, 0.1, -3.4056000000000005E-06
DataValue, -0.32, 0.1, -3.3533E-06
DataValue, -0.308, 0.1, -3.3842E-06
DataValue, -0.29600000000000004, 0.1, -3.3662000000000005E-06
DataValue, -0.28400000000000003, 0.1, -3.3067000000000005E-06
DataValue, -0.272, 0.1, -3.3059000000000004E-06
DataValue, -0.26, 0.1, -3.3158000000000005E-06
DataValue, -0.248, 0.1, -3.2473000000000002E-06
DataValue, -0.23600000000000002, 0.1, -3.2479000000000003E-06
DataValue, -0.224, 0.1, -3.2426000000000005E-06
DataValue, -0.21200000000000002, 0.1, -3.1679E-06
DataValue, -0.2, 0.1, -3.1677E-06
DataValue, -0.188, 0.1, -3.1447E-06
DataValue, -0.17600000000000002, 0.1, -3.0569000000000003E-06
DataValue, -0.164, 0.1, -3.0388000000000004E-06
DataValue, -0.152, 0.1, -3.0002000000000005E-06
DataValue, -0.14, 0.1, -2.8970000000000004E-06
DataValue, -0.128, 0.1, -2.8282000000000003E-06
DataValue, -0.116, 0.1, -2.7576E-06
DataValue, -0.10400000000000001, 0.1, -2.6004E-06
DataValue, -0.092, 0.1, -2.4466000000000004E-06
DataValue, -0.08, 0.1, -2.3090000000000003E-06
DataValue, -0.068, 0.1, -2.0713000000000004E-06
DataValue, -0.056, 0.1, -1.8014000000000002E-06
DataValue, -0.044000000000000004, 0.1, -1.5545000000000001E-06
DataValue, -0.032, 0.1, -1.1857000000000001E-06
DataValue, -0.02, 0.1, -8.0842E-07
DataValue, -0.008, 0.1, -2.9204E-07
DataValue, 0.004, 0.1, 3.0102E-07
DataValue, 0.016, 0.1, 9.2162E-07
DataValue, 0.028, 0.1, 1.6499E-06
DataValue, 0.04, 0.1, 2.5149000000000003E-06
DataValue, 0.052000000000000005, 0.1, 3.5144E-06
DataValue, 0.064, 0.1, 4.5485000000000006E-06
DataValue, 0.076, 0.1, 5.7585000000000009E-06
DataValue, 0.088000000000000009, 0.1, 7.1339000000000004E-06
DataValue, 0.1, 0.1, 8.5699E-06
DataValue, 0.1, 0, 1.9526E-05
DataValue, 0.088000000000000009, 0, 1.6568E-05
DataValue, 0.076, 0, 1.3804E-05
DataValue, 0.064, 0, 1.1228E-05
DataValue, 0.052000000000000005, 0, 8.7160000000000009E-06
DataValue, 0.04, 0, 6.4771000000000011E-06
DataValue, 0.028, 0, 4.3267000000000004E-06
DataValue, 0.016, 0, 2.3325E-06
DataValue, 0.004, 0, 5.2396E-07
DataValue, -0.008, 0, -1.13014E-06
DataValue, -0.02, 0, -2.6051000000000003E-06
DataValue, -0.032, 0, -3.9749000000000007E-06
DataValue, -0.044000000000000004, 0, -5.2825000000000007E-06
DataValue, -0.056, 0, -6.3996000000000005E-06
DataValue, -0.068, 0, -7.3569000000000007E-06
DataValue, -0.08, 0, -8.2977E-06
DataValue, -0.092, 0, -9.0617000000000017E-06
DataValue, -0.10400000000000001, 0, -9.7091000000000016E-06
DataValue, -0.116, 0, -1.03398E-05
DataValue, -0.128, 0, -1.0858400000000001E-05
DataValue, -0.14, 0, -1.12352E-05
DataValue, -0.152, 0, -1.1406E-05
DataValue, -0.164, 0, -1.1746E-05
DataValue, -0.17600000000000002, 0, -1.1984E-05
DataValue, -0.188, 0, -1.2244E-05
DataValue, -0.2, 0, -1.2442E-05
DataValue, -0.21200000000000002, 0, -1.2582E-05
DataValue, -0.224, 0, -1.2642E-05
DataValue, -0.23600000000000002, 0, -1.2814E-05
DataValue, -0.248, 0, -1.29E-05
DataValue, -0.26, 0, -1.2898000000000001E-05
DataValue, -0.272, 0, -1.2954E-05
DataValue, -0.28400000000000003, 0, -1.3054E-05
DataValue, -0.29600000000000004, 0, -1.3072000000000001E-05
DataValue, -0.308, 0, -1.3074E-05
DataValue, -0.32, 0, -1.3122E-05
DataValue, -0.332, 0, -1.3214000000000001E-05
DataValue, -0.34400000000000003, 0, -1.321E-05
DataValue, -0.35600000000000004, 0, -1.323E-05
DataValue, -0.368, 0, -1.3296000000000001E-05
DataValue, -0.38, 0, -1.3346E-05
DataValue, -0.392, 0, -1.3352E-05
DataValue, -0.404, 0, -1.3338E-05
DataValue, -0.41600000000000004, 0, -1.3402E-05
DataValue, -0.42800000000000005, 0, -1.3464E-05
DataValue, -0.44, 0, -1.3424E-05
DataValue, -0.452, 0, -1.3458E-05
DataValue, -0.464, 0, -1.3514E-05
DataValue, -0.47600000000000003, 0, -1.356E-05
DataValue, -0.48800000000000004, 0, -1.3530000000000001E-05
DataValue, -0.5, 0, -1.3608E-05
DataValue, -0.5, 0, -1.362E-05
DataValue, -0.48800000000000004, 0, -1.3532E-05
DataValue, -0.47600000000000003, 0, -1.3542E-05
DataValue, -0.464, 0, -1.3554000000000001E-05
DataValue, -0.452, 0, -1.3518E-05
DataValue, -0.44, 0, -1.3468E-05
DataValue, -0.42800000000000005, 0, -1.3484E-05
DataValue, -0.41600000000000004, 0, -1.3464E-05
DataValue, -0.404, 0, -1.3406E-05
DataValue, -0.392, 0, -1.3368E-05
DataValue, -0.38, 0, -1.3372E-05
DataValue, -0.368, 0, -1.3332E-05
DataValue, -0.35600000000000004, 0, -1.3256E-05
DataValue, -0.34400000000000003, 0, -1.3198E-05
DataValue, -0.332, 0, -1.3188E-05
DataValue, -0.32, 0, -1.3160000000000001E-05
DataValue, -0.308, 0, -1.3048000000000001E-05
DataValue, -0.29600000000000004, 0, -1.302E-05
DataValue, -0.28400000000000003, 0, -1.2976E-05
DataValue, -0.272, 0, -1.2902000000000001E-05
DataValue, -0.26, 0, -1.2790000000000001E-05
DataValue, -0.248, 0, -1.2696E-05
DataValue, -0.23600000000000002, 0, -1.2628E-05
DataValue, -0.224, 0, -1.2494000000000001E-05
DataValue, -0.21200000000000002, 0, -1.2322E-05
DataValue, -0.2, 0, -1.2172E-05
DataValue, -0.188, 0, -1.2004E-05
DataValue, -0.17600000000000002, 0, -1.1742E-05
DataValue, -0.164, 0, -1.1428E-05
DataValue, -0.152, 0, -1.1154E-05
DataValue, -0.14, 0, -1.0802000000000001E-05
DataValue, -0.128, 0, -1.0332E-05
DataValue, -0.116, 0, -9.9227E-06
DataValue, -0.10400000000000001, 0, -9.3250000000000014E-06
DataValue, -0.092, 0, -8.6616E-06
DataValue, -0.08, 0, -7.9254E-06
DataValue, -0.068, 0, -7.0213000000000009E-06
DataValue, -0.056, 0, -6.0625000000000008E-06
DataValue, -0.044000000000000004, 0, -5.0260000000000007E-06
DataValue, -0.032, 0, -3.7784000000000005E-06
DataValue, -0.02, 0, -2.4508000000000003E-06
DataValue, -0.008, 0, -9.9026E-07
DataValue, 0.004, 0, 6.2186E-07
DataValue, 0.016, 0, 2.4134E-06
DataValue, 0.028, 0, 4.3884E-06
DataValue, 0.04, 0, 6.5827000000000005E-06
DataValue, 0.052000000000000005, 0, 8.871E-06
DataValue, 0.064, 0, 1.1395400000000001E-05
DataValue, 0.076, 0, 1.4342000000000001E-05
DataValue, 0.088000000000000009, 0, 1.7214E-05
DataValue, 0.1, 0, 2.0368000000000002E-05
DataValue, 0.1, -0.1, 3.6102E-05
DataValue, 0.088000000000000009, -0.1, 3.1056E-05
DataValue, 0.076, -0.1, 2.6202E-05
DataValue, 0.064, -0.1, 2.1458E-05
DataValue, 0.052000000000000005, -0.1, 1.696E-05
DataValue, 0.04, -0.1, 1.2716E-05
DataValue, 0.028, -0.1, 8.5894000000000011E-06
DataValue, 0.016, -0.1, 4.7935000000000008E-06
DataValue, 0.004, -0.1, 1.1328000000000002E-06
DataValue, -0.008, -0.1, -2.3435E-06
DataValue, -0.02, -0.1, -5.5324000000000006E-06
DataValue, -0.032, -0.1, -8.5542E-06
DataValue, -0.044000000000000004, -0.1, -1.1451900000000001E-05
DataValue, -0.056, -0.1, -1.3896E-05
DataValue, -0.068, -0.1, -1.6416E-05
DataValue, -0.08, -0.1, -1.8748E-05
DataValue, -0.092, -0.1, -2.0854E-05
DataValue, -0.10400000000000001, -0.1, -2.273E-05
DataValue, -0.116, -0.1, -2.453E-05
DataValue, -0.128, -0.1, -2.6128E-05
DataValue, -0.14, -0.1, -2.7534E-05
DataValue, -0.152, -0.1, -2.8854000000000002E-05
DataValue, -0.164, -0.1, -3.009E-05
DataValue, -0.17600000000000002, -0.1, -3.1038E-05
DataValue, -0.188, -0.1, -3.1914E-05
DataValue, -0.2, -0.1, -3.2764E-05
DataValue, -0.21200000000000002, -0.1, -3.3468E-05
DataValue, -0.224, -0.1, -3.3986E-05
DataValue, -0.23600000000000002, -0.1, -3.4494E-05
DataValue, -0.248, -0.1, -3.498E-05
DataValue, -0.26, -0.1, -3.5252E-05
DataValue, -0.272, -0.1, -3.5554E-05
DataValue, -0.28400000000000003, -0.1, -3.5828E-05
DataValue, -0.29600000000000004, -0.1, -3.6044E-05
DataValue, -0.308, -0.1, -3.6156000000000004E-05
DataValue, -0.32, -0.1, -3.6328E-05
DataValue, -0.332, -0.1, -3.6572E-05
DataValue, -0.34400000000000003, -0.1, -3.6658E-05
DataValue, -0.35600000000000004, -0.1, -3.6744E-05
DataValue, -0.368, -0.1, -3.6848000000000004E-05
DataValue, -0.38, -0.1, -3.6956E-05
DataValue, -0.392, -0.1, -3.7026E-05
DataValue, -0.404, -0.1, -3.715E-05
DataValue, -0.41600000000000004, -0.1, -3.7252E-05
DataValue, -0.42800000000000005, -0.1, -3.7302E-05
DataValue, -0.44, -0.1, -3.74E-05
DataValue, -0.452, -0.1, -3.7502E-05
DataValue, -0.464, -0.1, -3.7584000000000005E-05
DataValue, -0.47600000000000003, -0.1, -3.7630000000000004E-05
DataValue, -0.48800000000000004, -0.1, -3.774E-05
DataValue, -0.5, -0.1, -3.7802E-05
DataValue, -0.5, -0.1, -3.7784E-05
DataValue, -0.48800000000000004, -0.1, -3.7708E-05
DataValue, -0.47600000000000003, -0.1, -3.7644E-05
DataValue, -0.464, -0.1, -3.761E-05
DataValue, -0.452, -0.1, -3.7454000000000004E-05
DataValue, -0.44, -0.1, -3.7424E-05
DataValue, -0.42800000000000005, -0.1, -3.7382E-05
DataValue, -0.41600000000000004, -0.1, -3.7268E-05
DataValue, -0.404, -0.1, -3.7108000000000005E-05
DataValue, -0.392, -0.1, -3.7018000000000004E-05
DataValue, -0.38, -0.1, -3.6968E-05
DataValue, -0.368, -0.1, -3.68E-05
DataValue, -0.35600000000000004, -0.1, -3.6644000000000004E-05
DataValue, -0.34400000000000003, -0.1, -3.6554E-05
DataValue, -0.332, -0.1, -3.6338000000000003E-05
DataValue, -0.32, -0.1, -3.6124E-05
DataValue, -0.308, -0.1, -3.5928E-05
DataValue, -0.29600000000000004, -0.1, -3.5722E-05
DataValue, -0.28400000000000003, -0.1, -3.5412E-05
DataValue, -0.272, -0.1, -3.504E-05
DataValue, -0.26, -0.1, -3.4666E-05
DataValue, -0.248, -0.1, -3.4294E-05
DataValue, -0.23600000000000002, -0.1, -3.3788E-05
DataValue, -0.224, -0.1, -3.3176E-05
DataValue, -0.21200000000000002, -0.1, -3.257E-05
DataValue, -0.2, -0.1, -3.1902E-05
DataValue, -0.188, -0.1, -3.1052E-05
DataValue, -0.17600000000000002, -0.1, -3.0104000000000002E-05
DataValue, -0.164, -0.1, -2.9132E-05
DataValue, -0.152, -0.1, -2.8016E-05
DataValue, -0.14, -0.1, -2.6718E-05
DataValue, -0.128, -0.1, -2.5312E-05
DataValue, -0.116, -0.1, -2.3782E-05
DataValue, -0.10400000000000001, -0.1, -2.2118E-05
DataValue, -0.092, -0.1, -2.0248E-05
DataValue, -0.08, -0.1, -1.8192E-05
DataValue, -0.068, -0.1, -1.6048E-05
DataValue, -0.056, -0.1, -1.3706E-05
DataValue, -0.044000000000000004, -0.1, -1.1088000000000001E-05
DataValue, -0.032, -0.1, -8.4323E-06
DataValue, -0.02, -0.1, -5.3961000000000007E-06
DataValue, -0.008, -0.1, -2.1666E-06
DataValue, 0.004, -0.1, 1.1997000000000001E-06
DataValue, 0.016, -0.1, 4.8667E-06
DataValue, 0.028, -0.1, 8.7988000000000012E-06
DataValue, 0.04, -0.1, 1.3012E-05
DataValue, 0.052000000000000005, -0.1, 1.7428E-05
DataValue, 0.064, -0.1, 2.211E-05
DataValue, 0.076, -0.1, 2.6946000000000003E-05
DataValue, 0.088000000000000009, -0.1, 3.2056E-05
DataValue, 0.1, -0.1, 3.7526E-05
DataValue, 0.1, -0.2, 5.5758000000000004E-05
DataValue, 0.088000000000000009, -0.2, 4.8328E-05
DataValue, 0.076, -0.2, 4.1124E-05
DataValue, 0.064, -0.2, 3.4058E-05
DataValue, 0.052000000000000005, -0.2, 2.7136000000000002E-05
