
SetupTitle, (c1) Output curve in LGP
PrimitiveTest, I/V Sweep
TestParameter, Context.MainFrame, B1500A
TestParameter, Channel.UnitType, SMU, SMU
TestParameter, Channel.Unit, SMU1:HR/AS, SMU2:HR/AS
TestParameter, Channel.IName, Ig, Id
TestParameter, Channel.VName, Vg, Vd
TestParameter, Channel.Mode, V, V
TestParameter, Channel.Func, VAR2, VAR1
TestParameter, Channel.Index, 
TestParameter, Channel.Time, 
TestParameter, Measurement.Port.Unit, SMU1:HR/AS, SMU2:HR/AS
TestParameter, Measurement.Port.SeriesResistor, NONE, NONE
TestParameter, Measurement.Port.Filter, ON, ON
TestParameter, Measurement.Port.OutputVoltageComparison, 0, 0
TestParameter, Measurement.Primary.Locus, Double
TestParameter, Measurement.Primary.Scale, LINEAR
TestParameter, Measurement.Primary.Start, 0.1
TestParameter, Measurement.Primary.Stop, -0.5
TestParameter, Measurement.Primary.Step, -0.012
TestParameter, Measurement.Primary.Compliance, 0.1
TestParameter, Measurement.Primary.PowerCompliance, 0
TestParameter, Measurement.Aborting.Condition, CONTINUE AT ANY
TestParameter, Measurement.PostOutput.Value, START
TestParameter, Measurement.PostOutput.Retention, OFF
TestParameter, Measurement.Secondary.Start, 0.1
TestParameter, Measurement.Secondary.Count, 6
TestParameter, Measurement.Secondary.Step, -0.1
TestParameter, Measurement.Secondary.Compliance, 0.0001
TestParameter, Measurement.Secondary.PowerCompliance, 0
TestParameter, Measurement.Bias.Source, 0.1, 0.1
TestParameter, Measurement.Bias.Compliance, 0.0001, 0.1
TestParameter, Measurement.Monitor.Unit, SMU1:HR/AS, SMU2:HR/AS
TestParameter, Measurement.Monitor.Adc, HR ADC, HR ADC
TestParameter, Measurement.Monitor.Measurement, Compliance Side, Compliance Side
TestParameter, Measurement.Monitor.RangingMode, LIMITED, LIMITED
TestParameter, Measurement.Monitor.RangeBoundary, 1nA, 1nA
TestParameter, Measurement.Monitor.RangeRating, BY FULL RANGE, BY FULL RANGE
TestParameter, Measurement.Monitor.RangeRatingCoeff, 50, 50
TestParameter, Measurement.Timing.Hold, 0
TestParameter, Measurement.Timing.Delay, 0
TestParameter, Measurement.Adc.HighSpeed.Mode, AUTO
TestParameter, Measurement.Adc.HighSpeed.Coeff, 1
TestParameter, Measurement.Adc.HighResolution.AutoZero, OFF
TestParameter, Measurement.Adc.HighResolution.Mode, AUTO
TestParameter, Measurement.Adc.HighResolution.Coeff, 6
TestParameter, Measurement.WaitTime.Source.Coeff, 1
TestParameter, Measurement.WaitTime.Source.Offset, 0
TestParameter, Measurement.WaitTime.Monitor.Coeff, 1
TestParameter, Measurement.WaitTime.Monitor.Offset, 0
TestParameter, Output.Graph.Enabled, true
TestParameter, Output.Graph.AutoScaling, false
TestParameter, Output.Graph.XAxis.Data, Vd
TestParameter, Output.Graph.XAxis.Scale, Linear
TestParameter, Output.Graph.XAxis.Left, 0
TestParameter, Output.Graph.XAxis.Right, -0.5
TestParameter, Output.Graph.XAxis.RunTimeAutoScale, true
TestParameter, Output.Graph.YAxis.Data, Id
TestParameter, Output.Graph.YAxis.Scale, Linear
TestParameter, Output.Graph.YAxis.Bottom, -0.1
TestParameter, Output.Graph.YAxis.Top, 0.1
TestParameter, Output.Graph.YAxis.Group, 
TestParameter, Output.Graph.YAxis.RunTimeAutoScale, true
TestParameter, Output.List.Data, Vd, Vg, Id
TestParameter, AutoAnalysis.Interpolation, false
TestParameter, AutoAnalysis.Var2StepCount, 1
TestParameter, AutoAnalysis.Var2StepScript, 
TestParameter, AutoAnalysis.Line1.Enabled, false
TestParameter, AutoAnalysis.Line1.Type, 1
TestParameter, AutoAnalysis.Line1.Fix, True
TestParameter, AutoAnalysis.Line1.YAxis, 0
TestParameter, AutoAnalysis.Line1.Point1.Type, 0
TestParameter, AutoAnalysis.Line1.Point1.XY.X, 
TestParameter, AutoAnalysis.Line1.Point1.XY.Y, 
TestParameter, AutoAnalysis.Line1.Point1.Data.Var, 
TestParameter, AutoAnalysis.Line1.Point1.Data.Condition, 
TestParameter, AutoAnalysis.Line1.Point1.Data.Start, false
TestParameter, AutoAnalysis.Line1.Point1.Data.StartVar, 
TestParameter, AutoAnalysis.Line1.Point1.Data.StartCondition, 
TestParameter, AutoAnalysis.Line1.Point2.Type, 0
TestParameter, AutoAnalysis.Line1.Point2.XY.X, 
TestParameter, AutoAnalysis.Line1.Point2.XY.Y, 
TestParameter, AutoAnalysis.Line1.Point2.Data.Var, 
TestParameter, AutoAnalysis.Line1.Point2.Data.Condition, 
TestParameter, AutoAnalysis.Line1.Point2.Data.Start, false
TestParameter, AutoAnalysis.Line1.Point2.Data.StartVar, 
TestParameter, AutoAnalysis.Line1.Point2.Data.StartCondition, 
TestParameter, AutoAnalysis.Line1.GradientExpr, 0
TestParameter, AutoAnalysis.Line2.Enabled, false
TestParameter, AutoAnalysis.Line2.Type, 1
TestParameter, AutoAnalysis.Line2.Fix, True
TestParameter, AutoAnalysis.Line2.YAxis, 0
TestParameter, AutoAnalysis.Line2.Point1.Type, 0
TestParameter, AutoAnalysis.Line2.Point1.XY.X, 
TestParameter, AutoAnalysis.Line2.Point1.XY.Y, 
TestParameter, AutoAnalysis.Line2.Point1.Data.Var, 
TestParameter, AutoAnalysis.Line2.Point1.Data.Condition, 
TestParameter, AutoAnalysis.Line2.Point1.Data.Start, false
TestParameter, AutoAnalysis.Line2.Point1.Data.StartVar, 
TestParameter, AutoAnalysis.Line2.Point1.Data.StartCondition, 
TestParameter, AutoAnalysis.Line2.Point2.Type, 0
TestParameter, AutoAnalysis.Line2.Point2.XY.X, 
TestParameter, AutoAnalysis.Line2.Point2.XY.Y, 
TestParameter, AutoAnalysis.Line2.Point2.Data.Var, 
TestParameter, AutoAnalysis.Line2.Point2.Data.Condition, 
TestParameter, AutoAnalysis.Line2.Point2.Data.Start, false
TestParameter, AutoAnalysis.Line2.Point2.Data.StartVar, 
TestParameter, AutoAnalysis.Line2.Point2.Data.StartCondition, 
TestParameter, AutoAnalysis.Line2.GradientExpr, 0
TestParameter, AutoAnalysis.Marker.Enabled, false
TestParameter, AutoAnalysis.Marker.Data.Var, 
TestParameter, AutoAnalysis.Marker.Data.Condition, 
TestParameter, AutoAnalysis.Marker.Data.Start, false
TestParameter, AutoAnalysis.Marker.Data.StartVar, 
TestParameter, AutoAnalysis.Marker.Data.StartCondition, 
MetaData, TestRecord.EntryPoint, true
MetaData, TestRecord.RecordTime, 12/22/2024 06:08:36
MetaData, TestRecord.TestTarget, 
MetaData, TestRecord.IterationIndex, 1
MetaData, TestRecord.Preservation, true
MetaData, TestRecord.Flag, 
MetaData, TestRecord.Remarks, developer-s21c4
MetaData, TestRecord.LinkKey, 81cb53f3-f651-413b-9020-3fd788442269
MetaData, TestRecord.Parameters, 
Dimension1, 102, 102, 102
Dimension2, 6, 6, 6
DataName, Vd, Vg, Id
DataValue, 0.1, 0.1, 1.5612E-05
DataValue, 0.088000000000000009, 0.1, 1.3198E-05
DataValue, 0.076, 0.1, 1.0846000000000001E-05
DataValue, 0.064, 0.1, 8.6562E-06
DataValue, 0.052000000000000005, 0.1, 6.660200000000001E-06
DataValue, 0.04, 0.1, 4.8271000000000008E-06
DataValue, 0.028, 0.1, 3.2223000000000005E-06
DataValue, 0.016, 0.1, 1.7067000000000001E-06
DataValue, 0.004, 0.1, 4.1232E-07
DataValue, -0.008, 0.1, -8.0818E-07
DataValue, -0.02, 0.1, -1.7632000000000001E-06
DataValue, -0.032, 0.1, -2.6370000000000003E-06
DataValue, -0.044000000000000004, 0.1, -3.3658000000000005E-06
DataValue, -0.056, 0.1, -4.0684000000000007E-06
DataValue, -0.068, 0.1, -4.624E-06
DataValue, -0.08, 0.1, -5.0357000000000008E-06
DataValue, -0.092, 0.1, -5.4484E-06
DataValue, -0.10400000000000001, 0.1, -5.7677000000000007E-06
DataValue, -0.116, 0.1, -5.9623000000000005E-06
DataValue, -0.128, 0.1, -6.1818000000000007E-06
DataValue, -0.14, 0.1, -6.3117000000000009E-06
DataValue, -0.152, 0.1, -6.3912000000000007E-06
DataValue, -0.164, 0.1, -6.5127E-06
DataValue, -0.17600000000000002, 0.1, -6.5684000000000005E-06
DataValue, -0.188, 0.1, -6.5971000000000008E-06
DataValue, -0.2, 0.1, -6.6292000000000008E-06
DataValue, -0.21200000000000002, 0.1, -6.6443000000000009E-06
DataValue, -0.224, 0.1, -6.6385000000000009E-06
DataValue, -0.23600000000000002, 0.1, -6.6617000000000009E-06
DataValue, -0.248, 0.1, -6.6650000000000006E-06
DataValue, -0.26, 0.1, -6.6369000000000008E-06
DataValue, -0.272, 0.1, -6.671000000000001E-06
DataValue, -0.28400000000000003, 0.1, -6.678E-06
DataValue, -0.29600000000000004, 0.1, -6.6332E-06
DataValue, -0.308, 0.1, -6.6708000000000006E-06
DataValue, -0.32, 0.1, -6.6657E-06
DataValue, -0.332, 0.1, -6.6672E-06
DataValue, -0.34400000000000003, 0.1, -6.6786000000000007E-06
DataValue, -0.35600000000000004, 0.1, -6.6488000000000006E-06
DataValue, -0.368, 0.1, -6.6149000000000008E-06
DataValue, -0.38, 0.1, -6.6021000000000007E-06
DataValue, -0.392, 0.1, -6.5985000000000004E-06
DataValue, -0.404, 0.1, -6.5995000000000009E-06
DataValue, -0.41600000000000004, 0.1, -6.6758000000000005E-06
DataValue, -0.42800000000000005, 0.1, -6.6234000000000008E-06
DataValue, -0.44, 0.1, -6.615000000000001E-06
DataValue, -0.452, 0.1, -6.6947000000000005E-06
DataValue, -0.464, 0.1, -6.6311000000000008E-06
DataValue, -0.47600000000000003, 0.1, -6.6453000000000006E-06
DataValue, -0.48800000000000004, 0.1, -6.729700000000001E-06
DataValue, -0.5, 0.1, -6.6892E-06
DataValue, -0.5, 0.1, -6.6416000000000009E-06
DataValue, -0.48800000000000004, 0.1, -6.6436000000000011E-06
DataValue, -0.47600000000000003, 0.1, -6.6724000000000007E-06
DataValue, -0.464, 0.1, -6.5863000000000008E-06
DataValue, -0.452, 0.1, -6.5185E-06
DataValue, -0.44, 0.1, -6.5082000000000006E-06
DataValue, -0.42800000000000005, 0.1, -6.4623000000000008E-06
DataValue, -0.41600000000000004, 0.1, -6.4007E-06
DataValue, -0.404, 0.1, -6.4476000000000007E-06
DataValue, -0.392, 0.1, -6.3789000000000009E-06
DataValue, -0.38, 0.1, -6.3417000000000006E-06
DataValue, -0.368, 0.1, -6.3360000000000008E-06
DataValue, -0.35600000000000004, 0.1, -6.3305000000000006E-06
DataValue, -0.34400000000000003, 0.1, -6.2543E-06
DataValue, -0.332, 0.1, -6.2523E-06
DataValue, -0.32, 0.1, -6.2469E-06
DataValue, -0.308, 0.1, -6.1832E-06
DataValue, -0.29600000000000004, 0.1, -6.1689E-06
DataValue, -0.28400000000000003, 0.1, -6.1451000000000007E-06
DataValue, -0.272, 0.1, -6.0727E-06
DataValue, -0.26, 0.1, -6.0061000000000008E-06
DataValue, -0.248, 0.1, -6.0104000000000009E-06
DataValue, -0.23600000000000002, 0.1, -5.9383E-06
DataValue, -0.224, 0.1, -5.8419000000000008E-06
DataValue, -0.21200000000000002, 0.1, -5.8376000000000007E-06
DataValue, -0.2, 0.1, -5.7593000000000009E-06
DataValue, -0.188, 0.1, -5.6974000000000007E-06
DataValue, -0.17600000000000002, 0.1, -5.6219E-06
DataValue, -0.164, 0.1, -5.5162000000000007E-06
DataValue, -0.152, 0.1, -5.4014000000000005E-06
DataValue, -0.14, 0.1, -5.2746E-06
DataValue, -0.128, 0.1, -5.1473000000000007E-06
DataValue, -0.116, 0.1, -4.9403000000000008E-06
DataValue, -0.10400000000000001, 0.1, -4.6945000000000005E-06
DataValue, -0.092, 0.1, -4.4913000000000005E-06
DataValue, -0.08, 0.1, -4.0987E-06
DataValue, -0.068, 0.1, -3.7164000000000005E-06
DataValue, -0.056, 0.1, -3.3101000000000003E-06
DataValue, -0.044000000000000004, 0.1, -2.7483000000000004E-06
DataValue, -0.032, 0.1, -2.1120000000000003E-06
DataValue, -0.02, 0.1, -1.4338000000000002E-06
DataValue, -0.008, 0.1, -5.8786E-07
DataValue, 0.004, 0.1, 3.2404E-07
DataValue, 0.016, 0.1, 1.4184E-06
DataValue, 0.028, 0.1, 2.6738E-06
DataValue, 0.04, 0.1, 4.057E-06
DataValue, 0.052000000000000005, 0.1, 5.5494000000000006E-06
DataValue, 0.064, 0.1, 7.2339E-06
DataValue, 0.076, 0.1, 9.1577E-06
DataValue, 0.088000000000000009, 0.1, 1.1186100000000001E-05
DataValue, 0.1, 0.1, 1.3762E-05
DataValue, 0.1, 0, 2.8088E-05
DataValue, 0.088000000000000009, 0, 2.3964E-05
DataValue, 0.076, 0, 2.0038E-05
DataValue, 0.064, 0, 1.6342E-05
DataValue, 0.052000000000000005, 0, 1.2796E-05
DataValue, 0.04, 0, 9.4867E-06
DataValue, 0.028, 0, 6.386300000000001E-06
DataValue, 0.016, 0, 3.4844000000000005E-06
DataValue, 0.004, 0, 8.0796E-07
DataValue, -0.008, 0, -1.6676000000000001E-06
DataValue, -0.02, 0, -3.9365E-06
DataValue, -0.032, 0, -6.0259E-06
DataValue, -0.044000000000000004, 0, -8.0142E-06
DataValue, -0.056, 0, -9.7209E-06
DataValue, -0.068, 0, -1.1291200000000001E-05
DataValue, -0.08, 0, -1.257E-05
DataValue, -0.092, 0, -1.3852E-05
DataValue, -0.10400000000000001, 0, -1.5026E-05
DataValue, -0.116, 0, -1.6064E-05
DataValue, -0.128, 0, -1.6914E-05
DataValue, -0.14, 0, -1.7706E-05
DataValue, -0.152, 0, -1.841E-05
DataValue, -0.164, 0, -1.893E-05
DataValue, -0.17600000000000002, 0, -1.9444000000000002E-05
DataValue, -0.188, 0, -1.9822E-05
DataValue, -0.2, 0, -2.0156E-05
DataValue, -0.21200000000000002, 0, -2.046E-05
DataValue, -0.224, 0, -2.0682E-05
DataValue, -0.23600000000000002, 0, -2.0954E-05
DataValue, -0.248, 0, -2.107E-05
DataValue, -0.26, 0, -2.1202E-05
DataValue, -0.272, 0, -2.142E-05
DataValue, -0.28400000000000003, 0, -2.1562E-05
DataValue, -0.29600000000000004, 0, -2.1624E-05
DataValue, -0.308, 0, -2.1778E-05
DataValue, -0.32, 0, -2.1896000000000002E-05
DataValue, -0.332, 0, -2.197E-05
DataValue, -0.34400000000000003, 0, -2.197E-05
DataValue, -0.35600000000000004, 0, -2.1986E-05
DataValue, -0.368, 0, -2.2088E-05
DataValue, -0.38, 0, -2.2142000000000002E-05
DataValue, -0.392, 0, -2.2264000000000002E-05
DataValue, -0.404, 0, -2.2296E-05
DataValue, -0.41600000000000004, 0, -2.2290000000000002E-05
DataValue, -0.42800000000000005, 0, -2.2440000000000002E-05
DataValue, -0.44, 0, -2.2494000000000002E-05
DataValue, -0.452, 0, -2.247E-05
DataValue, -0.464, 0, -2.2412E-05
DataValue, -0.47600000000000003, 0, -2.2504E-05
DataValue, -0.48800000000000004, 0, -2.2658000000000002E-05
DataValue, -0.5, 0, -2.2558E-05
DataValue, -0.5, 0, -2.2524E-05
DataValue, -0.48800000000000004, 0, -2.2590000000000002E-05
DataValue, -0.47600000000000003, 0, -2.2502000000000002E-05
DataValue, -0.464, 0, -2.2252E-05
DataValue, -0.452, 0, -2.2328E-05
DataValue, -0.44, 0, -2.2212E-05
DataValue, -0.42800000000000005, 0, -2.2092E-05
DataValue, -0.41600000000000004, 0, -2.2034E-05
DataValue, -0.404, 0, -2.1888E-05
DataValue, -0.392, 0, -2.1878E-05
DataValue, -0.38, 0, -2.1624E-05
DataValue, -0.368, 0, -2.1484E-05
DataValue, -0.35600000000000004, 0, -2.1452E-05
DataValue, -0.34400000000000003, 0, -2.1462000000000002E-05
DataValue, -0.332, 0, -2.1418E-05
DataValue, -0.32, 0, -2.1262E-05
DataValue, -0.308, 0, -2.1164E-05
DataValue, -0.29600000000000004, 0, -2.1098E-05
DataValue, -0.28400000000000003, 0, -2.0874E-05
DataValue, -0.272, 0, -2.0704E-05
DataValue, -0.26, 0, -2.0546E-05
DataValue, -0.248, 0, -2.0384E-05
DataValue, -0.23600000000000002, 0, -2.0148E-05
DataValue, -0.224, 0, -1.9822E-05
DataValue, -0.21200000000000002, 0, -1.9646E-05
DataValue, -0.2, 0, -1.9254000000000002E-05
DataValue, -0.188, 0, -1.8832000000000002E-05
DataValue, -0.17600000000000002, 0, -1.841E-05
DataValue, -0.164, 0, -1.7886E-05
DataValue, -0.152, 0, -1.7346E-05
DataValue, -0.14, 0, -1.6668E-05
DataValue, -0.128, 0, -1.5946E-05
DataValue, -0.116, 0, -1.5148000000000001E-05
DataValue, -0.10400000000000001, 0, -1.4192E-05
DataValue, -0.092, 0, -1.3102000000000001E-05
DataValue, -0.08, 0, -1.1914E-05
DataValue, -0.068, 0, -1.0622000000000001E-05
DataValue, -0.056, 0, -9.1948E-06
DataValue, -0.044000000000000004, 0, -7.5719000000000011E-06
DataValue, -0.032, 0, -5.7597000000000009E-06
DataValue, -0.02, 0, -3.7195000000000006E-06
DataValue, -0.008, 0, -1.5602000000000001E-06
DataValue, 0.004, 0, 8.4385999999999993E-07
DataValue, 0.016, 0, 3.5124000000000005E-06
DataValue, 0.028, 0, 6.3312000000000005E-06
DataValue, 0.04, 0, 9.3947000000000017E-06
DataValue, 0.052000000000000005, 0, 1.2918E-05
DataValue, 0.064, 0, 1.6492E-05
DataValue, 0.076, 0, 2.0324E-05
DataValue, 0.088000000000000009, 0, 2.4396E-05
DataValue, 0.1, 0, 2.8792E-05
DataValue, 0.1, -0.1, 4.9184E-05
DataValue, 0.088000000000000009, -0.1, 4.2308E-05
DataValue, 0.076, -0.1, 3.5664E-05
DataValue, 0.064, -0.1, 2.9214000000000002E-05
DataValue, 0.052000000000000005, -0.1, 2.315E-05
DataValue, 0.04, -0.1, 1.7336E-05
DataValue, 0.028, -0.1, 1.1758E-05
DataValue, 0.016, -0.1, 6.5565000000000007E-06
DataValue, 0.004, -0.1, 1.5440000000000002E-06
DataValue, -0.008, -0.1, -3.1711000000000004E-06
DataValue, -0.02, -0.1, -7.5550000000000005E-06
DataValue, -0.032, -0.1, -1.1706000000000001E-05
DataValue, -0.044000000000000004, -0.1, -1.5638000000000002E-05
DataValue, -0.056, -0.1, -1.932E-05
DataValue, -0.068, -0.1, -2.2834000000000002E-05
DataValue, -0.08, -0.1, -2.6024E-05
DataValue, -0.092, -0.1, -2.8994E-05
DataValue, -0.10400000000000001, -0.1, -3.1768E-05
DataValue, -0.116, -0.1, -3.4306E-05
DataValue, -0.128, -0.1, -3.66E-05
DataValue, -0.14, -0.1, -3.8744E-05
DataValue, -0.152, -0.1, -4.0730000000000005E-05
DataValue, -0.164, -0.1, -4.2492E-05
DataValue, -0.17600000000000002, -0.1, -4.3978000000000005E-05
DataValue, -0.188, -0.1, -4.5472E-05
DataValue, -0.2, -0.1, -4.6834E-05
DataValue, -0.21200000000000002, -0.1, -4.7822000000000004E-05
DataValue, -0.224, -0.1, -4.892E-05
DataValue, -0.23600000000000002, -0.1, -4.9914000000000004E-05
DataValue, -0.248, -0.1, -5.0478E-05
DataValue, -0.26, -0.1, -5.1154000000000005E-05
DataValue, -0.272, -0.1, -5.1846000000000005E-05
DataValue, -0.28400000000000003, -0.1, -5.2368000000000004E-05
DataValue, -0.29600000000000004, -0.1, -5.2836E-05
DataValue, -0.308, -0.1, -5.3192E-05
DataValue, -0.32, -0.1, -5.3668E-05
DataValue, -0.332, -0.1, -5.4086000000000004E-05
DataValue, -0.34400000000000003, -0.1, -5.435E-05
DataValue, -0.35600000000000004, -0.1, -5.4602000000000003E-05
DataValue, -0.368, -0.1, -5.4856000000000005E-05
DataValue, -0.38, -0.1, -5.5014E-05
DataValue, -0.392, -0.1, -5.525E-05
DataValue, -0.404, -0.1, -5.5346E-05
DataValue, -0.41600000000000004, -0.1, -5.5822E-05
DataValue, -0.42800000000000005, -0.1, -5.5716E-05
DataValue, -0.44, -0.1, -5.589E-05
DataValue, -0.452, -0.1, -5.619E-05
DataValue, -0.464, -0.1, -5.636E-05
DataValue, -0.47600000000000003, -0.1, -5.614E-05
DataValue, -0.48800000000000004, -0.1, -5.6336000000000004E-05
DataValue, -0.5, -0.1, -5.6558E-05
DataValue, -0.5, -0.1, -5.6714E-05
DataValue, -0.48800000000000004, -0.1, -5.6254E-05
DataValue, -0.47600000000000003, -0.1, -5.6084E-05
DataValue, -0.464, -0.1, -5.5798000000000003E-05
DataValue, -0.452, -0.1, -5.5594E-05
DataValue, -0.44, -0.1, -5.5534E-05
DataValue, -0.42800000000000005, -0.1, -5.5236000000000004E-05
DataValue, -0.41600000000000004, -0.1, -5.4840000000000003E-05
DataValue, -0.404, -0.1, -5.4688E-05
DataValue, -0.392, -0.1, -5.4276E-05
DataValue, -0.38, -0.1, -5.4092E-05
DataValue, -0.368, -0.1, -5.381E-05
DataValue, -0.35600000000000004, -0.1, -5.339E-05
DataValue, -0.34400000000000003, -0.1, -5.3018E-05
DataValue, -0.332, -0.1, -5.2732E-05
DataValue, -0.32, -0.1, -5.2398E-05
DataValue, -0.308, -0.1, -5.2052E-05
DataValue, -0.29600000000000004, -0.1, -5.148E-05
DataValue, -0.28400000000000003, -0.1, -5.0932E-05
DataValue, -0.272, -0.1, -5.0302E-05
DataValue, -0.26, -0.1, -4.9706E-05
DataValue, -0.248, -0.1, -4.8716E-05
DataValue, -0.23600000000000002, -0.1, -4.7866E-05
DataValue, -0.224, -0.1, -4.7066E-05
DataValue, -0.21200000000000002, -0.1, -4.6046E-05
DataValue, -0.2, -0.1, -4.4846000000000004E-05
DataValue, -0.188, -0.1, -4.3666E-05
DataValue, -0.17600000000000002, -0.1, -4.2136000000000005E-05
DataValue, -0.164, -0.1, -4.059E-05
DataValue, -0.152, -0.1, -3.8942E-05
DataValue, -0.14, -0.1, -3.7088E-05
DataValue, -0.128, -0.1, -3.506E-05
DataValue, -0.116, -0.1, -3.2848E-05
DataValue, -0.10400000000000001, -0.1, -3.0382E-05
DataValue, -0.092, -0.1, -2.7792E-05
DataValue, -0.08, -0.1, -2.5072E-05
DataValue, -0.068, -0.1, -2.1964000000000002E-05
DataValue, -0.056, -0.1, -1.865E-05
DataValue, -0.044000000000000004, -0.1, -1.5204E-05
DataValue, -0.032, -0.1, -1.1424000000000001E-05
DataValue, -0.02, -0.1, -7.3936000000000007E-06
DataValue, -0.008, -0.1, -3.0930000000000003E-06
DataValue, 0.004, -0.1, 1.5618000000000002E-06
DataValue, 0.016, -0.1, 6.4816000000000008E-06
DataValue, 0.028, -0.1, 1.1922E-05
DataValue, 0.04, -0.1, 1.7434E-05
DataValue, 0.052000000000000005, -0.1, 2.3358000000000002E-05
DataValue, 0.064, -0.1, 2.9622000000000002E-05
DataValue, 0.076, -0.1, 3.614E-05
DataValue, 0.088000000000000009, -0.1, 4.3056E-05
DataValue, 0.1, -0.1, 5.0318E-05
DataValue, 0.1, -0.2, 7.4514E-05
DataValue, 0.088000000000000009, -0.2, 6.462E-05
DataValue, 0.076, -0.2, 5.4942000000000004E-05
DataValue, 0.064, -0.2, 4.5402000000000003E-05
