
SetupTitle, (c1) Output curve in LGP
PrimitiveTest, I/V Sweep
TestParameter, Context.MainFrame, B1500A
TestParameter, Channel.UnitType, SMU, SMU
TestParameter, Channel.Unit, SMU1:HR/AS, SMU2:HR/AS
TestParameter, Channel.IName, Ig, Id
TestParameter, Channel.VName, Vg, Vd
TestParameter, Channel.Mode, V, V
TestParameter, Channel.Func, VAR2, VAR1
TestParameter, Channel.Index, 
TestParameter, Channel.Time, 
TestParameter, Measurement.Port.Unit, SMU1:HR/AS, SMU2:HR/AS
TestParameter, Measurement.Port.SeriesResistor, NONE, NONE
TestParameter, Measurement.Port.Filter, ON, ON
TestParameter, Measurement.Port.OutputVoltageComparison, 0, 0
TestParameter, Measurement.Primary.Locus, Double
TestParameter, Measurement.Primary.Scale, LINEAR
TestParameter, Measurement.Primary.Start, 0.1
TestParameter, Measurement.Primary.Stop, -0.5
TestParameter, Measurement.Primary.Step, -0.012
TestParameter, Measurement.Primary.Compliance, 0.1
TestParameter, Measurement.Primary.PowerCompliance, 0
TestParameter, Measurement.Aborting.Condition, CONTINUE AT ANY
TestParameter, Measurement.PostOutput.Value, START
TestParameter, Measurement.PostOutput.Retention, OFF
TestParameter, Measurement.Secondary.Start, 0.1
TestParameter, Measurement.Secondary.Count, 6
TestParameter, Measurement.Secondary.Step, -0.1
TestParameter, Measurement.Secondary.Compliance, 0.0001
TestParameter, Measurement.Secondary.PowerCompliance, 0
TestParameter, Measurement.Bias.Source, 0.1, 0.1
TestParameter, Measurement.Bias.Compliance, 0.0001, 0.1
TestParameter, Measurement.Monitor.Unit, SMU1:HR/AS, SMU2:HR/AS
TestParameter, Measurement.Monitor.Adc, HR ADC, HR ADC
TestParameter, Measurement.Monitor.Measurement, Compliance Side, Compliance Side
TestParameter, Measurement.Monitor.RangingMode, LIMITED, LIMITED
TestParameter, Measurement.Monitor.RangeBoundary, 1nA, 1nA
TestParameter, Measurement.Monitor.RangeRating, BY FULL RANGE, BY FULL RANGE
TestParameter, Measurement.Monitor.RangeRatingCoeff, 50, 50
TestParameter, Measurement.Timing.Hold, 0
TestParameter, Measurement.Timing.Delay, 0
TestParameter, Measurement.Adc.HighSpeed.Mode, AUTO
TestParameter, Measurement.Adc.HighSpeed.Coeff, 1
TestParameter, Measurement.Adc.HighResolution.AutoZero, OFF
TestParameter, Measurement.Adc.HighResolution.Mode, AUTO
TestParameter, Measurement.Adc.HighResolution.Coeff, 6
TestParameter, Measurement.WaitTime.Source.Coeff, 1
TestParameter, Measurement.WaitTime.Source.Offset, 0
TestParameter, Measurement.WaitTime.Monitor.Coeff, 1
TestParameter, Measurement.WaitTime.Monitor.Offset, 0
TestParameter, Output.Graph.Enabled, true
TestParameter, Output.Graph.AutoScaling, false
TestParameter, Output.Graph.XAxis.Data, Vd
TestParameter, Output.Graph.XAxis.Scale, Linear
TestParameter, Output.Graph.XAxis.Left, 0
TestParameter, Output.Graph.XAxis.Right, -0.5
TestParameter, Output.Graph.XAxis.RunTimeAutoScale, true
TestParameter, Output.Graph.YAxis.Data, Id
TestParameter, Output.Graph.YAxis.Scale, Linear
TestParameter, Output.Graph.YAxis.Bottom, -0.1
TestParameter, Output.Graph.YAxis.Top, 0.1
TestParameter, Output.Graph.YAxis.Group, 
TestParameter, Output.Graph.YAxis.RunTimeAutoScale, true
TestParameter, Output.List.Data, Vd, Vg, Id
TestParameter, AutoAnalysis.Interpolation, false
TestParameter, AutoAnalysis.Var2StepCount, 1
TestParameter, AutoAnalysis.Var2StepScript, 
TestParameter, AutoAnalysis.Line1.Enabled, false
TestParameter, AutoAnalysis.Line1.Type, 1
TestParameter, AutoAnalysis.Line1.Fix, True
TestParameter, AutoAnalysis.Line1.YAxis, 0
TestParameter, AutoAnalysis.Line1.Point1.Type, 0
TestParameter, AutoAnalysis.Line1.Point1.XY.X, 
TestParameter, AutoAnalysis.Line1.Point1.XY.Y, 
TestParameter, AutoAnalysis.Line1.Point1.Data.Var, 
TestParameter, AutoAnalysis.Line1.Point1.Data.Condition, 
TestParameter, AutoAnalysis.Line1.Point1.Data.Start, false
TestParameter, AutoAnalysis.Line1.Point1.Data.StartVar, 
TestParameter, AutoAnalysis.Line1.Point1.Data.StartCondition, 
TestParameter, AutoAnalysis.Line1.Point2.Type, 0
TestParameter, AutoAnalysis.Line1.Point2.XY.X, 
TestParameter, AutoAnalysis.Line1.Point2.XY.Y, 
TestParameter, AutoAnalysis.Line1.Point2.Data.Var, 
TestParameter, AutoAnalysis.Line1.Point2.Data.Condition, 
TestParameter, AutoAnalysis.Line1.Point2.Data.Start, false
TestParameter, AutoAnalysis.Line1.Point2.Data.StartVar, 
TestParameter, AutoAnalysis.Line1.Point2.Data.StartCondition, 
TestParameter, AutoAnalysis.Line1.GradientExpr, 0
TestParameter, AutoAnalysis.Line2.Enabled, false
TestParameter, AutoAnalysis.Line2.Type, 1
TestParameter, AutoAnalysis.Line2.Fix, True
TestParameter, AutoAnalysis.Line2.YAxis, 0
TestParameter, AutoAnalysis.Line2.Point1.Type, 0
TestParameter, AutoAnalysis.Line2.Point1.XY.X, 
TestParameter, AutoAnalysis.Line2.Point1.XY.Y, 
TestParameter, AutoAnalysis.Line2.Point1.Data.Var, 
TestParameter, AutoAnalysis.Line2.Point1.Data.Condition, 
TestParameter, AutoAnalysis.Line2.Point1.Data.Start, false
TestParameter, AutoAnalysis.Line2.Point1.Data.StartVar, 
TestParameter, AutoAnalysis.Line2.Point1.Data.StartCondition, 
TestParameter, AutoAnalysis.Line2.Point2.Type, 0
TestParameter, AutoAnalysis.Line2.Point2.XY.X, 
TestParameter, AutoAnalysis.Line2.Point2.XY.Y, 
TestParameter, AutoAnalysis.Line2.Point2.Data.Var, 
TestParameter, AutoAnalysis.Line2.Point2.Data.Condition, 
TestParameter, AutoAnalysis.Line2.Point2.Data.Start, false
TestParameter, AutoAnalysis.Line2.Point2.Data.StartVar, 
TestParameter, AutoAnalysis.Line2.Point2.Data.StartCondition, 
TestParameter, AutoAnalysis.Line2.GradientExpr, 0
TestParameter, AutoAnalysis.Marker.Enabled, false
TestParameter, AutoAnalysis.Marker.Data.Var, 
TestParameter, AutoAnalysis.Marker.Data.Condition, 
TestParameter, AutoAnalysis.Marker.Data.Start, false
TestParameter, AutoAnalysis.Marker.Data.StartVar, 
TestParameter, AutoAnalysis.Marker.Data.StartCondition, 
MetaData, TestRecord.EntryPoint, true
MetaData, TestRecord.RecordTime, 12/22/2024 06:06:35
MetaData, TestRecord.TestTarget, 
MetaData, TestRecord.IterationIndex, 2
MetaData, TestRecord.Preservation, true
MetaData, TestRecord.Flag, 
MetaData, TestRecord.Remarks, developer-s21c3
MetaData, TestRecord.LinkKey, 22dcb8d1-a2f4-4300-800b-57af45ff2f77
MetaData, TestRecord.Parameters, 
Dimension1, 102, 102, 102
Dimension2, 6, 6, 6
DataName, Vd, Vg, Id
DataValue, 0.1, 0.1, 1.1586E-05
DataValue, 0.088000000000000009, 0.1, 9.6812000000000014E-06
DataValue, 0.076, 0.1, 7.9988E-06
DataValue, 0.064, 0.1, 6.4026E-06
DataValue, 0.052000000000000005, 0.1, 4.8859E-06
DataValue, 0.04, 0.1, 3.5777000000000005E-06
DataValue, 0.028, 0.1, 2.3510000000000004E-06
DataValue, 0.016, 0.1, 1.2321E-06
DataValue, 0.004, 0.1, 2.7198E-07
DataValue, -0.008, 0.1, -5.7643999999999994E-07
DataValue, -0.02, 0.1, -1.2541000000000002E-06
DataValue, -0.032, 0.1, -1.8497000000000003E-06
DataValue, -0.044000000000000004, 0.1, -2.4298000000000004E-06
DataValue, -0.056, 0.1, -2.8763000000000003E-06
DataValue, -0.068, 0.1, -3.2226000000000003E-06
DataValue, -0.08, 0.1, -3.5722000000000003E-06
DataValue, -0.092, 0.1, -3.8091000000000005E-06
DataValue, -0.10400000000000001, 0.1, -3.9673E-06
DataValue, -0.116, 0.1, -4.1509E-06
DataValue, -0.128, 0.1, -4.2435E-06
DataValue, -0.14, 0.1, -4.2811E-06
DataValue, -0.152, 0.1, -4.3681000000000006E-06
DataValue, -0.164, 0.1, -4.3732000000000008E-06
DataValue, -0.17600000000000002, 0.1, -4.3563E-06
DataValue, -0.188, 0.1, -4.3958E-06
DataValue, -0.2, 0.1, -4.3678000000000008E-06
DataValue, -0.21200000000000002, 0.1, -4.3324E-06
DataValue, -0.224, 0.1, -4.3613E-06
DataValue, -0.23600000000000002, 0.1, -4.3262E-06
DataValue, -0.248, 0.1, -4.2895E-06
DataValue, -0.26, 0.1, -4.3156000000000007E-06
DataValue, -0.272, 0.1, -4.2809000000000008E-06
DataValue, -0.28400000000000003, 0.1, -4.2467E-06
DataValue, -0.29600000000000004, 0.1, -4.2766000000000007E-06
DataValue, -0.308, 0.1, -4.2421000000000004E-06
DataValue, -0.32, 0.1, -4.21E-06
DataValue, -0.332, 0.1, -4.2416E-06
DataValue, -0.34400000000000003, 0.1, -4.2294000000000005E-06
DataValue, -0.35600000000000004, 0.1, -4.1847000000000008E-06
DataValue, -0.368, 0.1, -4.2152000000000007E-06
DataValue, -0.38, 0.1, -4.2161E-06
DataValue, -0.392, 0.1, -4.1638000000000007E-06
DataValue, -0.404, 0.1, -4.1865000000000005E-06
DataValue, -0.41600000000000004, 0.1, -4.206E-06
DataValue, -0.42800000000000005, 0.1, -4.1608E-06
DataValue, -0.44, 0.1, -4.1636E-06
DataValue, -0.452, 0.1, -4.1973000000000005E-06
DataValue, -0.464, 0.1, -4.1642000000000007E-06
DataValue, -0.47600000000000003, 0.1, -4.1487000000000006E-06
DataValue, -0.48800000000000004, 0.1, -4.1879E-06
DataValue, -0.5, 0.1, -4.167E-06
DataValue, -0.5, 0.1, -4.145E-06
DataValue, -0.48800000000000004, 0.1, -4.1463000000000004E-06
DataValue, -0.47600000000000003, 0.1, -4.1615000000000007E-06
DataValue, -0.464, 0.1, -4.1152E-06
DataValue, -0.452, 0.1, -4.1076E-06
DataValue, -0.44, 0.1, -4.1372000000000008E-06
DataValue, -0.42800000000000005, 0.1, -4.0922E-06
DataValue, -0.41600000000000004, 0.1, -4.0768000000000005E-06
DataValue, -0.404, 0.1, -4.1123E-06
DataValue, -0.392, 0.1, -4.0897E-06
DataValue, -0.38, 0.1, -4.0503E-06
DataValue, -0.368, 0.1, -4.0833E-06
DataValue, -0.35600000000000004, 0.1, -4.0765000000000007E-06
DataValue, -0.34400000000000003, 0.1, -4.0296E-06
DataValue, -0.332, 0.1, -4.0460000000000007E-06
DataValue, -0.32, 0.1, -4.0593E-06
DataValue, -0.308, 0.1, -4.0058000000000007E-06
DataValue, -0.29600000000000004, 0.1, -4.0111000000000004E-06
DataValue, -0.28400000000000003, 0.1, -4.0328000000000006E-06
DataValue, -0.272, 0.1, -3.9842000000000007E-06
DataValue, -0.26, 0.1, -3.9659000000000004E-06
DataValue, -0.248, 0.1, -3.9992000000000006E-06
DataValue, -0.23600000000000002, 0.1, -3.9520000000000004E-06
DataValue, -0.224, 0.1, -3.9185000000000007E-06
DataValue, -0.21200000000000002, 0.1, -3.9341E-06
DataValue, -0.2, 0.1, -3.9023000000000007E-06
DataValue, -0.188, 0.1, -3.841E-06
DataValue, -0.17600000000000002, 0.1, -3.8388E-06
DataValue, -0.164, 0.1, -3.8069000000000003E-06
DataValue, -0.152, 0.1, -3.7059000000000004E-06
DataValue, -0.14, 0.1, -3.6572000000000003E-06
DataValue, -0.128, 0.1, -3.5953000000000005E-06
DataValue, -0.116, 0.1, -3.4397000000000003E-06
DataValue, -0.10400000000000001, 0.1, -3.2962000000000003E-06
DataValue, -0.092, 0.1, -3.1631000000000003E-06
DataValue, -0.08, 0.1, -2.9083E-06
DataValue, -0.068, 0.1, -2.6465000000000004E-06
DataValue, -0.056, 0.1, -2.3706000000000002E-06
DataValue, -0.044000000000000004, 0.1, -1.9825E-06
DataValue, -0.032, 0.1, -1.5162000000000002E-06
DataValue, -0.02, 0.1, -1.0438E-06
DataValue, -0.008, 0.1, -4.7505999999999997E-07
DataValue, 0.004, 0.1, 2.5693999999999997E-07
DataValue, 0.016, 0.1, 1.0481199999999999E-06
DataValue, 0.028, 0.1, 2.0000000000000003E-06
DataValue, 0.04, 0.1, 2.9674E-06
DataValue, 0.052000000000000005, 0.1, 4.1185000000000005E-06
DataValue, 0.064, 0.1, 5.4014000000000005E-06
DataValue, 0.076, 0.1, 6.7619000000000004E-06
DataValue, 0.088000000000000009, 0.1, 8.3159000000000011E-06
DataValue, 0.1, 0.1, 1.0049700000000001E-05
DataValue, 0.1, 0, 2.2004E-05
DataValue, 0.088000000000000009, 0, 1.8786E-05
DataValue, 0.076, 0, 1.5748E-05
DataValue, 0.064, 0, 1.2796E-05
DataValue, 0.052000000000000005, 0, 1.0002E-05
DataValue, 0.04, 0, 7.4380000000000006E-06
DataValue, 0.028, 0, 4.9747000000000008E-06
DataValue, 0.016, 0, 2.7502000000000004E-06
DataValue, 0.004, 0, 6.1688E-07
DataValue, -0.008, 0, -1.2967000000000002E-06
DataValue, -0.02, 0, -3.0342E-06
DataValue, -0.032, 0, -4.7093000000000008E-06
DataValue, -0.044000000000000004, 0, -6.2182000000000009E-06
DataValue, -0.056, 0, -7.5321000000000011E-06
DataValue, -0.068, 0, -8.764700000000001E-06
DataValue, -0.08, 0, -9.8806000000000016E-06
DataValue, -0.092, 0, -1.07987E-05
DataValue, -0.10400000000000001, 0, -1.145E-05
DataValue, -0.116, 0, -1.2238E-05
DataValue, -0.128, 0, -1.2856E-05
DataValue, -0.14, 0, -1.3456000000000001E-05
DataValue, -0.152, 0, -1.3974E-05
DataValue, -0.164, 0, -1.4342000000000001E-05
DataValue, -0.17600000000000002, 0, -1.4642E-05
DataValue, -0.188, 0, -1.4932E-05
DataValue, -0.2, 0, -1.5158000000000001E-05
DataValue, -0.21200000000000002, 0, -1.5284E-05
DataValue, -0.224, 0, -1.5380000000000002E-05
DataValue, -0.23600000000000002, 0, -1.5492E-05
DataValue, -0.248, 0, -1.5568E-05
DataValue, -0.26, 0, -1.5562E-05
DataValue, -0.272, 0, -1.5562E-05
DataValue, -0.28400000000000003, 0, -1.5622E-05
DataValue, -0.29600000000000004, 0, -1.5594E-05
DataValue, -0.308, 0, -1.5572E-05
DataValue, -0.32, 0, -1.5614E-05
DataValue, -0.332, 0, -1.5602E-05
DataValue, -0.34400000000000003, 0, -1.5556E-05
DataValue, -0.35600000000000004, 0, -1.558E-05
DataValue, -0.368, 0, -1.56E-05
DataValue, -0.38, 0, -1.5550000000000002E-05
DataValue, -0.392, 0, -1.5562E-05
DataValue, -0.404, 0, -1.5604000000000002E-05
DataValue, -0.41600000000000004, 0, -1.5586E-05
DataValue, -0.42800000000000005, 0, -1.5550000000000002E-05
DataValue, -0.44, 0, -1.559E-05
DataValue, -0.452, 0, -1.5612E-05
DataValue, -0.464, 0, -1.5574E-05
DataValue, -0.47600000000000003, 0, -1.5586E-05
DataValue, -0.48800000000000004, 0, -1.5632000000000002E-05
DataValue, -0.5, 0, -1.562E-05
DataValue, -0.5, 0, -1.5586E-05
DataValue, -0.48800000000000004, 0, -1.5582E-05
DataValue, -0.47600000000000003, 0, -1.5592E-05
DataValue, -0.464, 0, -1.554E-05
DataValue, -0.452, 0, -1.5516000000000002E-05
DataValue, -0.44, 0, -1.5554E-05
DataValue, -0.42800000000000005, 0, -1.5526E-05
DataValue, -0.41600000000000004, 0, -1.5478E-05
DataValue, -0.404, 0, -1.5476E-05
DataValue, -0.392, 0, -1.5494E-05
DataValue, -0.38, 0, -1.5436E-05
DataValue, -0.368, 0, -1.5404E-05
DataValue, -0.35600000000000004, 0, -1.542E-05
DataValue, -0.34400000000000003, 0, -1.5402E-05
DataValue, -0.332, 0, -1.5340000000000002E-05
DataValue, -0.32, 0, -1.53E-05
DataValue, -0.308, 0, -1.5298E-05
DataValue, -0.29600000000000004, 0, -1.5256000000000001E-05
DataValue, -0.28400000000000003, 0, -1.517E-05
DataValue, -0.272, 0, -1.5134000000000001E-05
DataValue, -0.26, 0, -1.5094E-05
DataValue, -0.248, 0, -1.5002000000000001E-05
DataValue, -0.23600000000000002, 0, -1.4856E-05
DataValue, -0.224, 0, -1.4742E-05
DataValue, -0.21200000000000002, 0, -1.4636E-05
DataValue, -0.2, 0, -1.4426E-05
DataValue, -0.188, 0, -1.4162000000000001E-05
DataValue, -0.17600000000000002, 0, -1.3942E-05
DataValue, -0.164, 0, -1.3622000000000001E-05
DataValue, -0.152, 0, -1.3198E-05
DataValue, -0.14, 0, -1.2746000000000001E-05
DataValue, -0.128, 0, -1.2246000000000001E-05
DataValue, -0.116, 0, -1.1646E-05
DataValue, -0.10400000000000001, 0, -1.0926E-05
DataValue, -0.092, 0, -1.0114E-05
DataValue, -0.08, 0, -9.3285E-06
DataValue, -0.068, 0, -8.261000000000001E-06
DataValue, -0.056, 0, -7.1650000000000009E-06
DataValue, -0.044000000000000004, 0, -5.9012E-06
DataValue, -0.032, 0, -4.4552E-06
DataValue, -0.02, 0, -2.9236000000000003E-06
DataValue, -0.008, 0, -1.2546E-06
DataValue, 0.004, 0, 6.4914E-07
DataValue, 0.016, 0, 2.7613E-06
DataValue, 0.028, 0, 4.9917000000000008E-06
DataValue, 0.04, 0, 7.4916E-06
DataValue, 0.052000000000000005, 0, 1.0127700000000001E-05
DataValue, 0.064, 0, 1.3244E-05
DataValue, 0.076, 0, 1.6266E-05
DataValue, 0.088000000000000009, 0, 1.9512000000000002E-05
DataValue, 0.1, 0, 2.3048E-05
DataValue, 0.1, -0.1, 3.985E-05
DataValue, 0.088000000000000009, -0.1, 3.4318E-05
DataValue, 0.076, -0.1, 2.89E-05
DataValue, 0.064, -0.1, 2.375E-05
DataValue, 0.052000000000000005, -0.1, 1.8838E-05
DataValue, 0.04, -0.1, 1.4068E-05
DataValue, 0.028, -0.1, 9.5988E-06
DataValue, 0.016, -0.1, 5.3117E-06
DataValue, 0.004, -0.1, 1.2403000000000002E-06
DataValue, -0.008, -0.1, -2.5323000000000003E-06
DataValue, -0.02, -0.1, -6.1581E-06
DataValue, -0.032, -0.1, -9.574E-06
DataValue, -0.044000000000000004, -0.1, -1.2622E-05
DataValue, -0.056, -0.1, -1.5666000000000002E-05
DataValue, -0.068, -0.1, -1.8464E-05
DataValue, -0.08, -0.1, -2.1020000000000002E-05
DataValue, -0.092, -0.1, -2.3444E-05
DataValue, -0.10400000000000001, -0.1, -2.567E-05
DataValue, -0.116, -0.1, -2.7664E-05
DataValue, -0.128, -0.1, -2.9546E-05
DataValue, -0.14, -0.1, -3.129E-05
DataValue, -0.152, -0.1, -3.278E-05
DataValue, -0.164, -0.1, -3.4134E-05
DataValue, -0.17600000000000002, -0.1, -3.5414000000000003E-05
DataValue, -0.188, -0.1, -3.6490000000000005E-05
DataValue, -0.2, -0.1, -3.7402E-05
DataValue, -0.21200000000000002, -0.1, -3.825E-05
DataValue, -0.224, -0.1, -3.8974E-05
DataValue, -0.23600000000000002, -0.1, -3.9540000000000004E-05
DataValue, -0.248, -0.1, -4.0048E-05
DataValue, -0.26, -0.1, -4.0522E-05
DataValue, -0.272, -0.1, -4.0894E-05
DataValue, -0.28400000000000003, -0.1, -4.1124E-05
DataValue, -0.29600000000000004, -0.1, -4.1318E-05
DataValue, -0.308, -0.1, -4.1518000000000005E-05
DataValue, -0.32, -0.1, -4.164E-05
DataValue, -0.332, -0.1, -4.1656E-05
DataValue, -0.34400000000000003, -0.1, -4.1744E-05
DataValue, -0.35600000000000004, -0.1, -4.1842000000000004E-05
DataValue, -0.368, -0.1, -4.1826E-05
DataValue, -0.38, -0.1, -4.1834E-05
DataValue, -0.392, -0.1, -4.1836000000000004E-05
DataValue, -0.404, -0.1, -4.1876000000000004E-05
DataValue, -0.41600000000000004, -0.1, -4.1858000000000005E-05
DataValue, -0.42800000000000005, -0.1, -4.1828E-05
DataValue, -0.44, -0.1, -4.1894E-05
DataValue, -0.452, -0.1, -4.1910000000000004E-05
DataValue, -0.464, -0.1, -4.1866E-05
DataValue, -0.47600000000000003, -0.1, -4.1888E-05
DataValue, -0.48800000000000004, -0.1, -4.1964E-05
DataValue, -0.5, -0.1, -4.1944000000000004E-05
DataValue, -0.5, -0.1, -4.1906E-05
DataValue, -0.48800000000000004, -0.1, -4.1808000000000004E-05
DataValue, -0.47600000000000003, -0.1, -4.1782E-05
DataValue, -0.464, -0.1, -4.1728000000000004E-05
DataValue, -0.452, -0.1, -4.1618E-05
DataValue, -0.44, -0.1, -4.156E-05
DataValue, -0.42800000000000005, -0.1, -4.1548E-05
DataValue, -0.41600000000000004, -0.1, -4.1422000000000004E-05
DataValue, -0.404, -0.1, -4.1372E-05
DataValue, -0.392, -0.1, -4.1320000000000004E-05
DataValue, -0.38, -0.1, -4.1216E-05
DataValue, -0.368, -0.1, -4.1078E-05
DataValue, -0.35600000000000004, -0.1, -4.1004E-05
DataValue, -0.34400000000000003, -0.1, -4.0888E-05
DataValue, -0.332, -0.1, -4.0672E-05
DataValue, -0.32, -0.1, -4.053E-05
DataValue, -0.308, -0.1, -4.0332E-05
DataValue, -0.29600000000000004, -0.1, -4.0062000000000004E-05
DataValue, -0.28400000000000003, -0.1, -3.9754E-05
DataValue, -0.272, -0.1, -3.944E-05
DataValue, -0.26, -0.1, -3.9024000000000004E-05
DataValue, -0.248, -0.1, -3.8504E-05
DataValue, -0.23600000000000002, -0.1, -3.7984E-05
DataValue, -0.224, -0.1, -3.7382E-05
DataValue, -0.21200000000000002, -0.1, -3.6608E-05
DataValue, -0.2, -0.1, -3.58E-05
DataValue, -0.188, -0.1, -3.4908E-05
DataValue, -0.17600000000000002, -0.1, -3.3828E-05
DataValue, -0.164, -0.1, -3.2646E-05
DataValue, -0.152, -0.1, -3.1384E-05
DataValue, -0.14, -0.1, -2.9944E-05
DataValue, -0.128, -0.1, -2.8308E-05
DataValue, -0.116, -0.1, -2.6588E-05
DataValue, -0.10400000000000001, -0.1, -2.4706E-05
DataValue, -0.092, -0.1, -2.2596000000000002E-05
DataValue, -0.08, -0.1, -2.0312E-05
DataValue, -0.068, -0.1, -1.79E-05
DataValue, -0.056, -0.1, -1.5268E-05
DataValue, -0.044000000000000004, -0.1, -1.2354E-05
DataValue, -0.032, -0.1, -9.4025E-06
DataValue, -0.02, -0.1, -6.0457E-06
DataValue, -0.008, -0.1, -2.4798000000000004E-06
DataValue, 0.004, -0.1, 1.2365000000000002E-06
DataValue, 0.016, -0.1, 5.2880000000000009E-06
DataValue, 0.028, -0.1, 9.6085000000000013E-06
DataValue, 0.04, -0.1, 1.4302000000000001E-05
DataValue, 0.052000000000000005, -0.1, 1.9142E-05
DataValue, 0.064, -0.1, 2.4238E-05
DataValue, 0.076, -0.1, 2.9566E-05
DataValue, 0.088000000000000009, -0.1, 3.5172E-05
DataValue, 0.1, -0.1, 4.1112E-05
DataValue, 0.1, -0.2, 6.0704E-05
DataValue, 0.088000000000000009, -0.2, 5.2722E-05
DataValue, 0.076, -0.2, 4.4818000000000004E-05
DataValue, 0.064, -0.2, 3.7082E-05
DataValue, 0.052000000000000005, -0.2, 2.966E-05
DataValue, 0.04, -0.2, 2.2418E-05
DataValue, 0.028, -0.2, 1.5334E-05
DataValue, 0.016, -0.2, 8.6320000000000014E-06
