
SetupTitle, (c2) Transfer curve in LGP
PrimitiveTest, I/V Sweep
TestParameter, Context.MainFrame, B1500A
TestParameter, Channel.UnitType, SMU, SMU
TestParameter, Channel.Unit, SMU1:HR/AS, SMU2:HR/AS
TestParameter, Channel.IName, Ig, Id
TestParameter, Channel.VName, Vg, Vd
TestParameter, Channel.Mode, V, V
TestParameter, Channel.Func, VAR1, VAR2
TestParameter, Channel.Index, 
TestParameter, Channel.Time, 
TestParameter, Measurement.Port.Unit, SMU1:HR/AS, SMU2:HR/AS
TestParameter, Measurement.Port.SeriesResistor, NONE, NONE
TestParameter, Measurement.Port.Filter, ON, ON
TestParameter, Measurement.Port.OutputVoltageComparison, 0, 0
TestParameter, Measurement.Primary.Locus, Double
TestParameter, Measurement.Primary.Scale, LINEAR
TestParameter, Measurement.Primary.Start, 0.1
TestParameter, Measurement.Primary.Stop, -0.4
TestParameter, Measurement.Primary.Step, -0.01
TestParameter, Measurement.Primary.Compliance, 0.1
TestParameter, Measurement.Primary.PowerCompliance, 1
TestParameter, Measurement.Aborting.Condition, SKIP AT ANY ABNORMAL
TestParameter, Measurement.PostOutput.Value, START
TestParameter, Measurement.PostOutput.Retention, OFF
TestParameter, Measurement.Secondary.Start, -0.25
TestParameter, Measurement.Secondary.Count, 5
TestParameter, Measurement.Secondary.Step, 0
TestParameter, Measurement.Secondary.Compliance, 0.1
TestParameter, Measurement.Secondary.PowerCompliance, 1
TestParameter, Measurement.Bias.Source, 0.1, -0.25
TestParameter, Measurement.Bias.Compliance, 0.1, 0.1
TestParameter, Measurement.Monitor.Unit, SMU1:HR/AS, SMU2:HR/AS
TestParameter, Measurement.Monitor.Adc, HR ADC, HR ADC
TestParameter, Measurement.Monitor.Measurement, Compliance Side, Compliance Side
TestParameter, Measurement.Monitor.RangingMode, LIMITED, LIMITED
TestParameter, Measurement.Monitor.RangeBoundary, 1nA, 1nA
TestParameter, Measurement.Monitor.RangeRating, BY FULL RANGE, BY FULL RANGE
TestParameter, Measurement.Monitor.RangeRatingCoeff, 50, 50
TestParameter, Measurement.Timing.Hold, 0
TestParameter, Measurement.Timing.Delay, 0
TestParameter, Measurement.Adc.HighSpeed.Mode, AUTO
TestParameter, Measurement.Adc.HighSpeed.Coeff, 1
TestParameter, Measurement.Adc.HighResolution.AutoZero, OFF
TestParameter, Measurement.Adc.HighResolution.Mode, AUTO
TestParameter, Measurement.Adc.HighResolution.Coeff, 6
TestParameter, Measurement.WaitTime.Source.Coeff, 1
TestParameter, Measurement.WaitTime.Source.Offset, 0
TestParameter, Measurement.WaitTime.Monitor.Coeff, 1
TestParameter, Measurement.WaitTime.Monitor.Offset, 0
TestParameter, Output.Graph.Enabled, true
TestParameter, Output.Graph.AutoScaling, false
TestParameter, Output.Graph.XAxis.Data, Vg
TestParameter, Output.Graph.XAxis.Scale, Linear
TestParameter, Output.Graph.XAxis.Left, 0.60000000000000009
TestParameter, Output.Graph.XAxis.Right, -0.60000000000000009
TestParameter, Output.Graph.XAxis.RunTimeAutoScale, true
TestParameter, Output.Graph.YAxis.Data, Id
TestParameter, Output.Graph.YAxis.Scale, Linear
TestParameter, Output.Graph.YAxis.Bottom, -0.1
TestParameter, Output.Graph.YAxis.Top, 0.1
TestParameter, Output.Graph.YAxis.Group, 
TestParameter, Output.Graph.YAxis.RunTimeAutoScale, true
TestParameter, Output.List.Data, Vd, Vg, Id
TestParameter, AutoAnalysis.Interpolation, false
TestParameter, AutoAnalysis.Var2StepCount, 1
TestParameter, AutoAnalysis.Var2StepScript, 
TestParameter, AutoAnalysis.Line1.Enabled, false
TestParameter, AutoAnalysis.Line1.Type, 1
TestParameter, AutoAnalysis.Line1.Fix, True
TestParameter, AutoAnalysis.Line1.YAxis, 0
TestParameter, AutoAnalysis.Line1.Point1.Type, 0
TestParameter, AutoAnalysis.Line1.Point1.XY.X, 
TestParameter, AutoAnalysis.Line1.Point1.XY.Y, 
TestParameter, AutoAnalysis.Line1.Point1.Data.Var, 
TestParameter, AutoAnalysis.Line1.Point1.Data.Condition, 
TestParameter, AutoAnalysis.Line1.Point1.Data.Start, false
TestParameter, AutoAnalysis.Line1.Point1.Data.StartVar, 
TestParameter, AutoAnalysis.Line1.Point1.Data.StartCondition, 
TestParameter, AutoAnalysis.Line1.Point2.Type, 0
TestParameter, AutoAnalysis.Line1.Point2.XY.X, 
TestParameter, AutoAnalysis.Line1.Point2.XY.Y, 
TestParameter, AutoAnalysis.Line1.Point2.Data.Var, 
TestParameter, AutoAnalysis.Line1.Point2.Data.Condition, 
TestParameter, AutoAnalysis.Line1.Point2.Data.Start, false
TestParameter, AutoAnalysis.Line1.Point2.Data.StartVar, 
TestParameter, AutoAnalysis.Line1.Point2.Data.StartCondition, 
TestParameter, AutoAnalysis.Line1.GradientExpr, 0
TestParameter, AutoAnalysis.Line2.Enabled, false
TestParameter, AutoAnalysis.Line2.Type, 1
TestParameter, AutoAnalysis.Line2.Fix, True
TestParameter, AutoAnalysis.Line2.YAxis, 0
TestParameter, AutoAnalysis.Line2.Point1.Type, 0
TestParameter, AutoAnalysis.Line2.Point1.XY.X, 
TestParameter, AutoAnalysis.Line2.Point1.XY.Y, 
TestParameter, AutoAnalysis.Line2.Point1.Data.Var, 
TestParameter, AutoAnalysis.Line2.Point1.Data.Condition, 
TestParameter, AutoAnalysis.Line2.Point1.Data.Start, false
TestParameter, AutoAnalysis.Line2.Point1.Data.StartVar, 
TestParameter, AutoAnalysis.Line2.Point1.Data.StartCondition, 
TestParameter, AutoAnalysis.Line2.Point2.Type, 0
TestParameter, AutoAnalysis.Line2.Point2.XY.X, 
TestParameter, AutoAnalysis.Line2.Point2.XY.Y, 
TestParameter, AutoAnalysis.Line2.Point2.Data.Var, 
TestParameter, AutoAnalysis.Line2.Point2.Data.Condition, 
TestParameter, AutoAnalysis.Line2.Point2.Data.Start, false
TestParameter, AutoAnalysis.Line2.Point2.Data.StartVar, 
TestParameter, AutoAnalysis.Line2.Point2.Data.StartCondition, 
TestParameter, AutoAnalysis.Line2.GradientExpr, 0
TestParameter, AutoAnalysis.Marker.Enabled, false
TestParameter, AutoAnalysis.Marker.Data.Var, 
TestParameter, AutoAnalysis.Marker.Data.Condition, 
TestParameter, AutoAnalysis.Marker.Data.Start, false
TestParameter, AutoAnalysis.Marker.Data.StartVar, 
TestParameter, AutoAnalysis.Marker.Data.StartCondition, 
MetaData, TestRecord.EntryPoint, true
MetaData, TestRecord.RecordTime, 12/22/2024 06:08:03
MetaData, TestRecord.TestTarget, 
MetaData, TestRecord.IterationIndex, 3
MetaData, TestRecord.Preservation, true
MetaData, TestRecord.Flag, 
MetaData, TestRecord.Remarks, developer-s21c4
MetaData, TestRecord.LinkKey, f9658fb2-4ee2-4dda-95b6-2d0094639dd3
MetaData, TestRecord.Parameters, 
Dimension1, 102, 102, 102
Dimension2, 5, 5, 5
DataName, Vg, Vd, Id
DataValue, 0.1, -0.25, -5.5143000000000007E-06
DataValue, 0.090000000000000011, -0.25, -6.1476E-06
DataValue, 0.08, -0.25, -6.8991000000000006E-06
DataValue, 0.07, -0.25, -7.7466000000000014E-06
DataValue, 0.060000000000000005, -0.25, -8.6899000000000013E-06
DataValue, 0.05, -0.25, -9.7386E-06
DataValue, 0.04, -0.25, -1.0873400000000002E-05
DataValue, 0.030000000000000002, -0.25, -1.232E-05
DataValue, 0.02, -0.25, -1.3502E-05
DataValue, 0.01, -0.25, -1.4910000000000001E-05
DataValue, 0, -0.25, -1.6322E-05
DataValue, -0.01, -0.25, -1.798E-05
DataValue, -0.02, -0.25, -1.973E-05
DataValue, -0.030000000000000002, -0.25, -2.15E-05
DataValue, -0.04, -0.25, -2.3422E-05
DataValue, -0.05, -0.25, -2.5656E-05
DataValue, -0.060000000000000005, -0.25, -2.7894E-05
DataValue, -0.07, -0.25, -3.021E-05
DataValue, -0.08, -0.25, -3.2774E-05
DataValue, -0.090000000000000011, -0.25, -3.544E-05
DataValue, -0.1, -0.25, -3.826E-05
DataValue, -0.11, -0.25, -4.1256E-05
DataValue, -0.12000000000000001, -0.25, -4.4422E-05
DataValue, -0.13, -0.25, -4.7592E-05
DataValue, -0.14, -0.25, -5.1062E-05
DataValue, -0.15, -0.25, -5.4654E-05
DataValue, -0.16, -0.25, -5.8406E-05
DataValue, -0.17, -0.25, -6.2282E-05
DataValue, -0.18000000000000002, -0.25, -6.6578E-05
DataValue, -0.19, -0.25, -7.0816000000000008E-05
DataValue, -0.2, -0.25, -7.5340000000000007E-05
DataValue, -0.21000000000000002, -0.25, -8.0056000000000007E-05
DataValue, -0.22, -0.25, -8.4972E-05
DataValue, -0.23, -0.25, -9.0216E-05
DataValue, -0.24000000000000002, -0.25, -9.507000000000001E-05
DataValue, -0.25, -0.25, -0.000100386
DataValue, -0.26, -0.25, -0.00010589200000000001
DataValue, -0.27, -0.25, -0.00011130000000000001
DataValue, -0.28, -0.25, -0.00011954000000000001
DataValue, -0.29000000000000004, -0.25, -0.0001249
DataValue, -0.3, -0.25, -0.00013062000000000002
DataValue, -0.31, -0.25, -0.00013618000000000001
DataValue, -0.32, -0.25, -0.00014176
DataValue, -0.33, -0.25, -0.00014764000000000002
DataValue, -0.34, -0.25, -0.0001538
DataValue, -0.35000000000000003, -0.25, -0.00015954
DataValue, -0.36000000000000004, -0.25, -0.00016582
DataValue, -0.37, -0.25, -0.0001719
DataValue, -0.38, -0.25, -0.0001777
DataValue, -0.39, -0.25, -0.00018334000000000002
DataValue, -0.4, -0.25, -0.00018916
DataValue, -0.4, -0.25, -0.00018954
DataValue, -0.39, -0.25, -0.00018496000000000002
DataValue, -0.38, -0.25, -0.00018008000000000002
DataValue, -0.37, -0.25, -0.00017508
DataValue, -0.36000000000000004, -0.25, -0.00016986
DataValue, -0.35000000000000003, -0.25, -0.00016452
DataValue, -0.34, -0.25, -0.00015916000000000001
DataValue, -0.33, -0.25, -0.00015384
DataValue, -0.32, -0.25, -0.00014832000000000002
DataValue, -0.31, -0.25, -0.00014288000000000001
DataValue, -0.3, -0.25, -0.00013728000000000001
DataValue, -0.29000000000000004, -0.25, -0.00013178000000000002
DataValue, -0.28, -0.25, -0.00012636
DataValue, -0.27, -0.25, -0.00012088000000000001
DataValue, -0.26, -0.25, -0.00011546000000000001
DataValue, -0.25, -0.25, -0.00011012000000000001
DataValue, -0.24000000000000002, -0.25, -0.0001049
DataValue, -0.23, -0.25, -9.9142000000000007E-05
DataValue, -0.22, -0.25, -9.432E-05
DataValue, -0.21000000000000002, -0.25, -8.9496E-05
DataValue, -0.2, -0.25, -8.4734E-05
DataValue, -0.19, -0.25, -8.0172E-05
DataValue, -0.18000000000000002, -0.25, -7.574E-05
DataValue, -0.17, -0.25, -7.1272E-05
DataValue, -0.16, -0.25, -6.7034000000000009E-05
DataValue, -0.15, -0.25, -6.311E-05
DataValue, -0.14, -0.25, -5.9210000000000004E-05
DataValue, -0.13, -0.25, -5.5326000000000005E-05
DataValue, -0.12000000000000001, -0.25, -5.1750000000000004E-05
DataValue, -0.11, -0.25, -4.8218000000000005E-05
DataValue, -0.1, -0.25, -4.4838E-05
DataValue, -0.090000000000000011, -0.25, -4.1508E-05
DataValue, -0.08, -0.25, -3.8462E-05
DataValue, -0.07, -0.25, -3.5724E-05
DataValue, -0.060000000000000005, -0.25, -3.2884E-05
DataValue, -0.05, -0.25, -3.0326E-05
DataValue, -0.04, -0.25, -2.7842000000000002E-05
DataValue, -0.030000000000000002, -0.25, -2.5390000000000003E-05
DataValue, -0.02, -0.25, -2.3156E-05
DataValue, -0.01, -0.25, -2.1146E-05
DataValue, 0, -0.25, -1.9166E-05
DataValue, 0.01, -0.25, -1.7282E-05
DataValue, 0.02, -0.25, -1.556E-05
DataValue, 0.030000000000000002, -0.25, -1.3954E-05
DataValue, 0.04, -0.25, -1.248E-05
DataValue, 0.05, -0.25, -1.1044E-05
DataValue, 0.060000000000000005, -0.25, -9.6392E-06
DataValue, 0.07, -0.25, -8.5067000000000011E-06
DataValue, 0.08, -0.25, -7.4867000000000007E-06
DataValue, 0.090000000000000011, -0.25, -6.5723000000000006E-06
DataValue, 0.1, -0.25, -5.6497E-06
DataValue, 0.1, -0.25, -5.1010000000000008E-06
DataValue, 0.090000000000000011, -0.25, -5.7985000000000005E-06
DataValue, 0.08, -0.25, -6.5069E-06
DataValue, 0.07, -0.25, -7.3935000000000004E-06
DataValue, 0.060000000000000005, -0.25, -8.351E-06
DataValue, 0.05, -0.25, -9.3359000000000015E-06
DataValue, 0.04, -0.25, -1.04116E-05
DataValue, 0.030000000000000002, -0.25, -1.2042000000000001E-05
DataValue, 0.02, -0.25, -1.322E-05
DataValue, 0.01, -0.25, -1.4734E-05
DataValue, 0, -0.25, -1.611E-05
DataValue, -0.01, -0.25, -1.7716E-05
DataValue, -0.02, -0.25, -1.9514E-05
DataValue, -0.030000000000000002, -0.25, -2.1314E-05
DataValue, -0.04, -0.25, -2.3310000000000002E-05
DataValue, -0.05, -0.25, -2.5402000000000002E-05
DataValue, -0.060000000000000005, -0.25, -2.7796E-05
DataValue, -0.07, -0.25, -3.01E-05
DataValue, -0.08, -0.25, -3.2614E-05
DataValue, -0.090000000000000011, -0.25, -3.5318E-05
DataValue, -0.1, -0.25, -3.8108E-05
DataValue, -0.11, -0.25, -4.1138E-05
DataValue, -0.12000000000000001, -0.25, -4.434E-05
DataValue, -0.13, -0.25, -4.763E-05
DataValue, -0.14, -0.25, -5.1166000000000004E-05
DataValue, -0.15, -0.25, -5.4876E-05
DataValue, -0.16, -0.25, -5.8532E-05
DataValue, -0.17, -0.25, -6.2652E-05
DataValue, -0.18000000000000002, -0.25, -6.6878E-05
DataValue, -0.19, -0.25, -7.1246E-05
DataValue, -0.2, -0.25, -7.5728E-05
DataValue, -0.21000000000000002, -0.25, -8.036E-05
DataValue, -0.22, -0.25, -8.5388E-05
DataValue, -0.23, -0.25, -9.0452000000000007E-05
DataValue, -0.24000000000000002, -0.25, -9.5588000000000007E-05
DataValue, -0.25, -0.25, -0.00010108400000000001
DataValue, -0.26, -0.25, -0.000106512
DataValue, -0.27, -0.25, -0.000112322
DataValue, -0.28, -0.25, -0.0001205
DataValue, -0.29000000000000004, -0.25, -0.00012584
DataValue, -0.3, -0.25, -0.00013146000000000002
DataValue, -0.31, -0.25, -0.00013704
DataValue, -0.32, -0.25, -0.00014294
DataValue, -0.33, -0.25, -0.00014888
DataValue, -0.34, -0.25, -0.00015478
DataValue, -0.35000000000000003, -0.25, -0.00016064
DataValue, -0.36000000000000004, -0.25, -0.00016664000000000002
DataValue, -0.37, -0.25, -0.00017250000000000002
DataValue, -0.38, -0.25, -0.00017838
DataValue, -0.39, -0.25, -0.00018422000000000002
DataValue, -0.4, -0.25, -0.00019016
DataValue, -0.4, -0.25, -0.00019042
DataValue, -0.39, -0.25, -0.00018610000000000002
DataValue, -0.38, -0.25, -0.00018114000000000002
DataValue, -0.37, -0.25, -0.00017612000000000002
DataValue, -0.36000000000000004, -0.25, -0.00017084
DataValue, -0.35000000000000003, -0.25, -0.00016532000000000002
DataValue, -0.34, -0.25, -0.00016
DataValue, -0.33, -0.25, -0.00015456
DataValue, -0.32, -0.25, -0.0001488
DataValue, -0.31, -0.25, -0.00014336
DataValue, -0.3, -0.25, -0.00013794
DataValue, -0.29000000000000004, -0.25, -0.00013236
DataValue, -0.28, -0.25, -0.00012682
DataValue, -0.27, -0.25, -0.00012152
DataValue, -0.26, -0.25, -0.00011608000000000001
DataValue, -0.25, -0.25, -0.00011072000000000001
DataValue, -0.24000000000000002, -0.25, -0.00010536000000000001
DataValue, -0.23, -0.25, -0.00010042
DataValue, -0.22, -0.25, -9.4786E-05
DataValue, -0.21000000000000002, -0.25, -9.0192E-05
DataValue, -0.2, -0.25, -8.5318E-05
DataValue, -0.19, -0.25, -8.0704E-05
DataValue, -0.18000000000000002, -0.25, -7.63E-05
DataValue, -0.17, -0.25, -7.1960000000000009E-05
DataValue, -0.16, -0.25, -6.771E-05
DataValue, -0.15, -0.25, -6.363E-05
DataValue, -0.14, -0.25, -5.9624000000000004E-05
DataValue, -0.13, -0.25, -5.5898E-05
DataValue, -0.12000000000000001, -0.25, -5.2084000000000005E-05
DataValue, -0.11, -0.25, -4.873E-05
DataValue, -0.1, -0.25, -4.538E-05
DataValue, -0.090000000000000011, -0.25, -4.2196E-05
DataValue, -0.08, -0.25, -3.896E-05
DataValue, -0.07, -0.25, -3.6036E-05
DataValue, -0.060000000000000005, -0.25, -3.3322000000000004E-05
DataValue, -0.05, -0.25, -3.0456E-05
DataValue, -0.04, -0.25, -2.8086000000000002E-05
DataValue, -0.030000000000000002, -0.25, -2.5766E-05
DataValue, -0.02, -0.25, -2.3362E-05
DataValue, -0.01, -0.25, -2.13E-05
DataValue, 0, -0.25, -1.9296E-05
DataValue, 0.01, -0.25, -1.7482E-05
DataValue, 0.02, -0.25, -1.5704E-05
DataValue, 0.030000000000000002, -0.25, -1.4064000000000001E-05
DataValue, 0.04, -0.25, -1.2636E-05
DataValue, 0.05, -0.25, -1.1262E-05
DataValue, 0.060000000000000005, -0.25, -9.7449E-06
DataValue, 0.07, -0.25, -8.6121E-06
DataValue, 0.08, -0.25, -7.5279E-06
DataValue, 0.090000000000000011, -0.25, -6.566E-06
DataValue, 0.1, -0.25, -5.7315000000000009E-06
DataValue, 0.1, -0.25, -5.2455000000000009E-06
DataValue, 0.090000000000000011, -0.25, -5.8911E-06
DataValue, 0.08, -0.25, -6.6330000000000007E-06
DataValue, 0.07, -0.25, -7.5613000000000008E-06
DataValue, 0.060000000000000005, -0.25, -8.4612000000000013E-06
DataValue, 0.05, -0.25, -9.4716000000000009E-06
DataValue, 0.04, -0.25, -1.07167E-05
DataValue, 0.030000000000000002, -0.25, -1.2262E-05
DataValue, 0.02, -0.25, -1.3500000000000001E-05
DataValue, 0.01, -0.25, -1.4904E-05
DataValue, 0, -0.25, -1.6424E-05
DataValue, -0.01, -0.25, -1.8072E-05
DataValue, -0.02, -0.25, -1.9884E-05
DataValue, -0.030000000000000002, -0.25, -2.1694E-05
DataValue, -0.04, -0.25, -2.3644E-05
DataValue, -0.05, -0.25, -2.587E-05
DataValue, -0.060000000000000005, -0.25, -2.8062E-05
DataValue, -0.07, -0.25, -3.0546E-05
DataValue, -0.08, -0.25, -3.3134E-05
DataValue, -0.090000000000000011, -0.25, -3.5836E-05
DataValue, -0.1, -0.25, -3.874E-05
DataValue, -0.11, -0.25, -4.1722000000000005E-05
DataValue, -0.12000000000000001, -0.25, -4.5022000000000004E-05
DataValue, -0.13, -0.25, -4.8256E-05
DataValue, -0.14, -0.25, -5.1790000000000004E-05
DataValue, -0.15, -0.25, -5.5664E-05
DataValue, -0.16, -0.25, -5.9386000000000004E-05
DataValue, -0.17, -0.25, -6.3338E-05
DataValue, -0.18000000000000002, -0.25, -6.7692E-05
DataValue, -0.19, -0.25, -7.2142E-05
DataValue, -0.2, -0.25, -7.6412E-05
DataValue, -0.21000000000000002, -0.25, -8.1294E-05
DataValue, -0.22, -0.25, -8.6200000000000008E-05
DataValue, -0.23, -0.25, -9.1092E-05
DataValue, -0.24000000000000002, -0.25, -9.6386000000000009E-05
DataValue, -0.25, -0.25, -0.0001016
DataValue, -0.26, -0.25, -0.0001072
DataValue, -0.27, -0.25, -0.000112692
DataValue, -0.28, -0.25, -0.00012118
DataValue, -0.29000000000000004, -0.25, -0.00012648
DataValue, -0.3, -0.25, -0.00013204000000000002
DataValue, -0.31, -0.25, -0.00013802
DataValue, -0.32, -0.25, -0.00014360000000000002
DataValue, -0.33, -0.25, -0.00014956
DataValue, -0.34, -0.25, -0.00015538000000000002
DataValue, -0.35000000000000003, -0.25, -0.00016136000000000001
DataValue, -0.36000000000000004, -0.25, -0.00016738000000000001
DataValue, -0.37, -0.25, -0.00017316
DataValue, -0.38, -0.25, -0.00017900000000000001
DataValue, -0.39, -0.25, -0.00018504
DataValue, -0.4, -0.25, -0.00019062000000000002
DataValue, -0.4, -0.25, -0.00019094
DataValue, -0.39, -0.25, -0.0001862
DataValue, -0.38, -0.25, -0.00018148
DataValue, -0.37, -0.25, -0.00017652000000000002
DataValue, -0.36000000000000004, -0.25, -0.00017118
DataValue, -0.35000000000000003, -0.25, -0.00016582
DataValue, -0.34, -0.25, -0.0001608
DataValue, -0.33, -0.25, -0.00015534000000000001
DataValue, -0.32, -0.25, -0.00014968000000000002
DataValue, -0.31, -0.25, -0.0001441
DataValue, -0.3, -0.25, -0.00013846
DataValue, -0.29000000000000004, -0.25, -0.00013296
DataValue, -0.28, -0.25, -0.00012748000000000002
DataValue, -0.27, -0.25, -0.0001221
DataValue, -0.26, -0.25, -0.00011678
DataValue, -0.25, -0.25, -0.00011146000000000001
DataValue, -0.24000000000000002, -0.25, -0.00010628
DataValue, -0.23, -0.25, -0.00010122000000000001
DataValue, -0.22, -0.25, -9.5436E-05
DataValue, -0.21000000000000002, -0.25, -9.0700000000000009E-05
DataValue, -0.2, -0.25, -8.6052000000000009E-05
DataValue, -0.19, -0.25, -8.152E-05
DataValue, -0.18000000000000002, -0.25, -7.6766E-05
DataValue, -0.17, -0.25, -7.2596000000000008E-05
DataValue, -0.16, -0.25, -6.8372E-05
DataValue, -0.15, -0.25, -6.4188E-05
DataValue, -0.14, -0.25, -6.0288E-05
DataValue, -0.13, -0.25, -5.6448E-05
DataValue, -0.12000000000000001, -0.25, -5.257E-05
DataValue, -0.11, -0.25, -4.9096E-05
DataValue, -0.1, -0.25, -4.576E-05
DataValue, -0.090000000000000011, -0.25, -4.2586E-05
DataValue, -0.08, -0.25, -3.9438000000000004E-05
DataValue, -0.07, -0.25, -3.642E-05
DataValue, -0.060000000000000005, -0.25, -3.3638E-05
DataValue, -0.05, -0.25, -3.0954E-05
DataValue, -0.04, -0.25, -2.8292E-05
DataValue, -0.030000000000000002, -0.25, -2.603E-05
DataValue, -0.02, -0.25, -2.3788E-05
DataValue, -0.01, -0.25, -2.159E-05
DataValue, 0, -0.25, -1.9542E-05
DataValue, 0.01, -0.25, -1.7716E-05
DataValue, 0.02, -0.25, -1.5876000000000002E-05
DataValue, 0.030000000000000002, -0.25, -1.4208E-05
DataValue, 0.04, -0.25, -1.274E-05
DataValue, 0.05, -0.25, -1.1342E-05
DataValue, 0.060000000000000005, -0.25, -1.0008E-05
DataValue, 0.07, -0.25, -8.4864E-06
DataValue, 0.08, -0.25, -7.5045000000000007E-06
DataValue, 0.090000000000000011, -0.25, -6.5915E-06
DataValue, 0.1, -0.25, -5.6732E-06
DataValue, 0.1, -0.25, -5.1186000000000004E-06
DataValue, 0.090000000000000011, -0.25, -5.8210000000000007E-06
