
SetupTitle, (c1) Output curve in LGP
PrimitiveTest, I/V Sweep
TestParameter, Context.MainFrame, B1500A
TestParameter, Channel.UnitType, SMU, SMU
TestParameter, Channel.Unit, SMU1:HR/AS, SMU2:HR/AS
TestParameter, Channel.IName, Ig, Id
TestParameter, Channel.VName, Vg, Vd
TestParameter, Channel.Mode, V, V
TestParameter, Channel.Func, VAR2, VAR1
TestParameter, Channel.Index, 
TestParameter, Channel.Time, 
TestParameter, Measurement.Port.Unit, SMU1:HR/AS, SMU2:HR/AS
TestParameter, Measurement.Port.SeriesResistor, NONE, NONE
TestParameter, Measurement.Port.Filter, ON, ON
TestParameter, Measurement.Port.OutputVoltageComparison, 0, 0
TestParameter, Measurement.Primary.Locus, Double
TestParameter, Measurement.Primary.Scale, LINEAR
TestParameter, Measurement.Primary.Start, 0.1
TestParameter, Measurement.Primary.Stop, -0.5
TestParameter, Measurement.Primary.Step, -0.012
TestParameter, Measurement.Primary.Compliance, 0.1
TestParameter, Measurement.Primary.PowerCompliance, 0
TestParameter, Measurement.Aborting.Condition, CONTINUE AT ANY
TestParameter, Measurement.PostOutput.Value, START
TestParameter, Measurement.PostOutput.Retention, OFF
TestParameter, Measurement.Secondary.Start, 0.1
TestParameter, Measurement.Secondary.Count, 6
TestParameter, Measurement.Secondary.Step, -0.1
TestParameter, Measurement.Secondary.Compliance, 0.0001
TestParameter, Measurement.Secondary.PowerCompliance, 0
TestParameter, Measurement.Bias.Source, 0.1, 0.1
TestParameter, Measurement.Bias.Compliance, 0.0001, 0.1
TestParameter, Measurement.Monitor.Unit, SMU1:HR/AS, SMU2:HR/AS
TestParameter, Measurement.Monitor.Adc, HR ADC, HR ADC
TestParameter, Measurement.Monitor.Measurement, Compliance Side, Compliance Side
TestParameter, Measurement.Monitor.RangingMode, LIMITED, LIMITED
TestParameter, Measurement.Monitor.RangeBoundary, 1nA, 1nA
TestParameter, Measurement.Monitor.RangeRating, BY FULL RANGE, BY FULL RANGE
TestParameter, Measurement.Monitor.RangeRatingCoeff, 50, 50
TestParameter, Measurement.Timing.Hold, 0
TestParameter, Measurement.Timing.Delay, 0
TestParameter, Measurement.Adc.HighSpeed.Mode, AUTO
TestParameter, Measurement.Adc.HighSpeed.Coeff, 1
TestParameter, Measurement.Adc.HighResolution.AutoZero, OFF
TestParameter, Measurement.Adc.HighResolution.Mode, AUTO
TestParameter, Measurement.Adc.HighResolution.Coeff, 6
TestParameter, Measurement.WaitTime.Source.Coeff, 1
TestParameter, Measurement.WaitTime.Source.Offset, 0
TestParameter, Measurement.WaitTime.Monitor.Coeff, 1
TestParameter, Measurement.WaitTime.Monitor.Offset, 0
TestParameter, Output.Graph.Enabled, true
TestParameter, Output.Graph.AutoScaling, false
TestParameter, Output.Graph.XAxis.Data, Vd
TestParameter, Output.Graph.XAxis.Scale, Linear
TestParameter, Output.Graph.XAxis.Left, 0
TestParameter, Output.Graph.XAxis.Right, -0.5
TestParameter, Output.Graph.XAxis.RunTimeAutoScale, true
TestParameter, Output.Graph.YAxis.Data, Id
TestParameter, Output.Graph.YAxis.Scale, Linear
TestParameter, Output.Graph.YAxis.Bottom, -0.1
TestParameter, Output.Graph.YAxis.Top, 0.1
TestParameter, Output.Graph.YAxis.Group, 
TestParameter, Output.Graph.YAxis.RunTimeAutoScale, true
TestParameter, Output.List.Data, Vd, Vg, Id
TestParameter, AutoAnalysis.Interpolation, false
TestParameter, AutoAnalysis.Var2StepCount, 1
TestParameter, AutoAnalysis.Var2StepScript, 
TestParameter, AutoAnalysis.Line1.Enabled, false
TestParameter, AutoAnalysis.Line1.Type, 1
TestParameter, AutoAnalysis.Line1.Fix, True
TestParameter, AutoAnalysis.Line1.YAxis, 0
TestParameter, AutoAnalysis.Line1.Point1.Type, 0
TestParameter, AutoAnalysis.Line1.Point1.XY.X, 
TestParameter, AutoAnalysis.Line1.Point1.XY.Y, 
TestParameter, AutoAnalysis.Line1.Point1.Data.Var, 
TestParameter, AutoAnalysis.Line1.Point1.Data.Condition, 
TestParameter, AutoAnalysis.Line1.Point1.Data.Start, false
TestParameter, AutoAnalysis.Line1.Point1.Data.StartVar, 
TestParameter, AutoAnalysis.Line1.Point1.Data.StartCondition, 
TestParameter, AutoAnalysis.Line1.Point2.Type, 0
TestParameter, AutoAnalysis.Line1.Point2.XY.X, 
TestParameter, AutoAnalysis.Line1.Point2.XY.Y, 
TestParameter, AutoAnalysis.Line1.Point2.Data.Var, 
TestParameter, AutoAnalysis.Line1.Point2.Data.Condition, 
TestParameter, AutoAnalysis.Line1.Point2.Data.Start, false
TestParameter, AutoAnalysis.Line1.Point2.Data.StartVar, 
TestParameter, AutoAnalysis.Line1.Point2.Data.StartCondition, 
TestParameter, AutoAnalysis.Line1.GradientExpr, 0
TestParameter, AutoAnalysis.Line2.Enabled, false
TestParameter, AutoAnalysis.Line2.Type, 1
TestParameter, AutoAnalysis.Line2.Fix, True
TestParameter, AutoAnalysis.Line2.YAxis, 0
TestParameter, AutoAnalysis.Line2.Point1.Type, 0
TestParameter, AutoAnalysis.Line2.Point1.XY.X, 
TestParameter, AutoAnalysis.Line2.Point1.XY.Y, 
TestParameter, AutoAnalysis.Line2.Point1.Data.Var, 
TestParameter, AutoAnalysis.Line2.Point1.Data.Condition, 
TestParameter, AutoAnalysis.Line2.Point1.Data.Start, false
TestParameter, AutoAnalysis.Line2.Point1.Data.StartVar, 
TestParameter, AutoAnalysis.Line2.Point1.Data.StartCondition, 
TestParameter, AutoAnalysis.Line2.Point2.Type, 0
TestParameter, AutoAnalysis.Line2.Point2.XY.X, 
TestParameter, AutoAnalysis.Line2.Point2.XY.Y, 
TestParameter, AutoAnalysis.Line2.Point2.Data.Var, 
TestParameter, AutoAnalysis.Line2.Point2.Data.Condition, 
TestParameter, AutoAnalysis.Line2.Point2.Data.Start, false
TestParameter, AutoAnalysis.Line2.Point2.Data.StartVar, 
TestParameter, AutoAnalysis.Line2.Point2.Data.StartCondition, 
TestParameter, AutoAnalysis.Line2.GradientExpr, 0
TestParameter, AutoAnalysis.Marker.Enabled, false
TestParameter, AutoAnalysis.Marker.Data.Var, 
TestParameter, AutoAnalysis.Marker.Data.Condition, 
TestParameter, AutoAnalysis.Marker.Data.Start, false
TestParameter, AutoAnalysis.Marker.Data.StartVar, 
TestParameter, AutoAnalysis.Marker.Data.StartCondition, 
MetaData, TestRecord.EntryPoint, true
MetaData, TestRecord.RecordTime, 12/22/2024 06:09:20
MetaData, TestRecord.TestTarget, 
MetaData, TestRecord.IterationIndex, 2
MetaData, TestRecord.Preservation, true
MetaData, TestRecord.Flag, 
MetaData, TestRecord.Remarks, developer-s21c5
MetaData, TestRecord.LinkKey, 4473ad76-77c8-4b94-b85e-2b53666685cf
MetaData, TestRecord.Parameters, 
Dimension1, 102, 102, 102
Dimension2, 6, 6, 6
DataName, Vd, Vg, Id
DataValue, 0.1, 0.1, 0.00021644
DataValue, 0.088000000000000009, 0.1, 0.00018518
DataValue, 0.076, 0.1, 0.00015466
DataValue, 0.064, 0.1, 0.00012560000000000002
DataValue, 0.052000000000000005, 0.1, 9.7482E-05
DataValue, 0.04, 0.1, 7.278E-05
DataValue, 0.028, 0.1, 4.8836000000000005E-05
DataValue, 0.016, 0.1, 2.6716E-05
DataValue, 0.004, 0.1, 6.2154000000000007E-06
DataValue, -0.008, 0.1, -1.2148000000000001E-05
DataValue, -0.02, 0.1, -2.9178E-05
DataValue, -0.032, 0.1, -4.4644E-05
DataValue, -0.044000000000000004, 0.1, -5.8472000000000005E-05
DataValue, -0.056, 0.1, -7.0596E-05
DataValue, -0.068, 0.1, -8.1512E-05
DataValue, -0.08, 0.1, -9.0784E-05
DataValue, -0.092, 0.1, -9.8586000000000008E-05
DataValue, -0.10400000000000001, 0.1, -0.000105244
DataValue, -0.116, 0.1, -0.00011063
DataValue, -0.128, 0.1, -0.0001112
DataValue, -0.14, 0.1, -0.00011506000000000001
DataValue, -0.152, 0.1, -0.00011768000000000001
DataValue, -0.164, 0.1, -0.00011956000000000001
DataValue, -0.17600000000000002, 0.1, -0.0001206
DataValue, -0.188, 0.1, -0.00012132000000000001
DataValue, -0.2, 0.1, -0.00012162
DataValue, -0.21200000000000002, 0.1, -0.00012202000000000001
DataValue, -0.224, 0.1, -0.00012186
DataValue, -0.23600000000000002, 0.1, -0.00012194
DataValue, -0.248, 0.1, -0.00012192000000000001
DataValue, -0.26, 0.1, -0.00012182000000000001
DataValue, -0.272, 0.1, -0.00012178
DataValue, -0.28400000000000003, 0.1, -0.00012182000000000001
DataValue, -0.29600000000000004, 0.1, -0.00012164000000000001
DataValue, -0.308, 0.1, -0.00012126
DataValue, -0.32, 0.1, -0.00012114000000000001
DataValue, -0.332, 0.1, -0.00012096000000000001
DataValue, -0.34400000000000003, 0.1, -0.00012074000000000001
DataValue, -0.35600000000000004, 0.1, -0.00012054000000000001
DataValue, -0.368, 0.1, -0.00012038000000000001
DataValue, -0.38, 0.1, -0.00012026
DataValue, -0.392, 0.1, -0.00012
DataValue, -0.404, 0.1, -0.00011986000000000001
DataValue, -0.41600000000000004, 0.1, -0.00011978000000000001
DataValue, -0.42800000000000005, 0.1, -0.00011966
DataValue, -0.44, 0.1, -0.00011938000000000001
DataValue, -0.452, 0.1, -0.00011938000000000001
DataValue, -0.464, 0.1, -0.00011934
DataValue, -0.47600000000000003, 0.1, -0.00011912000000000001
DataValue, -0.48800000000000004, 0.1, -0.000119
DataValue, -0.5, 0.1, -0.00011896000000000001
DataValue, -0.5, 0.1, -0.00011886000000000001
DataValue, -0.48800000000000004, 0.1, -0.00011862000000000001
DataValue, -0.47600000000000003, 0.1, -0.00011834000000000001
DataValue, -0.464, 0.1, -0.00011812
DataValue, -0.452, 0.1, -0.00011798
DataValue, -0.44, 0.1, -0.00011782000000000001
DataValue, -0.42800000000000005, 0.1, -0.00011748000000000001
DataValue, -0.41600000000000004, 0.1, -0.00011734000000000001
DataValue, -0.404, 0.1, -0.00011716000000000001
DataValue, -0.392, 0.1, -0.00011686
DataValue, -0.38, 0.1, -0.0001166
DataValue, -0.368, 0.1, -0.00011648000000000001
DataValue, -0.35600000000000004, 0.1, -0.00011626
DataValue, -0.34400000000000003, 0.1, -0.00011594
DataValue, -0.332, 0.1, -0.00011554000000000001
DataValue, -0.32, 0.1, -0.00011542
DataValue, -0.308, 0.1, -0.00011514000000000001
DataValue, -0.29600000000000004, 0.1, -0.00011464000000000001
DataValue, -0.28400000000000003, 0.1, -0.00011424
DataValue, -0.272, 0.1, -0.00011388
DataValue, -0.26, 0.1, -0.00011318000000000001
DataValue, -0.248, 0.1, -0.00011264
DataValue, -0.23600000000000002, 0.1, -0.00011206000000000001
DataValue, -0.224, 0.1, -0.00011122000000000001
DataValue, -0.21200000000000002, 0.1, -0.00011040000000000001
DataValue, -0.2, 0.1, -0.00010964
DataValue, -0.188, 0.1, -0.00010850000000000001
DataValue, -0.17600000000000002, 0.1, -0.00010718
DataValue, -0.164, 0.1, -0.00010562000000000001
DataValue, -0.152, 0.1, -0.00010362
DataValue, -0.14, 0.1, -0.00010104000000000001
DataValue, -0.128, 0.1, -9.8858000000000008E-05
DataValue, -0.116, 0.1, -9.437E-05
DataValue, -0.10400000000000001, 0.1, -8.972E-05
DataValue, -0.092, 0.1, -8.422E-05
DataValue, -0.08, 0.1, -7.7508E-05
DataValue, -0.068, 0.1, -6.9654000000000008E-05
DataValue, -0.056, 0.1, -6.0664E-05
DataValue, -0.044000000000000004, 0.1, -5.0398E-05
DataValue, -0.032, 0.1, -3.8778E-05
DataValue, -0.02, 0.1, -2.5430000000000002E-05
DataValue, -0.008, 0.1, -1.0804E-05
DataValue, 0.004, 0.1, 5.6236000000000007E-06
DataValue, 0.016, 0.1, 2.3928000000000002E-05
DataValue, 0.028, 0.1, 4.3594E-05
DataValue, 0.04, 0.1, 6.5124000000000009E-05
DataValue, 0.052000000000000005, 0.1, 8.8226E-05
DataValue, 0.064, 0.1, 0.000113156
DataValue, 0.076, 0.1, 0.00014256000000000002
DataValue, 0.088000000000000009, 0.1, 0.0001705
DataValue, 0.1, 0.1, 0.00020102000000000002
DataValue, 0.1, 0, 0.00034914
DataValue, 0.088000000000000009, 0, 0.00030126
DataValue, 0.076, 0, 0.0002542
DataValue, 0.064, 0, 0.00020886
DataValue, 0.052000000000000005, 0, 0.00016564000000000002
DataValue, 0.04, 0, 0.00012418000000000002
DataValue, 0.028, 0, 8.4232E-05
DataValue, 0.016, 0, 4.7088E-05
DataValue, 0.004, 0, 1.1134E-05
DataValue, -0.008, 0, -2.2766000000000002E-05
DataValue, -0.02, 0, -5.4598E-05
DataValue, -0.032, 0, -8.4916E-05
DataValue, -0.044000000000000004, 0, -0.00011340200000000001
DataValue, -0.056, 0, -0.00013854
DataValue, -0.068, 0, -0.00016382000000000001
DataValue, -0.08, 0, -0.00018706000000000002
DataValue, -0.092, 0, -0.00020846000000000002
DataValue, -0.10400000000000001, 0, -0.00022726000000000002
DataValue, -0.116, 0, -0.00024586000000000003
DataValue, -0.128, 0, -0.00026234
DataValue, -0.14, 0, -0.00027638
DataValue, -0.152, 0, -0.00028982000000000004
DataValue, -0.164, 0, -0.00030154000000000004
DataValue, -0.17600000000000002, 0, -0.00031136
DataValue, -0.188, 0, -0.00032024
DataValue, -0.2, 0, -0.00032766
DataValue, -0.21200000000000002, 0, -0.00033334
DataValue, -0.224, 0, -0.00033886
DataValue, -0.23600000000000002, 0, -0.00034290000000000004
DataValue, -0.248, 0, -0.00034594000000000004
DataValue, -0.26, 0, -0.00034904
DataValue, -0.272, 0, -0.00035106000000000004
DataValue, -0.28400000000000003, 0, -0.00035158000000000005
DataValue, -0.29600000000000004, 0, -0.00035344
DataValue, -0.308, 0, -0.00035452000000000004
DataValue, -0.32, 0, -0.00035548000000000003
DataValue, -0.332, 0, -0.00035640000000000004
DataValue, -0.34400000000000003, 0, -0.00035716000000000003
DataValue, -0.35600000000000004, 0, -0.00035756000000000004
DataValue, -0.368, 0, -0.00035818000000000004
DataValue, -0.38, 0, -0.00035902000000000004
DataValue, -0.392, 0, -0.00035922000000000005
DataValue, -0.404, 0, -0.0003597
DataValue, -0.41600000000000004, 0, -0.00036014
DataValue, -0.42800000000000005, 0, -0.00036030000000000003
DataValue, -0.44, 0, -0.00036034
DataValue, -0.452, 0, -0.00036060000000000004
DataValue, -0.464, 0, -0.00036072000000000003
DataValue, -0.47600000000000003, 0, -0.00036062
DataValue, -0.48800000000000004, 0, -0.00036088
DataValue, -0.5, 0, -0.00036116
DataValue, -0.5, 0, -0.00036096
DataValue, -0.48800000000000004, 0, -0.00036
DataValue, -0.47600000000000003, 0, -0.00035978000000000003
DataValue, -0.464, 0, -0.0003593
DataValue, -0.452, 0, -0.00035844
DataValue, -0.44, 0, -0.00035810000000000003
DataValue, -0.42800000000000005, 0, -0.0003577
DataValue, -0.41600000000000004, 0, -0.00035674000000000003
DataValue, -0.404, 0, -0.00035588000000000004
DataValue, -0.392, 0, -0.00035526000000000004
DataValue, -0.38, 0, -0.00035402000000000003
DataValue, -0.368, 0, -0.00035294000000000005
DataValue, -0.35600000000000004, 0, -0.00035186
DataValue, -0.34400000000000003, 0, -0.00035078
DataValue, -0.332, 0, -0.00034930000000000003
DataValue, -0.32, 0, -0.00034814000000000004
DataValue, -0.308, 0, -0.00034636000000000004
DataValue, -0.29600000000000004, 0, -0.00034448000000000004
DataValue, -0.28400000000000003, 0, -0.00034234
DataValue, -0.272, 0, -0.00033988000000000003
DataValue, -0.26, 0, -0.0003373
DataValue, -0.248, 0, -0.00033406
DataValue, -0.23600000000000002, 0, -0.00032988
DataValue, -0.224, 0, -0.00032532000000000004
DataValue, -0.21200000000000002, 0, -0.00032022
DataValue, -0.2, 0, -0.00031370000000000004
DataValue, -0.188, 0, -0.00030618
DataValue, -0.17600000000000002, 0, -0.00029832000000000003
DataValue, -0.164, 0, -0.00028826000000000004
DataValue, -0.152, 0, -0.0002772
DataValue, -0.14, 0, -0.00026480000000000004
DataValue, -0.128, 0, -0.00025106
DataValue, -0.116, 0, -0.00023574000000000002
DataValue, -0.10400000000000001, 0, -0.00021892000000000003
DataValue, -0.092, 0, -0.00020030000000000002
DataValue, -0.08, 0, -0.00018030000000000002
DataValue, -0.068, 0, -0.00015868000000000002
DataValue, -0.056, 0, -0.00013482000000000001
DataValue, -0.044000000000000004, 0, -0.00010946000000000001
DataValue, -0.032, 0, -8.3002E-05
DataValue, -0.02, 0, -5.3032E-05
DataValue, -0.008, 0, -2.2032000000000002E-05
DataValue, 0.004, 0, 1.095E-05
DataValue, 0.016, 0, 4.6082000000000004E-05
DataValue, 0.028, 0, 8.3254E-05
DataValue, 0.04, 0, 0.0001239
DataValue, 0.052000000000000005, 0, 0.00016484
DataValue, 0.064, 0, 0.00020820000000000002
DataValue, 0.076, 0, 0.00025408
DataValue, 0.088000000000000009, 0, 0.00030188000000000003
DataValue, 0.1, 0, 0.00035158000000000005
DataValue, 0.1, -0.1, 0.00051830000000000008
DataValue, 0.088000000000000009, -0.1, 0.00044996
DataValue, 0.076, -0.1, 0.00038302000000000003
DataValue, 0.064, -0.1, 0.00031790000000000003
DataValue, 0.052000000000000005, -0.1, 0.0002541
DataValue, 0.04, -0.1, 0.00019206
DataValue, 0.028, -0.1, 0.00013224000000000002
DataValue, 0.016, -0.1, 7.3954E-05
DataValue, 0.004, -0.1, 1.7884E-05
DataValue, -0.008, -0.1, -3.626E-05
DataValue, -0.02, -0.1, -8.8916E-05
DataValue, -0.032, -0.1, -0.00013862
DataValue, -0.044000000000000004, -0.1, -0.00018700000000000002
DataValue, -0.056, -0.1, -0.00023328000000000002
DataValue, -0.068, -0.1, -0.0002776
DataValue, -0.08, -0.1, -0.00031986000000000004
DataValue, -0.092, -0.1, -0.00035974000000000005
DataValue, -0.10400000000000001, -0.1, -0.00039828000000000004
DataValue, -0.116, -0.1, -0.00043448
DataValue, -0.128, -0.1, -0.00046782000000000003
DataValue, -0.14, -0.1, -0.00050082
DataValue, -0.152, -0.1, -0.0005314
DataValue, -0.164, -0.1, -0.00055916000000000006
DataValue, -0.17600000000000002, -0.1, -0.00058602
DataValue, -0.188, -0.1, -0.00061098
DataValue, -0.2, -0.1, -0.00063370000000000006
DataValue, -0.21200000000000002, -0.1, -0.0006551
DataValue, -0.224, -0.1, -0.00067436
DataValue, -0.23600000000000002, -0.1, -0.00069154
DataValue, -0.248, -0.1, -0.00070828
DataValue, -0.26, -0.1, -0.0007207400000000001
DataValue, -0.272, -0.1, -0.00073484000000000006
DataValue, -0.28400000000000003, -0.1, -0.00074646
DataValue, -0.29600000000000004, -0.1, -0.0007561200000000001
DataValue, -0.308, -0.1, -0.0007648
DataValue, -0.32, -0.1, -0.0007726600000000001
DataValue, -0.332, -0.1, -0.00077860000000000006
DataValue, -0.34400000000000003, -0.1, -0.00078406
DataValue, -0.35600000000000004, -0.1, -0.00078876
DataValue, -0.368, -0.1, -0.00079262000000000006
DataValue, -0.38, -0.1, -0.00079564
DataValue, -0.392, -0.1, -0.00079886000000000009
DataValue, -0.404, -0.1, -0.00080174
DataValue, -0.41600000000000004, -0.1, -0.00080384
DataValue, -0.42800000000000005, -0.1, -0.00080568
DataValue, -0.44, -0.1, -0.00080764000000000009
DataValue, -0.452, -0.1, -0.0008093000000000001
DataValue, -0.464, -0.1, -0.00081072
DataValue, -0.47600000000000003, -0.1, -0.00081190000000000006
DataValue, -0.48800000000000004, -0.1, -0.00081332000000000008
DataValue, -0.5, -0.1, -0.0008145400000000001
DataValue, -0.5, -0.1, -0.00081388
DataValue, -0.48800000000000004, -0.1, -0.00081038000000000008
DataValue, -0.47600000000000003, -0.1, -0.0008082
DataValue, -0.464, -0.1, -0.00080578000000000008
DataValue, -0.452, -0.1, -0.00080288000000000006
DataValue, -0.44, -0.1, -0.00080048
DataValue, -0.42800000000000005, -0.1, -0.00079796
DataValue, -0.41600000000000004, -0.1, -0.00079498
DataValue, -0.404, -0.1, -0.00079196000000000008
DataValue, -0.392, -0.1, -0.00078824000000000006
DataValue, -0.38, -0.1, -0.0007846000000000001
DataValue, -0.368, -0.1, -0.00078014
DataValue, -0.35600000000000004, -0.1, -0.00077502000000000007
DataValue, -0.34400000000000003, -0.1, -0.00076960000000000006
DataValue, -0.332, -0.1, -0.0007636
DataValue, -0.32, -0.1, -0.00075658000000000008
DataValue, -0.308, -0.1, -0.00074856
DataValue, -0.29600000000000004, -0.1, -0.00073926
DataValue, -0.28400000000000003, -0.1, -0.00072882
DataValue, -0.272, -0.1, -0.00071722000000000008
DataValue, -0.26, -0.1, -0.0007045
DataValue, -0.248, -0.1, -0.0006901
DataValue, -0.23600000000000002, -0.1, -0.00067438
DataValue, -0.224, -0.1, -0.00065738
DataValue, -0.21200000000000002, -0.1, -0.0006384
DataValue, -0.2, -0.1, -0.00061774000000000009
DataValue, -0.188, -0.1, -0.00059564
DataValue, -0.17600000000000002, -0.1, -0.00057224
DataValue, -0.164, -0.1, -0.0005463
DataValue, -0.152, -0.1, -0.00051870000000000009
DataValue, -0.14, -0.1, -0.00049026000000000007
DataValue, -0.128, -0.1, -0.00045878000000000005
DataValue, -0.116, -0.1, -0.00042552000000000003
DataValue, -0.10400000000000001, -0.1, -0.00039054000000000004
DataValue, -0.092, -0.1, -0.00035364
DataValue, -0.08, -0.1, -0.00031454000000000003
DataValue, -0.068, -0.1, -0.00027344
DataValue, -0.056, -0.1, -0.00023006
DataValue, -0.044000000000000004, -0.1, -0.00018490000000000002
DataValue, -0.032, -0.1, -0.00013738000000000002
DataValue, -0.02, -0.1, -8.8034E-05
DataValue, -0.008, -0.1, -3.6230000000000004E-05
DataValue, 0.004, -0.1, 1.7918E-05
DataValue, 0.016, -0.1, 7.3876000000000009E-05
DataValue, 0.028, -0.1, 0.00013242
DataValue, 0.04, -0.1, 0.00019238000000000003
DataValue, 0.052000000000000005, -0.1, 0.0002548
DataValue, 0.064, -0.1, 0.00031878
DataValue, 0.076, -0.1, 0.0003847
