
SetupTitle, (c1) Output curve in LGP
PrimitiveTest, I/V Sweep
TestParameter, Context.MainFrame, B1500A
TestParameter, Channel.UnitType, SMU, SMU
TestParameter, Channel.Unit, SMU1:HR/AS, SMU2:HR/AS
TestParameter, Channel.IName, Ig, Id
TestParameter, Channel.VName, Vg, Vd
TestParameter, Channel.Mode, V, V
TestParameter, Channel.Func, VAR2, VAR1
TestParameter, Channel.Index, 
TestParameter, Channel.Time, 
TestParameter, Measurement.Port.Unit, SMU1:HR/AS, SMU2:HR/AS
TestParameter, Measurement.Port.SeriesResistor, NONE, NONE
TestParameter, Measurement.Port.Filter, ON, ON
TestParameter, Measurement.Port.OutputVoltageComparison, 0, 0
TestParameter, Measurement.Primary.Locus, Double
TestParameter, Measurement.Primary.Scale, LINEAR
TestParameter, Measurement.Primary.Start, 0.1
TestParameter, Measurement.Primary.Stop, -0.5
TestParameter, Measurement.Primary.Step, -0.012
TestParameter, Measurement.Primary.Compliance, 0.1
TestParameter, Measurement.Primary.PowerCompliance, 0
TestParameter, Measurement.Aborting.Condition, CONTINUE AT ANY
TestParameter, Measurement.PostOutput.Value, START
TestParameter, Measurement.PostOutput.Retention, OFF
TestParameter, Measurement.Secondary.Start, 0.1
TestParameter, Measurement.Secondary.Count, 6
TestParameter, Measurement.Secondary.Step, -0.1
TestParameter, Measurement.Secondary.Compliance, 0.0001
TestParameter, Measurement.Secondary.PowerCompliance, 0
TestParameter, Measurement.Bias.Source, 0.1, 0.1
TestParameter, Measurement.Bias.Compliance, 0.0001, 0.1
TestParameter, Measurement.Monitor.Unit, SMU1:HR/AS, SMU2:HR/AS
TestParameter, Measurement.Monitor.Adc, HR ADC, HR ADC
TestParameter, Measurement.Monitor.Measurement, Compliance Side, Compliance Side
TestParameter, Measurement.Monitor.RangingMode, LIMITED, LIMITED
TestParameter, Measurement.Monitor.RangeBoundary, 1nA, 1nA
TestParameter, Measurement.Monitor.RangeRating, BY FULL RANGE, BY FULL RANGE
TestParameter, Measurement.Monitor.RangeRatingCoeff, 50, 50
TestParameter, Measurement.Timing.Hold, 0
TestParameter, Measurement.Timing.Delay, 0
TestParameter, Measurement.Adc.HighSpeed.Mode, AUTO
TestParameter, Measurement.Adc.HighSpeed.Coeff, 1
TestParameter, Measurement.Adc.HighResolution.AutoZero, OFF
TestParameter, Measurement.Adc.HighResolution.Mode, AUTO
TestParameter, Measurement.Adc.HighResolution.Coeff, 6
TestParameter, Measurement.WaitTime.Source.Coeff, 1
TestParameter, Measurement.WaitTime.Source.Offset, 0
TestParameter, Measurement.WaitTime.Monitor.Coeff, 1
TestParameter, Measurement.WaitTime.Monitor.Offset, 0
TestParameter, Output.Graph.Enabled, true
TestParameter, Output.Graph.AutoScaling, false
TestParameter, Output.Graph.XAxis.Data, Vd
TestParameter, Output.Graph.XAxis.Scale, Linear
TestParameter, Output.Graph.XAxis.Left, 0
TestParameter, Output.Graph.XAxis.Right, -0.5
TestParameter, Output.Graph.XAxis.RunTimeAutoScale, true
TestParameter, Output.Graph.YAxis.Data, Id
TestParameter, Output.Graph.YAxis.Scale, Linear
TestParameter, Output.Graph.YAxis.Bottom, -0.1
TestParameter, Output.Graph.YAxis.Top, 0.1
TestParameter, Output.Graph.YAxis.Group, 
TestParameter, Output.Graph.YAxis.RunTimeAutoScale, true
TestParameter, Output.List.Data, Vd, Vg, Id
TestParameter, AutoAnalysis.Interpolation, false
TestParameter, AutoAnalysis.Var2StepCount, 1
TestParameter, AutoAnalysis.Var2StepScript, 
TestParameter, AutoAnalysis.Line1.Enabled, false
TestParameter, AutoAnalysis.Line1.Type, 1
TestParameter, AutoAnalysis.Line1.Fix, True
TestParameter, AutoAnalysis.Line1.YAxis, 0
TestParameter, AutoAnalysis.Line1.Point1.Type, 0
TestParameter, AutoAnalysis.Line1.Point1.XY.X, 
TestParameter, AutoAnalysis.Line1.Point1.XY.Y, 
TestParameter, AutoAnalysis.Line1.Point1.Data.Var, 
TestParameter, AutoAnalysis.Line1.Point1.Data.Condition, 
TestParameter, AutoAnalysis.Line1.Point1.Data.Start, false
TestParameter, AutoAnalysis.Line1.Point1.Data.StartVar, 
TestParameter, AutoAnalysis.Line1.Point1.Data.StartCondition, 
TestParameter, AutoAnalysis.Line1.Point2.Type, 0
TestParameter, AutoAnalysis.Line1.Point2.XY.X, 
TestParameter, AutoAnalysis.Line1.Point2.XY.Y, 
TestParameter, AutoAnalysis.Line1.Point2.Data.Var, 
TestParameter, AutoAnalysis.Line1.Point2.Data.Condition, 
TestParameter, AutoAnalysis.Line1.Point2.Data.Start, false
TestParameter, AutoAnalysis.Line1.Point2.Data.StartVar, 
TestParameter, AutoAnalysis.Line1.Point2.Data.StartCondition, 
TestParameter, AutoAnalysis.Line1.GradientExpr, 0
TestParameter, AutoAnalysis.Line2.Enabled, false
TestParameter, AutoAnalysis.Line2.Type, 1
TestParameter, AutoAnalysis.Line2.Fix, True
TestParameter, AutoAnalysis.Line2.YAxis, 0
TestParameter, AutoAnalysis.Line2.Point1.Type, 0
TestParameter, AutoAnalysis.Line2.Point1.XY.X, 
TestParameter, AutoAnalysis.Line2.Point1.XY.Y, 
TestParameter, AutoAnalysis.Line2.Point1.Data.Var, 
TestParameter, AutoAnalysis.Line2.Point1.Data.Condition, 
TestParameter, AutoAnalysis.Line2.Point1.Data.Start, false
TestParameter, AutoAnalysis.Line2.Point1.Data.StartVar, 
TestParameter, AutoAnalysis.Line2.Point1.Data.StartCondition, 
TestParameter, AutoAnalysis.Line2.Point2.Type, 0
TestParameter, AutoAnalysis.Line2.Point2.XY.X, 
TestParameter, AutoAnalysis.Line2.Point2.XY.Y, 
TestParameter, AutoAnalysis.Line2.Point2.Data.Var, 
TestParameter, AutoAnalysis.Line2.Point2.Data.Condition, 
TestParameter, AutoAnalysis.Line2.Point2.Data.Start, false
TestParameter, AutoAnalysis.Line2.Point2.Data.StartVar, 
TestParameter, AutoAnalysis.Line2.Point2.Data.StartCondition, 
TestParameter, AutoAnalysis.Line2.GradientExpr, 0
TestParameter, AutoAnalysis.Marker.Enabled, false
TestParameter, AutoAnalysis.Marker.Data.Var, 
TestParameter, AutoAnalysis.Marker.Data.Condition, 
TestParameter, AutoAnalysis.Marker.Data.Start, false
TestParameter, AutoAnalysis.Marker.Data.StartVar, 
TestParameter, AutoAnalysis.Marker.Data.StartCondition, 
MetaData, TestRecord.EntryPoint, true
MetaData, TestRecord.RecordTime, 11/20/2024 03:09:28
MetaData, TestRecord.TestTarget, 
MetaData, TestRecord.IterationIndex, 1
MetaData, TestRecord.Preservation, true
MetaData, TestRecord.Flag, 
MetaData, TestRecord.Remarks, s20c5
MetaData, TestRecord.LinkKey, b69cefdc-2cc8-4a76-8e63-1cd592109372
MetaData, TestRecord.Parameters, 
Dimension1, 102, 102, 102
Dimension2, 6, 6, 6
DataName, Vd, Vg, Id
DataValue, 0.1, 0.1, 0.00063176000000000009
DataValue, 0.088000000000000009, 0.1, 0.00056042000000000006
DataValue, 0.076, 0.1, 0.00047668000000000005
DataValue, 0.064, 0.1, 0.00039624
DataValue, 0.052000000000000005, 0.1, 0.00031618
DataValue, 0.04, 0.1, 0.00023500000000000002
DataValue, 0.028, 0.1, 0.00015976
DataValue, 0.016, 0.1, 8.6034E-05
DataValue, 0.004, 0.1, 2.0488E-05
DataValue, -0.008, 0.1, -4.1686E-05
DataValue, -0.02, 0.1, -0.00010072
DataValue, -0.032, 0.1, -0.00014220000000000001
DataValue, -0.044000000000000004, 0.1, -0.00019136
DataValue, -0.056, 0.1, -0.00023972000000000002
DataValue, -0.068, 0.1, -0.0002829
DataValue, -0.08, 0.1, -0.00031746000000000004
DataValue, -0.092, 0.1, -0.00035212000000000004
DataValue, -0.10400000000000001, 0.1, -0.00038446000000000004
DataValue, -0.116, 0.1, -0.00040542000000000003
DataValue, -0.128, 0.1, -0.00042628
DataValue, -0.14, 0.1, -0.00044962
DataValue, -0.152, 0.1, -0.00046226000000000004
DataValue, -0.164, 0.1, -0.00047286
DataValue, -0.17600000000000002, 0.1, -0.00048588
DataValue, -0.188, 0.1, -0.00049456
DataValue, -0.2, 0.1, -0.0004925
DataValue, -0.21200000000000002, 0.1, -0.0004981
DataValue, -0.224, 0.1, -0.00050568
DataValue, -0.23600000000000002, 0.1, -0.00049734
DataValue, -0.248, 0.1, -0.00049998
DataValue, -0.26, 0.1, -0.00050672
DataValue, -0.272, 0.1, -0.0004993
DataValue, -0.28400000000000003, 0.1, -0.00048590000000000005
DataValue, -0.29600000000000004, 0.1, -0.00048598
DataValue, -0.308, 0.1, -0.00047992000000000005
DataValue, -0.32, 0.1, -0.00046248000000000003
DataValue, -0.332, 0.1, -0.00046154000000000003
DataValue, -0.34400000000000003, 0.1, -0.00046472
DataValue, -0.35600000000000004, 0.1, -0.00045226
DataValue, -0.368, 0.1, -0.00044664000000000005
DataValue, -0.38, 0.1, -0.0004556
DataValue, -0.392, 0.1, -0.00045004
DataValue, -0.404, 0.1, -0.0004398
DataValue, -0.41600000000000004, 0.1, -0.00044402000000000005
DataValue, -0.42800000000000005, 0.1, -0.00045198000000000005
DataValue, -0.44, 0.1, -0.00044388
DataValue, -0.452, 0.1, -0.00043612
DataValue, -0.464, 0.1, -0.00044468000000000003
DataValue, -0.47600000000000003, 0.1, -0.0004492
DataValue, -0.48800000000000004, 0.1, -0.00043982
DataValue, -0.5, 0.1, -0.00043518
DataValue, -0.5, 0.1, -0.0004378
DataValue, -0.48800000000000004, 0.1, -0.00044264
DataValue, -0.47600000000000003, 0.1, -0.0004354
DataValue, -0.464, 0.1, -0.00042334
DataValue, -0.452, 0.1, -0.00042938000000000004
DataValue, -0.44, 0.1, -0.00043358000000000003
DataValue, -0.42800000000000005, 0.1, -0.00042276000000000005
DataValue, -0.41600000000000004, 0.1, -0.00042026000000000005
DataValue, -0.404, 0.1, -0.00043116000000000004
DataValue, -0.392, 0.1, -0.00042798
DataValue, -0.38, 0.1, -0.0004175
DataValue, -0.368, 0.1, -0.00042046000000000005
DataValue, -0.35600000000000004, 0.1, -0.00042842000000000005
DataValue, -0.34400000000000003, 0.1, -0.00042324
DataValue, -0.332, 0.1, -0.00041344
DataValue, -0.32, 0.1, -0.00041776000000000004
DataValue, -0.308, 0.1, -0.00042404000000000004
DataValue, -0.29600000000000004, 0.1, -0.00041574
DataValue, -0.28400000000000003, 0.1, -0.00040672
DataValue, -0.272, 0.1, -0.00040788
DataValue, -0.26, 0.1, -0.00040508000000000005
DataValue, -0.248, 0.1, -0.00038796
DataValue, -0.23600000000000002, 0.1, -0.00037242000000000004
DataValue, -0.224, 0.1, -0.00036762000000000003
DataValue, -0.21200000000000002, 0.1, -0.00036242
DataValue, -0.2, 0.1, -0.00035002000000000004
DataValue, -0.188, 0.1, -0.00033974
DataValue, -0.17600000000000002, 0.1, -0.00033504000000000004
DataValue, -0.164, 0.1, -0.00033006
DataValue, -0.152, 0.1, -0.00032008000000000004
DataValue, -0.14, 0.1, -0.00031074
DataValue, -0.128, 0.1, -0.00030406000000000004
DataValue, -0.116, 0.1, -0.00029360000000000004
DataValue, -0.10400000000000001, 0.1, -0.00027464000000000004
DataValue, -0.092, 0.1, -0.00025662
DataValue, -0.08, 0.1, -0.00023932
DataValue, -0.068, 0.1, -0.00021414
DataValue, -0.056, 0.1, -0.00018358
DataValue, -0.044000000000000004, 0.1, -0.00015262
DataValue, -0.032, 0.1, -0.00011768000000000001
DataValue, -0.02, 0.1, -8.0046E-05
DataValue, -0.008, 0.1, -3.3176E-05
DataValue, 0.004, 0.1, 1.6836E-05
DataValue, 0.016, 0.1, 7.0472E-05
DataValue, 0.028, 0.1, 0.00014046000000000002
DataValue, 0.04, 0.1, 0.00020342
DataValue, 0.052000000000000005, 0.1, 0.00027108000000000004
DataValue, 0.064, 0.1, 0.00034060000000000004
DataValue, 0.076, 0.1, 0.00043430000000000004
DataValue, 0.088000000000000009, 0.1, 0.0005088
DataValue, 0.1, 0.1, 0.00059120000000000006
DataValue, 0.1, 0, 0.00091202
DataValue, 0.088000000000000009, 0, 0.00081258
DataValue, 0.076, 0, 0.00069996
DataValue, 0.064, 0, 0.00058142
DataValue, 0.052000000000000005, 0, 0.00046766
DataValue, 0.04, 0, 0.00035498
DataValue, 0.028, 0, 0.00024248000000000002
DataValue, 0.016, 0, 0.0001361
DataValue, 0.004, 0, 3.1862E-05
DataValue, -0.008, 0, -6.5294E-05
DataValue, -0.02, 0, -0.00015272000000000002
DataValue, -0.032, 0, -0.00024440000000000003
DataValue, -0.044000000000000004, 0, -0.00032960000000000004
DataValue, -0.056, 0, -0.0004111
DataValue, -0.068, 0, -0.00049070000000000006
DataValue, -0.08, 0, -0.00056582000000000008
DataValue, -0.092, 0, -0.00063204
DataValue, -0.10400000000000001, 0, -0.00069398000000000007
DataValue, -0.116, 0, -0.00075930000000000008
DataValue, -0.128, 0, -0.00081458000000000008
DataValue, -0.14, 0, -0.00085962000000000007
DataValue, -0.152, 0, -0.00090798000000000007
DataValue, -0.164, 0, -0.0009566
DataValue, -0.17600000000000002, 0, -0.00099082000000000011
DataValue, -0.188, 0, -0.0010187
DataValue, -0.2, 0, -0.0010527400000000001
DataValue, -0.21200000000000002, 0, -0.00108376
DataValue, -0.224, 0, -0.0011031600000000002
DataValue, -0.23600000000000002, 0, -0.00111692
DataValue, -0.248, 0, -0.00113766
DataValue, -0.26, 0, -0.0010518
DataValue, -0.272, 0, -0.0011002
DataValue, -0.28400000000000003, 0, -0.0011314
DataValue, -0.29600000000000004, 0, -0.001141
DataValue, -0.308, 0, -0.00116
DataValue, -0.32, 0, -0.001177
DataValue, -0.332, 0, -0.0011814
DataValue, -0.34400000000000003, 0, -0.0011844
DataValue, -0.35600000000000004, 0, -0.001197
DataValue, -0.368, 0, -0.0012008000000000001
DataValue, -0.38, 0, -0.001167
DataValue, -0.392, 0, -0.0011734
DataValue, -0.404, 0, -0.0011626
DataValue, -0.41600000000000004, 0, -0.0011322
DataValue, -0.42800000000000005, 0, -0.001135
DataValue, -0.44, 0, -0.0011380000000000001
DataValue, -0.452, 0, -0.0011116000000000001
DataValue, -0.464, 0, -0.0011108000000000001
DataValue, -0.47600000000000003, 0, -0.001127
DataValue, -0.48800000000000004, 0, -0.0011084
DataValue, -0.5, 0, -0.001099
DataValue, -0.5, 0, -0.0011068
DataValue, -0.48800000000000004, 0, -0.0011092
DataValue, -0.47600000000000003, 0, -0.0010828
DataValue, -0.464, 0, -0.001081
DataValue, -0.452, 0, -0.0010974000000000001
DataValue, -0.44, 0, -0.001081
DataValue, -0.42800000000000005, 0, -0.0010696
DataValue, -0.41600000000000004, 0, -0.001088
DataValue, -0.404, 0, -0.0010796
DataValue, -0.392, 0, -0.0010582
DataValue, -0.38, 0, -0.0010642
DataValue, -0.368, 0, -0.0010538
DataValue, -0.35600000000000004, 0, -0.0010204
DataValue, -0.34400000000000003, 0, -0.0010052
DataValue, -0.332, 0, -0.00102058
DataValue, -0.32, 0, -0.00099462
DataValue, -0.308, 0, -0.00098434
DataValue, -0.29600000000000004, 0, -0.00097448
DataValue, -0.28400000000000003, 0, -0.0009514
DataValue, -0.272, 0, -0.00094032
DataValue, -0.26, 0, -0.00094682
DataValue, -0.248, 0, -0.00092812
DataValue, -0.23600000000000002, 0, -0.0009085
DataValue, -0.224, 0, -0.00090514
DataValue, -0.21200000000000002, 0, -0.00089036000000000009
DataValue, -0.2, 0, -0.0008704
DataValue, -0.188, 0, -0.00084504
DataValue, -0.17600000000000002, 0, -0.00082502000000000009
DataValue, -0.164, 0, -0.00079928000000000009
DataValue, -0.152, 0, -0.0007592600000000001
DataValue, -0.14, 0, -0.00072448
DataValue, -0.128, 0, -0.00069086000000000006
DataValue, -0.116, 0, -0.00064414000000000008
DataValue, -0.10400000000000001, 0, -0.00059234
DataValue, -0.092, 0, -0.0005433
DataValue, -0.08, 0, -0.00048986000000000006
DataValue, -0.068, 0, -0.00042764
DataValue, -0.056, 0, -0.0003624
DataValue, -0.044000000000000004, 0, -0.00029432000000000004
DataValue, -0.032, 0, -0.0002211
DataValue, -0.02, 0, -0.00014212
DataValue, -0.008, 0, -6.0346E-05
DataValue, 0.004, 0, 2.9554000000000002E-05
DataValue, 0.016, 0, 0.00012948000000000001
DataValue, 0.028, 0, 0.00022922
DataValue, 0.04, 0, 0.00033072
DataValue, 0.052000000000000005, 0, 0.00043528
DataValue, 0.064, 0, 0.00054870000000000006
DataValue, 0.076, 0, 0.00066504
DataValue, 0.088000000000000009, 0, 0.00078156
DataValue, 0.1, 0, 0.00090862000000000007
DataValue, 0.1, -0.1, 0.0011882
DataValue, 0.088000000000000009, -0.1, 0.0010522
DataValue, 0.076, -0.1, 0.00091156000000000006
DataValue, 0.064, -0.1, 0.00076344
DataValue, 0.052000000000000005, -0.1, 0.0006158
DataValue, 0.04, -0.1, 0.00047112
DataValue, 0.028, -0.1, 0.00032522000000000003
DataValue, 0.016, -0.1, 0.00018308000000000002
DataValue, 0.004, -0.1, 4.3238E-05
DataValue, -0.008, -0.1, -8.9812E-05
DataValue, -0.02, -0.1, -0.00021558000000000002
DataValue, -0.032, -0.1, -0.00034444
DataValue, -0.044000000000000004, -0.1, -0.0004693
DataValue, -0.056, -0.1, -0.00058782000000000007
DataValue, -0.068, -0.1, -0.00070564
DataValue, -0.08, -0.1, -0.00081938000000000009
DataValue, -0.092, -0.1, -0.00092304000000000008
DataValue, -0.10400000000000001, -0.1, -0.00102644
DataValue, -0.116, -0.1, -0.0011289000000000002
DataValue, -0.128, -0.1, -0.0011772
DataValue, -0.14, -0.1, -0.0012844
DataValue, -0.152, -0.1, -0.0013744
DataValue, -0.164, -0.1, -0.0014572
DataValue, -0.17600000000000002, -0.1, -0.0015412
DataValue, -0.188, -0.1, -0.0016216
DataValue, -0.2, -0.1, -0.0016856
DataValue, -0.21200000000000002, -0.1, -0.0017418
DataValue, -0.224, -0.1, -0.0018132
DataValue, -0.23600000000000002, -0.1, -0.0018676
DataValue, -0.248, -0.1, -0.0019018
DataValue, -0.26, -0.1, -0.001957
DataValue, -0.272, -0.1, -0.0019984
DataValue, -0.28400000000000003, -0.1, -0.0020316
DataValue, -0.29600000000000004, -0.1, -0.0020626
DataValue, -0.308, -0.1, -0.0021008
DataValue, -0.32, -0.1, -0.0021338
DataValue, -0.332, -0.1, -0.0021472
DataValue, -0.34400000000000003, -0.1, -0.0021642000000000002
DataValue, -0.35600000000000004, -0.1, -0.002198
DataValue, -0.368, -0.1, -0.0022148
DataValue, -0.38, -0.1, -0.0022098
DataValue, -0.392, -0.1, -0.002226
DataValue, -0.404, -0.1, -0.0022514
DataValue, -0.41600000000000004, -0.1, -0.0022482
DataValue, -0.42800000000000005, -0.1, -0.0022456
DataValue, -0.44, -0.1, -0.0022606
DataValue, -0.452, -0.1, -0.0022768
DataValue, -0.464, -0.1, -0.002272
DataValue, -0.47600000000000003, -0.1, -0.0022612
DataValue, -0.48800000000000004, -0.1, -0.002268
DataValue, -0.5, -0.1, -0.0022752000000000002
DataValue, -0.5, -0.1, -0.0022456
DataValue, -0.48800000000000004, -0.1, -0.0021418
DataValue, -0.47600000000000003, -0.1, -0.0020884000000000002
DataValue, -0.464, -0.1, -0.0020598
DataValue, -0.452, -0.1, -0.0020218000000000002
DataValue, -0.44, -0.1, -0.002023
DataValue, -0.42800000000000005, -0.1, -0.0019932
DataValue, -0.41600000000000004, -0.1, -0.0019592
DataValue, -0.404, -0.1, -0.0019554
DataValue, -0.392, -0.1, -0.0019494
DataValue, -0.38, -0.1, -0.0019222
DataValue, -0.368, -0.1, -0.0019140000000000001
DataValue, -0.35600000000000004, -0.1, -0.001915
DataValue, -0.34400000000000003, -0.1, -0.0018888
DataValue, -0.332, -0.1, -0.0018694
DataValue, -0.32, -0.1, -0.0018664
DataValue, -0.308, -0.1, -0.0018408
DataValue, -0.29600000000000004, -0.1, -0.0018076000000000001
DataValue, -0.28400000000000003, -0.1, -0.0017938000000000001
DataValue, -0.272, -0.1, -0.0017668
DataValue, -0.26, -0.1, -0.0017224
DataValue, -0.248, -0.1, -0.0016914
DataValue, -0.23600000000000002, -0.1, -0.0016588
DataValue, -0.224, -0.1, -0.0016044
DataValue, -0.21200000000000002, -0.1, -0.001556
DataValue, -0.2, -0.1, -0.0015122
DataValue, -0.188, -0.1, -0.0014498
DataValue, -0.17600000000000002, -0.1, -0.0013912
DataValue, -0.164, -0.1, -0.0013324
DataValue, -0.152, -0.1, -0.0012608
DataValue, -0.14, -0.1, -0.0011818
DataValue, -0.128, -0.1, -0.001109
DataValue, -0.116, -0.1, -0.0010278
DataValue, -0.10400000000000001, -0.1, -0.0009548
DataValue, -0.092, -0.1, -0.0008591400000000001
DataValue, -0.08, -0.1, -0.00075566
DataValue, -0.068, -0.1, -0.0006526
DataValue, -0.056, -0.1, -0.00054968
DataValue, -0.044000000000000004, -0.1, -0.00043906
DataValue, -0.032, -0.1, -0.00032348
DataValue, -0.02, -0.1, -0.00020582
DataValue, -0.008, -0.1, -8.5442E-05
DataValue, 0.004, -0.1, 4.135E-05
DataValue, 0.016, -0.1, 0.00017820000000000002
DataValue, 0.028, -0.1, 0.00031370000000000004
DataValue, 0.04, -0.1, 0.00045048
DataValue, 0.052000000000000005, -0.1, 0.00059128
DataValue, 0.064, -0.1, 0.00074098
DataValue, 0.076, -0.1, 0.0008876200000000001
DataValue, 0.088000000000000009, -0.1, 0.0010364600000000001
DataValue, 0.1, -0.1, 0.001225
DataValue, 0.1, -0.2, 0.0013846
DataValue, 0.088000000000000009, -0.2, 0.001228
DataValue, 0.076, -0.2, 0.0010624
DataValue, 0.064, -0.2, 0.00089062000000000006
DataValue, 0.052000000000000005, -0.2, 0.00072270000000000006
DataValue, 0.04, -0.2, 0.00055288000000000006
DataValue, 0.028, -0.2, 0.00038484
DataValue, 0.016, -0.2, 0.00021872000000000002
DataValue, 0.004, -0.2, 5.108E-05
DataValue, -0.008, -0.2, -0.000106902
DataValue, -0.02, -0.2, -0.00026588
DataValue, -0.032, -0.2, -0.00042458000000000003
DataValue, -0.044000000000000004, -0.2, -0.0005789
DataValue, -0.056, -0.2, -0.0007324
DataValue, -0.068, -0.2, -0.00088330000000000006
DataValue, -0.08, -0.2, -0.0010273
DataValue, -0.092, -0.2, -0.0011518
DataValue, -0.10400000000000001, -0.2, -0.0012928
