
SetupTitle, (c1) Output curve in LGP
PrimitiveTest, I/V Sweep
TestParameter, Context.MainFrame, B1500A
TestParameter, Channel.UnitType, SMU, SMU
TestParameter, Channel.Unit, SMU1:HR/AS, SMU2:HR/AS
TestParameter, Channel.IName, Ig, Id
TestParameter, Channel.VName, Vg, Vd
TestParameter, Channel.Mode, V, V
TestParameter, Channel.Func, VAR2, VAR1
TestParameter, Channel.Index, 
TestParameter, Channel.Time, 
TestParameter, Measurement.Port.Unit, SMU1:HR/AS, SMU2:HR/AS
TestParameter, Measurement.Port.SeriesResistor, NONE, NONE
TestParameter, Measurement.Port.Filter, ON, ON
TestParameter, Measurement.Port.OutputVoltageComparison, 0, 0
TestParameter, Measurement.Primary.Locus, Double
TestParameter, Measurement.Primary.Scale, LINEAR
TestParameter, Measurement.Primary.Start, 0.1
TestParameter, Measurement.Primary.Stop, -0.5
TestParameter, Measurement.Primary.Step, -0.012
TestParameter, Measurement.Primary.Compliance, 0.1
TestParameter, Measurement.Primary.PowerCompliance, 0
TestParameter, Measurement.Aborting.Condition, CONTINUE AT ANY
TestParameter, Measurement.PostOutput.Value, START
TestParameter, Measurement.PostOutput.Retention, OFF
TestParameter, Measurement.Secondary.Start, 0.1
TestParameter, Measurement.Secondary.Count, 6
TestParameter, Measurement.Secondary.Step, -0.1
TestParameter, Measurement.Secondary.Compliance, 0.0001
TestParameter, Measurement.Secondary.PowerCompliance, 0
TestParameter, Measurement.Bias.Source, 0.1, 0.1
TestParameter, Measurement.Bias.Compliance, 0.0001, 0.1
TestParameter, Measurement.Monitor.Unit, SMU1:HR/AS, SMU2:HR/AS
TestParameter, Measurement.Monitor.Adc, HR ADC, HR ADC
TestParameter, Measurement.Monitor.Measurement, Compliance Side, Compliance Side
TestParameter, Measurement.Monitor.RangingMode, LIMITED, LIMITED
TestParameter, Measurement.Monitor.RangeBoundary, 1nA, 1nA
TestParameter, Measurement.Monitor.RangeRating, BY FULL RANGE, BY FULL RANGE
TestParameter, Measurement.Monitor.RangeRatingCoeff, 50, 50
TestParameter, Measurement.Timing.Hold, 0
TestParameter, Measurement.Timing.Delay, 0
TestParameter, Measurement.Adc.HighSpeed.Mode, AUTO
TestParameter, Measurement.Adc.HighSpeed.Coeff, 1
TestParameter, Measurement.Adc.HighResolution.AutoZero, OFF
TestParameter, Measurement.Adc.HighResolution.Mode, AUTO
TestParameter, Measurement.Adc.HighResolution.Coeff, 6
TestParameter, Measurement.WaitTime.Source.Coeff, 1
TestParameter, Measurement.WaitTime.Source.Offset, 0
TestParameter, Measurement.WaitTime.Monitor.Coeff, 1
TestParameter, Measurement.WaitTime.Monitor.Offset, 0
TestParameter, Output.Graph.Enabled, true
TestParameter, Output.Graph.AutoScaling, false
TestParameter, Output.Graph.XAxis.Data, Vd
TestParameter, Output.Graph.XAxis.Scale, Linear
TestParameter, Output.Graph.XAxis.Left, 0
TestParameter, Output.Graph.XAxis.Right, -0.5
TestParameter, Output.Graph.XAxis.RunTimeAutoScale, true
TestParameter, Output.Graph.YAxis.Data, Id
TestParameter, Output.Graph.YAxis.Scale, Linear
TestParameter, Output.Graph.YAxis.Bottom, -0.1
TestParameter, Output.Graph.YAxis.Top, 0.1
TestParameter, Output.Graph.YAxis.Group, 
TestParameter, Output.Graph.YAxis.RunTimeAutoScale, true
TestParameter, Output.List.Data, Vd, Vg, Id
TestParameter, AutoAnalysis.Interpolation, false
TestParameter, AutoAnalysis.Var2StepCount, 1
TestParameter, AutoAnalysis.Var2StepScript, 
TestParameter, AutoAnalysis.Line1.Enabled, false
TestParameter, AutoAnalysis.Line1.Type, 1
TestParameter, AutoAnalysis.Line1.Fix, True
TestParameter, AutoAnalysis.Line1.YAxis, 0
TestParameter, AutoAnalysis.Line1.Point1.Type, 0
TestParameter, AutoAnalysis.Line1.Point1.XY.X, 
TestParameter, AutoAnalysis.Line1.Point1.XY.Y, 
TestParameter, AutoAnalysis.Line1.Point1.Data.Var, 
TestParameter, AutoAnalysis.Line1.Point1.Data.Condition, 
TestParameter, AutoAnalysis.Line1.Point1.Data.Start, false
TestParameter, AutoAnalysis.Line1.Point1.Data.StartVar, 
TestParameter, AutoAnalysis.Line1.Point1.Data.StartCondition, 
TestParameter, AutoAnalysis.Line1.Point2.Type, 0
TestParameter, AutoAnalysis.Line1.Point2.XY.X, 
TestParameter, AutoAnalysis.Line1.Point2.XY.Y, 
TestParameter, AutoAnalysis.Line1.Point2.Data.Var, 
TestParameter, AutoAnalysis.Line1.Point2.Data.Condition, 
TestParameter, AutoAnalysis.Line1.Point2.Data.Start, false
TestParameter, AutoAnalysis.Line1.Point2.Data.StartVar, 
TestParameter, AutoAnalysis.Line1.Point2.Data.StartCondition, 
TestParameter, AutoAnalysis.Line1.GradientExpr, 0
TestParameter, AutoAnalysis.Line2.Enabled, false
TestParameter, AutoAnalysis.Line2.Type, 1
TestParameter, AutoAnalysis.Line2.Fix, True
TestParameter, AutoAnalysis.Line2.YAxis, 0
TestParameter, AutoAnalysis.Line2.Point1.Type, 0
TestParameter, AutoAnalysis.Line2.Point1.XY.X, 
TestParameter, AutoAnalysis.Line2.Point1.XY.Y, 
TestParameter, AutoAnalysis.Line2.Point1.Data.Var, 
TestParameter, AutoAnalysis.Line2.Point1.Data.Condition, 
TestParameter, AutoAnalysis.Line2.Point1.Data.Start, false
TestParameter, AutoAnalysis.Line2.Point1.Data.StartVar, 
TestParameter, AutoAnalysis.Line2.Point1.Data.StartCondition, 
TestParameter, AutoAnalysis.Line2.Point2.Type, 0
TestParameter, AutoAnalysis.Line2.Point2.XY.X, 
TestParameter, AutoAnalysis.Line2.Point2.XY.Y, 
TestParameter, AutoAnalysis.Line2.Point2.Data.Var, 
TestParameter, AutoAnalysis.Line2.Point2.Data.Condition, 
TestParameter, AutoAnalysis.Line2.Point2.Data.Start, false
TestParameter, AutoAnalysis.Line2.Point2.Data.StartVar, 
TestParameter, AutoAnalysis.Line2.Point2.Data.StartCondition, 
TestParameter, AutoAnalysis.Line2.GradientExpr, 0
TestParameter, AutoAnalysis.Marker.Enabled, false
TestParameter, AutoAnalysis.Marker.Data.Var, 
TestParameter, AutoAnalysis.Marker.Data.Condition, 
TestParameter, AutoAnalysis.Marker.Data.Start, false
TestParameter, AutoAnalysis.Marker.Data.StartVar, 
TestParameter, AutoAnalysis.Marker.Data.StartCondition, 
MetaData, TestRecord.EntryPoint, true
MetaData, TestRecord.RecordTime, 11/20/2024 03:10:04
MetaData, TestRecord.TestTarget, 
MetaData, TestRecord.IterationIndex, 2
MetaData, TestRecord.Preservation, true
MetaData, TestRecord.Flag, 
MetaData, TestRecord.Remarks, s20c6
MetaData, TestRecord.LinkKey, 949ddb0b-22d4-43fb-9bc3-674772c61792
MetaData, TestRecord.Parameters, 
Dimension1, 102, 102, 102
Dimension2, 6, 6, 6
DataName, Vd, Vg, Id
DataValue, 0.1, 0.1, 0.00036526
DataValue, 0.088000000000000009, 0.1, 0.00031574
DataValue, 0.076, 0.1, 0.00026474
DataValue, 0.064, 0.1, 0.00021808000000000003
DataValue, 0.052000000000000005, 0.1, 0.00016998000000000002
DataValue, 0.04, 0.1, 0.00012498
DataValue, 0.028, 0.1, 8.3022E-05
DataValue, 0.016, 0.1, 4.5754E-05
DataValue, 0.004, 0.1, 1.1006000000000001E-05
DataValue, -0.008, 0.1, -2.1896000000000002E-05
DataValue, -0.02, 0.1, -5.1646E-05
DataValue, -0.032, 0.1, -7.8428E-05
DataValue, -0.044000000000000004, 0.1, -0.00010424
DataValue, -0.056, 0.1, -0.00011946000000000001
DataValue, -0.068, 0.1, -0.00014064
DataValue, -0.08, 0.1, -0.00015776
DataValue, -0.092, 0.1, -0.00017572
DataValue, -0.10400000000000001, 0.1, -0.00018796
DataValue, -0.116, 0.1, -0.00019612
DataValue, -0.128, 0.1, -0.0002078
DataValue, -0.14, 0.1, -0.00021596
DataValue, -0.152, 0.1, -0.00021756000000000002
DataValue, -0.164, 0.1, -0.00022334
DataValue, -0.17600000000000002, 0.1, -0.00022948
DataValue, -0.188, 0.1, -0.00022772000000000002
DataValue, -0.2, 0.1, -0.00022864
DataValue, -0.21200000000000002, 0.1, -0.00023386000000000001
DataValue, -0.224, 0.1, -0.00023244000000000002
DataValue, -0.23600000000000002, 0.1, -0.00023076000000000002
DataValue, -0.248, 0.1, -0.00023224
DataValue, -0.26, 0.1, -0.00023318000000000001
DataValue, -0.272, 0.1, -0.00022842
DataValue, -0.28400000000000003, 0.1, -0.00022962000000000001
DataValue, -0.29600000000000004, 0.1, -0.00022926
DataValue, -0.308, 0.1, -0.00022080000000000003
DataValue, -0.32, 0.1, -0.00021996
DataValue, -0.332, 0.1, -0.00022312000000000002
DataValue, -0.34400000000000003, 0.1, -0.00021684000000000002
DataValue, -0.35600000000000004, 0.1, -0.00021374000000000002
DataValue, -0.368, 0.1, -0.00021902
DataValue, -0.38, 0.1, -0.0002156
DataValue, -0.392, 0.1, -0.00021106
DataValue, -0.404, 0.1, -0.00021638
DataValue, -0.41600000000000004, 0.1, -0.00021634
DataValue, -0.42800000000000005, 0.1, -0.00021018000000000002
DataValue, -0.44, 0.1, -0.0002135
DataValue, -0.452, 0.1, -0.00021688000000000002
DataValue, -0.464, 0.1, -0.00021094
DataValue, -0.47600000000000003, 0.1, -0.00021094
DataValue, -0.48800000000000004, 0.1, -0.00021654
DataValue, -0.5, 0.1, -0.00021250000000000002
DataValue, -0.5, 0.1, -0.0002088
DataValue, -0.48800000000000004, 0.1, -0.00021002000000000003
DataValue, -0.47600000000000003, 0.1, -0.00021284
DataValue, -0.464, 0.1, -0.00020666
DataValue, -0.452, 0.1, -0.00020634
DataValue, -0.44, 0.1, -0.00021152
DataValue, -0.42800000000000005, 0.1, -0.00020726000000000002
DataValue, -0.41600000000000004, 0.1, -0.00020458000000000002
DataValue, -0.404, 0.1, -0.00021004000000000002
DataValue, -0.392, 0.1, -0.00020764
DataValue, -0.38, 0.1, -0.00020296000000000002
DataValue, -0.368, 0.1, -0.00020532000000000002
DataValue, -0.35600000000000004, 0.1, -0.00020928
DataValue, -0.34400000000000003, 0.1, -0.00020462
DataValue, -0.332, 0.1, -0.00020174
DataValue, -0.32, 0.1, -0.00020730000000000002
DataValue, -0.308, 0.1, -0.00020662000000000002
DataValue, -0.29600000000000004, 0.1, -0.0002009
DataValue, -0.28400000000000003, 0.1, -0.00020142
DataValue, -0.272, 0.1, -0.00020364000000000002
DataValue, -0.26, 0.1, -0.00019822
DataValue, -0.248, 0.1, -0.00019156000000000002
DataValue, -0.23600000000000002, 0.1, -0.00018936000000000002
DataValue, -0.224, 0.1, -0.00018968
DataValue, -0.21200000000000002, 0.1, -0.00018444000000000002
DataValue, -0.2, 0.1, -0.00018066000000000002
DataValue, -0.188, 0.1, -0.00018216
DataValue, -0.17600000000000002, 0.1, -0.00018024000000000002
DataValue, -0.164, 0.1, -0.00017576
DataValue, -0.152, 0.1, -0.00017374
DataValue, -0.14, 0.1, -0.00017244000000000002
DataValue, -0.128, 0.1, -0.0001677
DataValue, -0.116, 0.1, -0.0001589
DataValue, -0.10400000000000001, 0.1, -0.00015116
DataValue, -0.092, 0.1, -0.00014394
DataValue, -0.08, 0.1, -0.00013272000000000002
DataValue, -0.068, 0.1, -0.00011756
DataValue, -0.056, 0.1, -0.00010254
DataValue, -0.044000000000000004, 0.1, -8.9368E-05
DataValue, -0.032, 0.1, -6.6062E-05
DataValue, -0.02, 0.1, -4.3570000000000005E-05
DataValue, -0.008, 0.1, -1.8466E-05
DataValue, 0.004, 0.1, 9.6551000000000018E-06
DataValue, 0.016, 0.1, 4.2118E-05
DataValue, 0.028, 0.1, 7.4238E-05
DataValue, 0.04, 0.1, 0.000110958
DataValue, 0.052000000000000005, 0.1, 0.00015624
DataValue, 0.064, 0.1, 0.00019652000000000002
DataValue, 0.076, 0.1, 0.00023838
DataValue, 0.088000000000000009, 0.1, 0.0002854
DataValue, 0.1, 0.1, 0.00034164000000000004
DataValue, 0.1, 0, 0.00056826
DataValue, 0.088000000000000009, 0, 0.00049382000000000007
DataValue, 0.076, 0, 0.00041818000000000004
DataValue, 0.064, 0, 0.00034702
DataValue, 0.052000000000000005, 0, 0.00027432000000000004
DataValue, 0.04, 0, 0.00020468000000000003
DataValue, 0.028, 0, 0.00014064
DataValue, 0.016, 0, 7.6228E-05
DataValue, 0.004, 0, 1.8628000000000002E-05
DataValue, -0.008, 0, -3.7722E-05
DataValue, -0.02, 0, -9.0478E-05
DataValue, -0.032, 0, -0.00013562
DataValue, -0.044000000000000004, 0, -0.00018486000000000002
DataValue, -0.056, 0, -0.00023048
DataValue, -0.068, 0, -0.00026942000000000003
DataValue, -0.08, 0, -0.0003084
DataValue, -0.092, 0, -0.00034612
DataValue, -0.10400000000000001, 0, -0.00037578000000000004
DataValue, -0.116, 0, -0.00040392000000000005
DataValue, -0.128, 0, -0.0004351
DataValue, -0.14, 0, -0.00045186000000000005
DataValue, -0.152, 0, -0.00047454
DataValue, -0.164, 0, -0.00050010000000000007
DataValue, -0.17600000000000002, 0, -0.00051542
DataValue, -0.188, 0, -0.00052554
DataValue, -0.2, 0, -0.00054408000000000006
DataValue, -0.21200000000000002, 0, -0.00055632
DataValue, -0.224, 0, -0.0005588
DataValue, -0.23600000000000002, 0, -0.00056920000000000007
DataValue, -0.248, 0, -0.00058028000000000008
DataValue, -0.26, 0, -0.00057842000000000006
DataValue, -0.272, 0, -0.00058240000000000006
DataValue, -0.28400000000000003, 0, -0.00059282000000000009
DataValue, -0.29600000000000004, 0, -0.00059044
DataValue, -0.308, 0, -0.0005887
DataValue, -0.32, 0, -0.00059828000000000008
DataValue, -0.332, 0, -0.00059858
DataValue, -0.34400000000000003, 0, -0.00059254
DataValue, -0.35600000000000004, 0, -0.0005994
DataValue, -0.368, 0, -0.000602
DataValue, -0.38, 0, -0.00059240000000000009
DataValue, -0.392, 0, -0.00058778
DataValue, -0.404, 0, -0.00059262000000000008
DataValue, -0.41600000000000004, 0, -0.00058766
DataValue, -0.42800000000000005, 0, -0.00057566000000000008
DataValue, -0.44, 0, -0.00057714000000000007
DataValue, -0.452, 0, -0.000585
DataValue, -0.464, 0, -0.0005768
DataValue, -0.47600000000000003, 0, -0.00056992
DataValue, -0.48800000000000004, 0, -0.00057748
DataValue, -0.5, 0, -0.00058182
DataValue, -0.5, 0, -0.00057632000000000007
DataValue, -0.48800000000000004, 0, -0.00056504
DataValue, -0.47600000000000003, 0, -0.00056994
DataValue, -0.464, 0, -0.0005764
DataValue, -0.452, 0, -0.0005689
DataValue, -0.44, 0, -0.00056112
DataValue, -0.42800000000000005, 0, -0.00056786
DataValue, -0.41600000000000004, 0, -0.00057308
DataValue, -0.404, 0, -0.00056298
DataValue, -0.392, 0, -0.00055754
DataValue, -0.38, 0, -0.000563
DataValue, -0.368, 0, -0.00056056
DataValue, -0.35600000000000004, 0, -0.00054562
DataValue, -0.34400000000000003, 0, -0.00053558
DataValue, -0.332, 0, -0.00053822000000000006
DataValue, -0.32, 0, -0.00053590000000000007
DataValue, -0.308, 0, -0.0005268
DataValue, -0.29600000000000004, 0, -0.00052288
DataValue, -0.28400000000000003, 0, -0.00052576
DataValue, -0.272, 0, -0.00052536
DataValue, -0.26, 0, -0.00051828000000000009
DataValue, -0.248, 0, -0.00051428
DataValue, -0.23600000000000002, 0, -0.00051542
DataValue, -0.224, 0, -0.00051038000000000006
DataValue, -0.21200000000000002, 0, -0.00049588000000000008
DataValue, -0.2, 0, -0.00048834
DataValue, -0.188, 0, -0.00048364
DataValue, -0.17600000000000002, 0, -0.00046832000000000004
DataValue, -0.164, 0, -0.00044926000000000005
DataValue, -0.152, 0, -0.00043586000000000005
DataValue, -0.14, 0, -0.00041982
DataValue, -0.128, 0, -0.00039594
DataValue, -0.116, 0, -0.00037022000000000004
DataValue, -0.10400000000000001, 0, -0.00034572000000000004
DataValue, -0.092, 0, -0.00031872000000000004
DataValue, -0.08, 0, -0.00028566
DataValue, -0.068, 0, -0.00024964000000000003
DataValue, -0.056, 0, -0.00021402000000000001
DataValue, -0.044000000000000004, 0, -0.00017464000000000002
DataValue, -0.032, 0, -0.00013016000000000001
DataValue, -0.02, 0, -8.6734E-05
DataValue, -0.008, 0, -3.5408000000000004E-05
DataValue, 0.004, 0, 1.734E-05
DataValue, 0.016, 0, 7.3342E-05
DataValue, 0.028, 0, 0.00013672
DataValue, 0.04, 0, 0.00019808
DataValue, 0.052000000000000005, 0, 0.00026106
DataValue, 0.064, 0, 0.00032924
DataValue, 0.076, 0, 0.00040474
DataValue, 0.088000000000000009, 0, 0.00047850000000000003
DataValue, 0.1, 0, 0.00055402
DataValue, 0.1, -0.1, 0.00078138
DataValue, 0.088000000000000009, -0.1, 0.00068204000000000008
DataValue, 0.076, -0.1, 0.00058394
DataValue, 0.064, -0.1, 0.00048668
DataValue, 0.052000000000000005, -0.1, 0.00038772000000000004
DataValue, 0.04, -0.1, 0.00029354
DataValue, 0.028, -0.1, 0.00020298
DataValue, 0.016, -0.1, 0.00011324000000000001
DataValue, 0.004, -0.1, 2.727E-05
DataValue, -0.008, -0.1, -5.5856E-05
DataValue, -0.02, -0.1, -0.00013304000000000001
DataValue, -0.032, -0.1, -0.00021012
DataValue, -0.044000000000000004, -0.1, -0.00028508
DataValue, -0.056, -0.1, -0.00035582
DataValue, -0.068, -0.1, -0.00042148
DataValue, -0.08, -0.1, -0.00048806
DataValue, -0.092, -0.1, -0.00054974000000000006
DataValue, -0.10400000000000001, -0.1, -0.00060384
DataValue, -0.116, -0.1, -0.00066036
DataValue, -0.128, -0.1, -0.00071494000000000006
DataValue, -0.14, -0.1, -0.00075862
DataValue, -0.152, -0.1, -0.00080392000000000007
DataValue, -0.164, -0.1, -0.00085262
DataValue, -0.17600000000000002, -0.1, -0.0008916000000000001
DataValue, -0.188, -0.1, -0.00092038
DataValue, -0.2, -0.1, -0.00095852
DataValue, -0.21200000000000002, -0.1, -0.00099306
DataValue, -0.224, -0.1, -0.0010129400000000002
DataValue, -0.23600000000000002, -0.1, -0.00103988
DataValue, -0.248, -0.1, -0.00107094
DataValue, -0.26, -0.1, -0.0010849400000000002
DataValue, -0.272, -0.1, -0.00109952
DataValue, -0.28400000000000003, -0.1, -0.0011264600000000001
DataValue, -0.29600000000000004, -0.1, -0.0010958
DataValue, -0.308, -0.1, -0.0011380000000000001
DataValue, -0.32, -0.1, -0.0011586
DataValue, -0.332, -0.1, -0.001152
DataValue, -0.34400000000000003, -0.1, -0.0011696
DataValue, -0.35600000000000004, -0.1, -0.0011888
DataValue, -0.368, -0.1, -0.0011848
DataValue, -0.38, -0.1, -0.0011852
DataValue, -0.392, -0.1, -0.0011976
DataValue, -0.404, -0.1, -0.0012088000000000001
DataValue, -0.41600000000000004, -0.1, -0.0012056
DataValue, -0.42800000000000005, -0.1, -0.0012008000000000001
DataValue, -0.44, -0.1, -0.0012098
DataValue, -0.452, -0.1, -0.0012184000000000001
DataValue, -0.464, -0.1, -0.001211
DataValue, -0.47600000000000003, -0.1, -0.0012044
DataValue, -0.48800000000000004, -0.1, -0.001215
DataValue, -0.5, -0.1, -0.0012112
DataValue, -0.5, -0.1, -0.0011958000000000001
DataValue, -0.48800000000000004, -0.1, -0.001161
DataValue, -0.47600000000000003, -0.1, -0.0011558
DataValue, -0.464, -0.1, -0.0011472000000000001
DataValue, -0.452, -0.1, -0.0011242000000000001
DataValue, -0.44, -0.1, -0.0011164
DataValue, -0.42800000000000005, -0.1, -0.0011276
DataValue, -0.41600000000000004, -0.1, -0.0011174
DataValue, -0.404, -0.1, -0.0011026
DataValue, -0.392, -0.1, -0.0011070000000000001
DataValue, -0.38, -0.1, -0.001112
DataValue, -0.368, -0.1, -0.0011034
DataValue, -0.35600000000000004, -0.1, -0.0010936000000000001
DataValue, -0.34400000000000003, -0.1, -0.0010922
DataValue, -0.332, -0.1, -0.0010926
DataValue, -0.32, -0.1, -0.0010806
DataValue, -0.308, -0.1, -0.0010636
DataValue, -0.29600000000000004, -0.1, -0.0010594
DataValue, -0.28400000000000003, -0.1, -0.001054
DataValue, -0.272, -0.1, -0.0010304000000000001
DataValue, -0.26, -0.1, -0.0010096
DataValue, -0.248, -0.1, -0.0010190000000000002
DataValue, -0.23600000000000002, -0.1, -0.00098694000000000017
DataValue, -0.224, -0.1, -0.00096346000000000008
DataValue, -0.21200000000000002, -0.1, -0.0009282
DataValue, -0.2, -0.1, -0.00089984000000000006
DataValue, -0.188, -0.1, -0.00087538
DataValue, -0.17600000000000002, -0.1, -0.0008367
DataValue, -0.164, -0.1, -0.00079752
DataValue, -0.152, -0.1, -0.00076438
DataValue, -0.14, -0.1, -0.00072092
DataValue, -0.128, -0.1, -0.00067140000000000006
DataValue, -0.116, -0.1, -0.00062706
DataValue, -0.10400000000000001, -0.1, -0.00057754000000000008
DataValue, -0.092, -0.1, -0.00051954000000000008
DataValue, -0.08, -0.1, -0.00046318000000000005
DataValue, -0.068, -0.1, -0.00040510000000000003
DataValue, -0.056, -0.1, -0.00033956000000000004
DataValue, -0.044000000000000004, -0.1, -0.0002725
DataValue, -0.032, -0.1, -0.00020376000000000001
DataValue, -0.02, -0.1, -0.00012972
DataValue, -0.008, -0.1, -5.4158E-05
DataValue, 0.004, -0.1, 2.6218000000000002E-05
DataValue, 0.016, -0.1, 0.000108632
DataValue, 0.028, -0.1, 0.00019834
DataValue, 0.04, -0.1, 0.00028826000000000004
DataValue, 0.052000000000000005, -0.1, 0.00037768000000000003
DataValue, 0.064, -0.1, 0.00047132
DataValue, 0.076, -0.1, 0.0005716
DataValue, 0.088000000000000009, -0.1, 0.00067134000000000009
DataValue, 0.1, -0.1, 0.00077174
DataValue, 0.1, -0.2, 0.00094126000000000008
DataValue, 0.088000000000000009, -0.2, 0.00082642
DataValue, 0.076, -0.2, 0.00070828
DataValue, 0.064, -0.2, 0.00059370000000000007
DataValue, 0.052000000000000005, -0.2, 0.00047896
DataValue, 0.04, -0.2, 0.0003644
DataValue, 0.028, -0.2, 0.0002531
DataValue, 0.016, -0.2, 0.00014344
DataValue, 0.004, -0.2, 3.4312E-05
DataValue, -0.008, -0.2, -7.1096E-05
