
SetupTitle, (c1) Output curve in LGP
PrimitiveTest, I/V Sweep
TestParameter, Context.MainFrame, B1500A
TestParameter, Channel.UnitType, SMU, SMU
TestParameter, Channel.Unit, SMU1:HR/AS, SMU2:HR/AS
TestParameter, Channel.IName, Ig, Id
TestParameter, Channel.VName, Vg, Vd
TestParameter, Channel.Mode, V, V
TestParameter, Channel.Func, VAR2, VAR1
TestParameter, Channel.Index, 
TestParameter, Channel.Time, 
TestParameter, Measurement.Port.Unit, SMU1:HR/AS, SMU2:HR/AS
TestParameter, Measurement.Port.SeriesResistor, NONE, NONE
TestParameter, Measurement.Port.Filter, ON, ON
TestParameter, Measurement.Port.OutputVoltageComparison, 0, 0
TestParameter, Measurement.Primary.Locus, Double
TestParameter, Measurement.Primary.Scale, LINEAR
TestParameter, Measurement.Primary.Start, 0.1
TestParameter, Measurement.Primary.Stop, -0.5
TestParameter, Measurement.Primary.Step, -0.012
TestParameter, Measurement.Primary.Compliance, 0.1
TestParameter, Measurement.Primary.PowerCompliance, 0
TestParameter, Measurement.Aborting.Condition, CONTINUE AT ANY
TestParameter, Measurement.PostOutput.Value, START
TestParameter, Measurement.PostOutput.Retention, OFF
TestParameter, Measurement.Secondary.Start, 0.1
TestParameter, Measurement.Secondary.Count, 6
TestParameter, Measurement.Secondary.Step, -0.1
TestParameter, Measurement.Secondary.Compliance, 0.0001
TestParameter, Measurement.Secondary.PowerCompliance, 0
TestParameter, Measurement.Bias.Source, 0.1, 0.1
TestParameter, Measurement.Bias.Compliance, 0.0001, 0.1
TestParameter, Measurement.Monitor.Unit, SMU1:HR/AS, SMU2:HR/AS
TestParameter, Measurement.Monitor.Adc, HR ADC, HR ADC
TestParameter, Measurement.Monitor.Measurement, Compliance Side, Compliance Side
TestParameter, Measurement.Monitor.RangingMode, LIMITED, LIMITED
TestParameter, Measurement.Monitor.RangeBoundary, 1nA, 1nA
TestParameter, Measurement.Monitor.RangeRating, BY FULL RANGE, BY FULL RANGE
TestParameter, Measurement.Monitor.RangeRatingCoeff, 50, 50
TestParameter, Measurement.Timing.Hold, 0
TestParameter, Measurement.Timing.Delay, 0
TestParameter, Measurement.Adc.HighSpeed.Mode, AUTO
TestParameter, Measurement.Adc.HighSpeed.Coeff, 1
TestParameter, Measurement.Adc.HighResolution.AutoZero, OFF
TestParameter, Measurement.Adc.HighResolution.Mode, AUTO
TestParameter, Measurement.Adc.HighResolution.Coeff, 6
TestParameter, Measurement.WaitTime.Source.Coeff, 1
TestParameter, Measurement.WaitTime.Source.Offset, 0
TestParameter, Measurement.WaitTime.Monitor.Coeff, 1
TestParameter, Measurement.WaitTime.Monitor.Offset, 0
TestParameter, Output.Graph.Enabled, true
TestParameter, Output.Graph.AutoScaling, false
TestParameter, Output.Graph.XAxis.Data, Vd
TestParameter, Output.Graph.XAxis.Scale, Linear
TestParameter, Output.Graph.XAxis.Left, 0
TestParameter, Output.Graph.XAxis.Right, -0.5
TestParameter, Output.Graph.XAxis.RunTimeAutoScale, true
TestParameter, Output.Graph.YAxis.Data, Id
TestParameter, Output.Graph.YAxis.Scale, Linear
TestParameter, Output.Graph.YAxis.Bottom, -0.1
TestParameter, Output.Graph.YAxis.Top, 0.1
TestParameter, Output.Graph.YAxis.Group, 
TestParameter, Output.Graph.YAxis.RunTimeAutoScale, true
TestParameter, Output.List.Data, Vd, Vg, Id
TestParameter, AutoAnalysis.Interpolation, false
TestParameter, AutoAnalysis.Var2StepCount, 1
TestParameter, AutoAnalysis.Var2StepScript, 
TestParameter, AutoAnalysis.Line1.Enabled, false
TestParameter, AutoAnalysis.Line1.Type, 1
TestParameter, AutoAnalysis.Line1.Fix, True
TestParameter, AutoAnalysis.Line1.YAxis, 0
TestParameter, AutoAnalysis.Line1.Point1.Type, 0
TestParameter, AutoAnalysis.Line1.Point1.XY.X, 
TestParameter, AutoAnalysis.Line1.Point1.XY.Y, 
TestParameter, AutoAnalysis.Line1.Point1.Data.Var, 
TestParameter, AutoAnalysis.Line1.Point1.Data.Condition, 
TestParameter, AutoAnalysis.Line1.Point1.Data.Start, false
TestParameter, AutoAnalysis.Line1.Point1.Data.StartVar, 
TestParameter, AutoAnalysis.Line1.Point1.Data.StartCondition, 
TestParameter, AutoAnalysis.Line1.Point2.Type, 0
TestParameter, AutoAnalysis.Line1.Point2.XY.X, 
TestParameter, AutoAnalysis.Line1.Point2.XY.Y, 
TestParameter, AutoAnalysis.Line1.Point2.Data.Var, 
TestParameter, AutoAnalysis.Line1.Point2.Data.Condition, 
TestParameter, AutoAnalysis.Line1.Point2.Data.Start, false
TestParameter, AutoAnalysis.Line1.Point2.Data.StartVar, 
TestParameter, AutoAnalysis.Line1.Point2.Data.StartCondition, 
TestParameter, AutoAnalysis.Line1.GradientExpr, 0
TestParameter, AutoAnalysis.Line2.Enabled, false
TestParameter, AutoAnalysis.Line2.Type, 1
TestParameter, AutoAnalysis.Line2.Fix, True
TestParameter, AutoAnalysis.Line2.YAxis, 0
TestParameter, AutoAnalysis.Line2.Point1.Type, 0
TestParameter, AutoAnalysis.Line2.Point1.XY.X, 
TestParameter, AutoAnalysis.Line2.Point1.XY.Y, 
TestParameter, AutoAnalysis.Line2.Point1.Data.Var, 
TestParameter, AutoAnalysis.Line2.Point1.Data.Condition, 
TestParameter, AutoAnalysis.Line2.Point1.Data.Start, false
TestParameter, AutoAnalysis.Line2.Point1.Data.StartVar, 
TestParameter, AutoAnalysis.Line2.Point1.Data.StartCondition, 
TestParameter, AutoAnalysis.Line2.Point2.Type, 0
TestParameter, AutoAnalysis.Line2.Point2.XY.X, 
TestParameter, AutoAnalysis.Line2.Point2.XY.Y, 
TestParameter, AutoAnalysis.Line2.Point2.Data.Var, 
TestParameter, AutoAnalysis.Line2.Point2.Data.Condition, 
TestParameter, AutoAnalysis.Line2.Point2.Data.Start, false
TestParameter, AutoAnalysis.Line2.Point2.Data.StartVar, 
TestParameter, AutoAnalysis.Line2.Point2.Data.StartCondition, 
TestParameter, AutoAnalysis.Line2.GradientExpr, 0
TestParameter, AutoAnalysis.Marker.Enabled, false
TestParameter, AutoAnalysis.Marker.Data.Var, 
TestParameter, AutoAnalysis.Marker.Data.Condition, 
TestParameter, AutoAnalysis.Marker.Data.Start, false
TestParameter, AutoAnalysis.Marker.Data.StartVar, 
TestParameter, AutoAnalysis.Marker.Data.StartCondition, 
MetaData, TestRecord.EntryPoint, true
MetaData, TestRecord.RecordTime, 11/20/2024 03:13:37
MetaData, TestRecord.TestTarget, 
MetaData, TestRecord.IterationIndex, 1
MetaData, TestRecord.Preservation, true
MetaData, TestRecord.Flag, 
MetaData, TestRecord.Remarks, s20c3
MetaData, TestRecord.LinkKey, a41cbac7-3d4e-4272-9198-4ed1f1294be2
MetaData, TestRecord.Parameters, 
Dimension1, 102, 102, 102
Dimension2, 6, 6, 6
DataName, Vd, Vg, Id
DataValue, 0.1, 0.1, 8.2640000000000008E-05
DataValue, 0.088000000000000009, 0.1, 7.016E-05
DataValue, 0.076, 0.1, 6.0326000000000005E-05
DataValue, 0.064, 0.1, 4.7680000000000004E-05
DataValue, 0.052000000000000005, 0.1, 3.4592000000000004E-05
DataValue, 0.04, 0.1, 2.5528E-05
DataValue, 0.028, 0.1, 1.711E-05
DataValue, 0.016, 0.1, 8.1276000000000016E-06
DataValue, 0.004, 0.1, 2.0166000000000003E-06
DataValue, -0.008, 0.1, -3.7215000000000003E-06
DataValue, -0.02, 0.1, -8.254800000000001E-06
DataValue, -0.032, 0.1, -1.1232E-05
DataValue, -0.044000000000000004, 0.1, -1.4164E-05
DataValue, -0.056, 0.1, -1.7352E-05
DataValue, -0.068, 0.1, -2.0496E-05
DataValue, -0.08, 0.1, -2.1618000000000002E-05
DataValue, -0.092, 0.1, -2.175E-05
DataValue, -0.10400000000000001, 0.1, -2.289E-05
DataValue, -0.116, 0.1, -2.4606E-05
DataValue, -0.128, 0.1, -2.4038E-05
DataValue, -0.14, 0.1, -2.285E-05
DataValue, -0.152, 0.1, -2.4542E-05
DataValue, -0.164, 0.1, -2.515E-05
DataValue, -0.17600000000000002, 0.1, -2.269E-05
DataValue, -0.188, 0.1, -2.272E-05
DataValue, -0.2, 0.1, -2.3902000000000003E-05
DataValue, -0.21200000000000002, 0.1, -2.2508000000000002E-05
DataValue, -0.224, 0.1, -2.036E-05
DataValue, -0.23600000000000002, 0.1, -2.0668E-05
DataValue, -0.248, 0.1, -2.2218E-05
DataValue, -0.26, 0.1, -2.0926E-05
DataValue, -0.272, 0.1, -1.9280000000000002E-05
DataValue, -0.28400000000000003, 0.1, -2.0616E-05
DataValue, -0.29600000000000004, 0.1, -2.0536E-05
DataValue, -0.308, 0.1, -1.8926E-05
DataValue, -0.32, 0.1, -2.0646000000000002E-05
DataValue, -0.332, 0.1, -2.127E-05
DataValue, -0.34400000000000003, 0.1, -1.9092E-05
DataValue, -0.35600000000000004, 0.1, -1.9646E-05
DataValue, -0.368, 0.1, -2.144E-05
DataValue, -0.38, 0.1, -1.9776000000000002E-05
DataValue, -0.392, 0.1, -1.8876E-05
DataValue, -0.404, 0.1, -2.0968E-05
DataValue, -0.41600000000000004, 0.1, -2.0678E-05
DataValue, -0.42800000000000005, 0.1, -1.8746E-05
DataValue, -0.44, 0.1, -1.999E-05
DataValue, -0.452, 0.1, -2.1308E-05
DataValue, -0.464, 0.1, -1.9426E-05
DataValue, -0.47600000000000003, 0.1, -1.8832000000000002E-05
DataValue, -0.48800000000000004, 0.1, -2.0556E-05
DataValue, -0.5, 0.1, -2.1352E-05
DataValue, -0.5, 0.1, -1.9912000000000002E-05
DataValue, -0.48800000000000004, 0.1, -1.8252E-05
DataValue, -0.47600000000000003, 0.1, -1.9162E-05
DataValue, -0.464, 0.1, -2.0428E-05
DataValue, -0.452, 0.1, -1.884E-05
DataValue, -0.44, 0.1, -1.7696E-05
DataValue, -0.42800000000000005, 0.1, -1.9216E-05
DataValue, -0.41600000000000004, 0.1, -2.003E-05
DataValue, -0.404, 0.1, -1.8446E-05
DataValue, -0.392, 0.1, -1.764E-05
DataValue, -0.38, 0.1, -1.9254000000000002E-05
DataValue, -0.368, 0.1, -1.9732E-05
DataValue, -0.35600000000000004, 0.1, -1.7796E-05
DataValue, -0.34400000000000003, 0.1, -1.7518E-05
DataValue, -0.332, 0.1, -1.921E-05
DataValue, -0.32, 0.1, -1.9292E-05
DataValue, -0.308, 0.1, -1.7504E-05
DataValue, -0.29600000000000004, 0.1, -1.7466000000000002E-05
DataValue, -0.28400000000000003, 0.1, -1.9462E-05
DataValue, -0.272, 0.1, -1.8864E-05
DataValue, -0.26, 0.1, -1.7206E-05
DataValue, -0.248, 0.1, -1.7820000000000002E-05
DataValue, -0.23600000000000002, 0.1, -1.9214E-05
DataValue, -0.224, 0.1, -1.8368E-05
DataValue, -0.21200000000000002, 0.1, -1.6808E-05
DataValue, -0.2, 0.1, -1.7574E-05
DataValue, -0.188, 0.1, -1.841E-05
DataValue, -0.17600000000000002, 0.1, -1.7046E-05
DataValue, -0.164, 0.1, -1.5648E-05
DataValue, -0.152, 0.1, -1.5778E-05
DataValue, -0.14, 0.1, -1.662E-05
DataValue, -0.128, 0.1, -1.513E-05
DataValue, -0.116, 0.1, -1.5738E-05
DataValue, -0.10400000000000001, 0.1, -1.5048E-05
DataValue, -0.092, 0.1, -1.3376E-05
DataValue, -0.08, 0.1, -1.3304E-05
DataValue, -0.068, 0.1, -1.3322E-05
DataValue, -0.056, 0.1, -1.1554E-05
DataValue, -0.044000000000000004, 0.1, -1.1499800000000001E-05
DataValue, -0.032, 0.1, -9.7317E-06
DataValue, -0.02, 0.1, -6.4577000000000009E-06
DataValue, -0.008, 0.1, -2.6265E-06
DataValue, 0.004, 0.1, 1.5493000000000001E-06
DataValue, 0.016, 0.1, 6.3824000000000009E-06
DataValue, 0.028, 0.1, 1.2960000000000001E-05
DataValue, 0.04, 0.1, 1.8896E-05
DataValue, 0.052000000000000005, 0.1, 2.7728E-05
DataValue, 0.064, 0.1, 3.6428000000000004E-05
DataValue, 0.076, 0.1, 4.5022000000000004E-05
DataValue, 0.088000000000000009, 0.1, 5.8532E-05
DataValue, 0.1, 0.1, 7.2208E-05
DataValue, 0.1, 0, 0.0001834
DataValue, 0.088000000000000009, 0, 0.00015780000000000001
DataValue, 0.076, 0, 0.0001363
DataValue, 0.064, 0, 0.00010932
DataValue, 0.052000000000000005, 0, 8.2446E-05
DataValue, 0.04, 0, 6.2670000000000008E-05
DataValue, 0.028, 0, 4.0648E-05
DataValue, 0.016, 0, 2.2348E-05
DataValue, 0.004, 0, 4.9943000000000006E-06
DataValue, -0.008, 0, -1.00192E-05
DataValue, -0.02, 0, -2.3564E-05
DataValue, -0.032, 0, -3.5654E-05
DataValue, -0.044000000000000004, 0, -4.7414000000000004E-05
DataValue, -0.056, 0, -5.9352000000000004E-05
DataValue, -0.068, 0, -6.6152E-05
DataValue, -0.08, 0, -7.3098E-05
DataValue, -0.092, 0, -8.2896E-05
DataValue, -0.10400000000000001, 0, -8.7336E-05
DataValue, -0.116, 0, -8.8822E-05
DataValue, -0.128, 0, -9.5796E-05
DataValue, -0.14, 0, -0.000100522
DataValue, -0.152, 0, -9.844E-05
DataValue, -0.164, 0, -0.00010125000000000001
DataValue, -0.17600000000000002, 0, -0.00010690600000000001
DataValue, -0.188, 0, -0.000104694
DataValue, -0.2, 0, -0.000103156
DataValue, -0.21200000000000002, 0, -0.000108536
DataValue, -0.224, 0, -0.00010874200000000001
DataValue, -0.23600000000000002, 0, -0.00010460000000000001
DataValue, -0.248, 0, -0.000107026
DataValue, -0.26, 0, -0.00011162800000000001
DataValue, -0.272, 0, -0.00010885200000000001
DataValue, -0.28400000000000003, 0, -0.00010480400000000001
DataValue, -0.29600000000000004, 0, -0.000106364
DataValue, -0.308, 0, -0.000108788
DataValue, -0.32, 0, -0.00010337600000000001
DataValue, -0.332, 0, -9.802E-05
DataValue, -0.34400000000000003, 0, -0.00010233800000000001
DataValue, -0.35600000000000004, 0, -0.00010506400000000001
DataValue, -0.368, 0, -9.9714E-05
DataValue, -0.38, 0, -9.6488E-05
DataValue, -0.392, 0, -0.00010206000000000001
DataValue, -0.404, 0, -0.000104426
DataValue, -0.41600000000000004, 0, -9.7268E-05
DataValue, -0.42800000000000005, 0, -9.6738000000000008E-05
DataValue, -0.44, 0, -0.000102818
DataValue, -0.452, 0, -0.000103192
DataValue, -0.464, 0, -9.7016000000000008E-05
DataValue, -0.47600000000000003, 0, -9.7146000000000008E-05
DataValue, -0.48800000000000004, 0, -0.000104012
DataValue, -0.5, 0, -0.00010266000000000001
DataValue, -0.5, 0, -9.929E-05
DataValue, -0.48800000000000004, 0, -9.4534E-05
DataValue, -0.47600000000000003, 0, -0.000100494
DataValue, -0.464, 0, -0.00010131
DataValue, -0.452, 0, -9.4936E-05
DataValue, -0.44, 0, -9.5078E-05
DataValue, -0.42800000000000005, 0, -0.000100604
DataValue, -0.41600000000000004, 0, -9.9278000000000007E-05
DataValue, -0.404, 0, -9.293E-05
DataValue, -0.392, 0, -9.5278E-05
DataValue, -0.38, 0, -0.000101014
DataValue, -0.368, 0, -9.5998E-05
DataValue, -0.35600000000000004, 0, -9.2266E-05
DataValue, -0.34400000000000003, 0, -9.8042000000000008E-05
DataValue, -0.332, 0, -9.9784E-05
DataValue, -0.32, 0, -9.4148000000000007E-05
DataValue, -0.308, 0, -9.2392E-05
DataValue, -0.29600000000000004, 0, -9.6978E-05
DataValue, -0.28400000000000003, 0, -9.6338E-05
DataValue, -0.272, 0, -9.0054E-05
DataValue, -0.26, 0, -8.7936E-05
DataValue, -0.248, 0, -9.0406E-05
DataValue, -0.23600000000000002, 0, -9.0672E-05
DataValue, -0.224, 0, -8.5424E-05
DataValue, -0.21200000000000002, 0, -8.4258E-05
DataValue, -0.2, 0, -8.8138E-05
DataValue, -0.188, 0, -8.5176E-05
DataValue, -0.17600000000000002, 0, -8.1268000000000009E-05
DataValue, -0.164, 0, -8.2956E-05
DataValue, -0.152, 0, -8.458E-05
DataValue, -0.14, 0, -8.1516E-05
DataValue, -0.128, 0, -7.7002E-05
DataValue, -0.116, 0, -7.5412E-05
DataValue, -0.10400000000000001, 0, -7.4204E-05
DataValue, -0.092, 0, -6.8668E-05
DataValue, -0.08, 0, -6.6422000000000009E-05
DataValue, -0.068, 0, -5.7676E-05
DataValue, -0.056, 0, -4.9058000000000004E-05
DataValue, -0.044000000000000004, 0, -4.2354E-05
DataValue, -0.032, 0, -3.2712E-05
DataValue, -0.02, 0, -2.0882E-05
DataValue, -0.008, 0, -9.681000000000001E-06
DataValue, 0.004, 0, 4.5977E-06
DataValue, 0.016, 0, 2.1744E-05
DataValue, 0.028, 0, 3.8368E-05
DataValue, 0.04, 0, 5.5804E-05
DataValue, 0.052000000000000005, 0, 7.7876E-05
DataValue, 0.064, 0, 0.00010098400000000001
DataValue, 0.076, 0, 0.00013146000000000002
DataValue, 0.088000000000000009, 0, 0.00015126
DataValue, 0.1, 0, 0.00018322000000000003
DataValue, 0.1, -0.1, 0.00033914000000000004
DataValue, 0.088000000000000009, -0.1, 0.00030132
DataValue, 0.076, -0.1, 0.0002573
DataValue, 0.064, -0.1, 0.00020628
DataValue, 0.052000000000000005, -0.1, 0.00016378
DataValue, 0.04, -0.1, 0.00012452
DataValue, 0.028, -0.1, 8.0314E-05
DataValue, 0.016, -0.1, 4.614E-05
DataValue, 0.004, -0.1, 1.08E-05
DataValue, -0.008, -0.1, -2.1504E-05
DataValue, -0.02, -0.1, -5.2372E-05
DataValue, -0.032, -0.1, -8.1914E-05
DataValue, -0.044000000000000004, -0.1, -0.000106414
DataValue, -0.056, -0.1, -0.00012294
DataValue, -0.068, -0.1, -0.0001498
DataValue, -0.08, -0.1, -0.00017364
DataValue, -0.092, -0.1, -0.0001889
DataValue, -0.10400000000000001, -0.1, -0.00020344000000000002
DataValue, -0.116, -0.1, -0.0002254
DataValue, -0.128, -0.1, -0.00023482
DataValue, -0.14, -0.1, -0.00024318
DataValue, -0.152, -0.1, -0.00026142
DataValue, -0.164, -0.1, -0.00026914
DataValue, -0.17600000000000002, -0.1, -0.00026964000000000003
DataValue, -0.188, -0.1, -0.00028328
DataValue, -0.2, -0.1, -0.00029272
DataValue, -0.21200000000000002, -0.1, -0.0002883
DataValue, -0.224, -0.1, -0.00029428
DataValue, -0.23600000000000002, -0.1, -0.00030624
DataValue, -0.248, -0.1, -0.00030072000000000003
DataValue, -0.26, -0.1, -0.00029928
DataValue, -0.272, -0.1, -0.00031186
DataValue, -0.28400000000000003, -0.1, -0.00030962000000000003
DataValue, -0.29600000000000004, -0.1, -0.00030252
DataValue, -0.308, -0.1, -0.00031254000000000004
DataValue, -0.32, -0.1, -0.00031846
DataValue, -0.332, -0.1, -0.00030642
DataValue, -0.34400000000000003, -0.1, -0.00030952000000000003
DataValue, -0.35600000000000004, -0.1, -0.00031912
DataValue, -0.368, -0.1, -0.00031046000000000003
DataValue, -0.38, -0.1, -0.00030612
DataValue, -0.392, -0.1, -0.00031702
DataValue, -0.404, -0.1, -0.00030558
DataValue, -0.41600000000000004, -0.1, -0.00029746000000000004
DataValue, -0.42800000000000005, -0.1, -0.00030938
DataValue, -0.44, -0.1, -0.00030220000000000003
DataValue, -0.452, -0.1, -0.00029028
DataValue, -0.464, -0.1, -0.00030224
DataValue, -0.47600000000000003, -0.1, -0.00030528
DataValue, -0.48800000000000004, -0.1, -0.00029150000000000004
DataValue, -0.5, -0.1, -0.00029216
DataValue, -0.5, -0.1, -0.00030188000000000003
DataValue, -0.48800000000000004, -0.1, -0.00030260000000000004
DataValue, -0.47600000000000003, -0.1, -0.00028794000000000004
DataValue, -0.464, -0.1, -0.00028486
DataValue, -0.452, -0.1, -0.00029746000000000004
DataValue, -0.44, -0.1, -0.00029772
DataValue, -0.42800000000000005, -0.1, -0.00028346
DataValue, -0.41600000000000004, -0.1, -0.00028328
DataValue, -0.404, -0.1, -0.00029428
DataValue, -0.392, -0.1, -0.00029068000000000003
DataValue, -0.38, -0.1, -0.00027732
DataValue, -0.368, -0.1, -0.00027606
DataValue, -0.35600000000000004, -0.1, -0.00028298
DataValue, -0.34400000000000003, -0.1, -0.00027768000000000004
DataValue, -0.332, -0.1, -0.00026748
DataValue, -0.32, -0.1, -0.00027008
DataValue, -0.308, -0.1, -0.00027554
DataValue, -0.29600000000000004, -0.1, -0.00026848000000000003
DataValue, -0.28400000000000003, -0.1, -0.00026138
DataValue, -0.272, -0.1, -0.0002657
DataValue, -0.26, -0.1, -0.00027188
DataValue, -0.248, -0.1, -0.00026558
DataValue, -0.23600000000000002, -0.1, -0.0002574
DataValue, -0.224, -0.1, -0.00026078
DataValue, -0.21200000000000002, -0.1, -0.00026414
DataValue, -0.2, -0.1, -0.00025284
DataValue, -0.188, -0.1, -0.00024406000000000002
DataValue, -0.17600000000000002, -0.1, -0.00024638000000000004
DataValue, -0.164, -0.1, -0.00024158000000000003
DataValue, -0.152, -0.1, -0.00022710000000000002
DataValue, -0.14, -0.1, -0.00021722
DataValue, -0.128, -0.1, -0.00021258
DataValue, -0.116, -0.1, -0.00020172
DataValue, -0.10400000000000001, -0.1, -0.00018364000000000002
DataValue, -0.092, -0.1, -0.00016888000000000002
DataValue, -0.08, -0.1, -0.00015702
DataValue, -0.068, -0.1, -0.00013890000000000002
DataValue, -0.056, -0.1, -0.00011602
DataValue, -0.044000000000000004, -0.1, -0.00010113200000000001
DataValue, -0.032, -0.1, -7.3974000000000007E-05
DataValue, -0.02, -0.1, -4.6834E-05
DataValue, -0.008, -0.1, -1.989E-05
DataValue, 0.004, -0.1, 1.012E-05
DataValue, 0.016, -0.1, 4.1666000000000004E-05
DataValue, 0.028, -0.1, 7.5398E-05
DataValue, 0.04, -0.1, 0.000113978
DataValue, 0.052000000000000005, -0.1, 0.00015848000000000001
DataValue, 0.064, -0.1, 0.00019758000000000002
DataValue, 0.076, -0.1, 0.000246
DataValue, 0.088000000000000009, -0.1, 0.00028934
DataValue, 0.1, -0.1, 0.00033476000000000003
DataValue, 0.1, -0.2, 0.00052642
DataValue, 0.088000000000000009, -0.2, 0.00045638000000000005
DataValue, 0.076, -0.2, 0.00039312
DataValue, 0.064, -0.2, 0.00032808
DataValue, 0.052000000000000005, -0.2, 0.00025802
DataValue, 0.04, -0.2, 0.0001953
DataValue, 0.028, -0.2, 0.00013566
DataValue, 0.016, -0.2, 7.3326000000000009E-05
DataValue, 0.004, -0.2, 1.819E-05
DataValue, -0.008, -0.2, -3.6778E-05
DataValue, -0.02, -0.2, -8.767800000000001E-05
DataValue, -0.032, -0.2, -0.0001326
DataValue, -0.044000000000000004, -0.2, -0.00018370000000000002
DataValue, -0.056, -0.2, -0.00022856000000000002
DataValue, -0.068, -0.2, -0.0002661
DataValue, -0.08, -0.2, -0.00031074
DataValue, -0.092, -0.2, -0.00034834000000000004
