
SetupTitle, (c1) Output curve in LGP
PrimitiveTest, I/V Sweep
TestParameter, Context.MainFrame, B1500A
TestParameter, Channel.UnitType, SMU, SMU
TestParameter, Channel.Unit, SMU1:HR/AS, SMU2:HR/AS
TestParameter, Channel.IName, Ig, Id
TestParameter, Channel.VName, Vg, Vd
TestParameter, Channel.Mode, V, V
TestParameter, Channel.Func, VAR2, VAR1
TestParameter, Channel.Index, 
TestParameter, Channel.Time, 
TestParameter, Measurement.Port.Unit, SMU1:HR/AS, SMU2:HR/AS
TestParameter, Measurement.Port.SeriesResistor, NONE, NONE
TestParameter, Measurement.Port.Filter, ON, ON
TestParameter, Measurement.Port.OutputVoltageComparison, 0, 0
TestParameter, Measurement.Primary.Locus, Double
TestParameter, Measurement.Primary.Scale, LINEAR
TestParameter, Measurement.Primary.Start, 0.1
TestParameter, Measurement.Primary.Stop, -0.5
TestParameter, Measurement.Primary.Step, -0.012
TestParameter, Measurement.Primary.Compliance, 0.1
TestParameter, Measurement.Primary.PowerCompliance, 0
TestParameter, Measurement.Aborting.Condition, CONTINUE AT ANY
TestParameter, Measurement.PostOutput.Value, START
TestParameter, Measurement.PostOutput.Retention, OFF
TestParameter, Measurement.Secondary.Start, 0.1
TestParameter, Measurement.Secondary.Count, 6
TestParameter, Measurement.Secondary.Step, -0.1
TestParameter, Measurement.Secondary.Compliance, 0.0001
TestParameter, Measurement.Secondary.PowerCompliance, 0
TestParameter, Measurement.Bias.Source, 0.1, 0.1
TestParameter, Measurement.Bias.Compliance, 0.0001, 0.1
TestParameter, Measurement.Monitor.Unit, SMU1:HR/AS, SMU2:HR/AS
TestParameter, Measurement.Monitor.Adc, HR ADC, HR ADC
TestParameter, Measurement.Monitor.Measurement, Compliance Side, Compliance Side
TestParameter, Measurement.Monitor.RangingMode, LIMITED, LIMITED
TestParameter, Measurement.Monitor.RangeBoundary, 1nA, 1nA
TestParameter, Measurement.Monitor.RangeRating, BY FULL RANGE, BY FULL RANGE
TestParameter, Measurement.Monitor.RangeRatingCoeff, 50, 50
TestParameter, Measurement.Timing.Hold, 0
TestParameter, Measurement.Timing.Delay, 0
TestParameter, Measurement.Adc.HighSpeed.Mode, AUTO
TestParameter, Measurement.Adc.HighSpeed.Coeff, 1
TestParameter, Measurement.Adc.HighResolution.AutoZero, OFF
TestParameter, Measurement.Adc.HighResolution.Mode, AUTO
TestParameter, Measurement.Adc.HighResolution.Coeff, 6
TestParameter, Measurement.WaitTime.Source.Coeff, 1
TestParameter, Measurement.WaitTime.Source.Offset, 0
TestParameter, Measurement.WaitTime.Monitor.Coeff, 1
TestParameter, Measurement.WaitTime.Monitor.Offset, 0
TestParameter, Output.Graph.Enabled, true
TestParameter, Output.Graph.AutoScaling, false
TestParameter, Output.Graph.XAxis.Data, Vd
TestParameter, Output.Graph.XAxis.Scale, Linear
TestParameter, Output.Graph.XAxis.Left, 0
TestParameter, Output.Graph.XAxis.Right, -0.5
TestParameter, Output.Graph.XAxis.RunTimeAutoScale, true
TestParameter, Output.Graph.YAxis.Data, Id
TestParameter, Output.Graph.YAxis.Scale, Linear
TestParameter, Output.Graph.YAxis.Bottom, -0.1
TestParameter, Output.Graph.YAxis.Top, 0.1
TestParameter, Output.Graph.YAxis.Group, 
TestParameter, Output.Graph.YAxis.RunTimeAutoScale, true
TestParameter, Output.List.Data, Vd, Vg, Id
TestParameter, AutoAnalysis.Interpolation, false
TestParameter, AutoAnalysis.Var2StepCount, 1
TestParameter, AutoAnalysis.Var2StepScript, 
TestParameter, AutoAnalysis.Line1.Enabled, false
TestParameter, AutoAnalysis.Line1.Type, 1
TestParameter, AutoAnalysis.Line1.Fix, True
TestParameter, AutoAnalysis.Line1.YAxis, 0
TestParameter, AutoAnalysis.Line1.Point1.Type, 0
TestParameter, AutoAnalysis.Line1.Point1.XY.X, 
TestParameter, AutoAnalysis.Line1.Point1.XY.Y, 
TestParameter, AutoAnalysis.Line1.Point1.Data.Var, 
TestParameter, AutoAnalysis.Line1.Point1.Data.Condition, 
TestParameter, AutoAnalysis.Line1.Point1.Data.Start, false
TestParameter, AutoAnalysis.Line1.Point1.Data.StartVar, 
TestParameter, AutoAnalysis.Line1.Point1.Data.StartCondition, 
TestParameter, AutoAnalysis.Line1.Point2.Type, 0
TestParameter, AutoAnalysis.Line1.Point2.XY.X, 
TestParameter, AutoAnalysis.Line1.Point2.XY.Y, 
TestParameter, AutoAnalysis.Line1.Point2.Data.Var, 
TestParameter, AutoAnalysis.Line1.Point2.Data.Condition, 
TestParameter, AutoAnalysis.Line1.Point2.Data.Start, false
TestParameter, AutoAnalysis.Line1.Point2.Data.StartVar, 
TestParameter, AutoAnalysis.Line1.Point2.Data.StartCondition, 
TestParameter, AutoAnalysis.Line1.GradientExpr, 0
TestParameter, AutoAnalysis.Line2.Enabled, false
TestParameter, AutoAnalysis.Line2.Type, 1
TestParameter, AutoAnalysis.Line2.Fix, True
TestParameter, AutoAnalysis.Line2.YAxis, 0
TestParameter, AutoAnalysis.Line2.Point1.Type, 0
TestParameter, AutoAnalysis.Line2.Point1.XY.X, 
TestParameter, AutoAnalysis.Line2.Point1.XY.Y, 
TestParameter, AutoAnalysis.Line2.Point1.Data.Var, 
TestParameter, AutoAnalysis.Line2.Point1.Data.Condition, 
TestParameter, AutoAnalysis.Line2.Point1.Data.Start, false
TestParameter, AutoAnalysis.Line2.Point1.Data.StartVar, 
TestParameter, AutoAnalysis.Line2.Point1.Data.StartCondition, 
TestParameter, AutoAnalysis.Line2.Point2.Type, 0
TestParameter, AutoAnalysis.Line2.Point2.XY.X, 
TestParameter, AutoAnalysis.Line2.Point2.XY.Y, 
TestParameter, AutoAnalysis.Line2.Point2.Data.Var, 
TestParameter, AutoAnalysis.Line2.Point2.Data.Condition, 
TestParameter, AutoAnalysis.Line2.Point2.Data.Start, false
TestParameter, AutoAnalysis.Line2.Point2.Data.StartVar, 
TestParameter, AutoAnalysis.Line2.Point2.Data.StartCondition, 
TestParameter, AutoAnalysis.Line2.GradientExpr, 0
TestParameter, AutoAnalysis.Marker.Enabled, false
TestParameter, AutoAnalysis.Marker.Data.Var, 
TestParameter, AutoAnalysis.Marker.Data.Condition, 
TestParameter, AutoAnalysis.Marker.Data.Start, false
TestParameter, AutoAnalysis.Marker.Data.StartVar, 
TestParameter, AutoAnalysis.Marker.Data.StartCondition, 
MetaData, TestRecord.EntryPoint, true
MetaData, TestRecord.RecordTime, 11/20/2024 03:07:42
MetaData, TestRecord.TestTarget, 
MetaData, TestRecord.IterationIndex, 2
MetaData, TestRecord.Preservation, true
MetaData, TestRecord.Flag, 
MetaData, TestRecord.Remarks, s20c4
MetaData, TestRecord.LinkKey, eb373708-7992-4814-a3ef-be4d4022b057
MetaData, TestRecord.Parameters, 
Dimension1, 102, 102, 102
Dimension2, 6, 6, 6
DataName, Vd, Vg, Id
DataValue, 0.1, 0.1, 0.00055332
DataValue, 0.088000000000000009, 0.1, 0.00048378
DataValue, 0.076, 0.1, 0.00041586000000000005
DataValue, 0.064, 0.1, 0.00034542000000000004
DataValue, 0.052000000000000005, 0.1, 0.00027038
DataValue, 0.04, 0.1, 0.00020198000000000001
DataValue, 0.028, 0.1, 0.00013834
DataValue, 0.016, 0.1, 7.3008E-05
DataValue, 0.004, 0.1, 1.78E-05
DataValue, -0.008, 0.1, -3.537E-05
DataValue, -0.02, 0.1, -8.3682E-05
DataValue, -0.032, 0.1, -0.00011832
DataValue, -0.044000000000000004, 0.1, -0.00016276000000000002
DataValue, -0.056, 0.1, -0.00020118000000000002
DataValue, -0.068, 0.1, -0.00023292
DataValue, -0.08, 0.1, -0.00026662
DataValue, -0.092, 0.1, -0.00029528000000000003
DataValue, -0.10400000000000001, 0.1, -0.00031366
DataValue, -0.116, 0.1, -0.00033526000000000004
DataValue, -0.128, 0.1, -0.00035686
DataValue, -0.14, 0.1, -0.00036550000000000005
DataValue, -0.152, 0.1, -0.00037528
DataValue, -0.164, 0.1, -0.00039128000000000003
DataValue, -0.17600000000000002, 0.1, -0.00039528
DataValue, -0.188, 0.1, -0.0003956
DataValue, -0.2, 0.1, -0.00040714
DataValue, -0.21200000000000002, 0.1, -0.00041244000000000003
DataValue, -0.224, 0.1, -0.00040638
DataValue, -0.23600000000000002, 0.1, -0.00040902
DataValue, -0.248, 0.1, -0.00041648000000000005
DataValue, -0.26, 0.1, -0.00040978000000000005
DataValue, -0.272, 0.1, -0.00040738000000000005
DataValue, -0.28400000000000003, 0.1, -0.00041434
DataValue, -0.29600000000000004, 0.1, -0.00040206000000000004
DataValue, -0.308, 0.1, -0.00038832000000000005
DataValue, -0.32, 0.1, -0.00039126000000000005
DataValue, -0.332, 0.1, -0.00037974000000000005
DataValue, -0.34400000000000003, 0.1, -0.00036462
DataValue, -0.35600000000000004, 0.1, -0.00037106000000000004
DataValue, -0.368, 0.1, -0.00037022000000000004
DataValue, -0.38, 0.1, -0.00035564
DataValue, -0.392, 0.1, -0.00035882000000000004
DataValue, -0.404, 0.1, -0.00036724
DataValue, -0.41600000000000004, 0.1, -0.00036052
DataValue, -0.42800000000000005, 0.1, -0.00035068
DataValue, -0.44, 0.1, -0.00035946000000000003
DataValue, -0.452, 0.1, -0.00036436000000000004
DataValue, -0.464, 0.1, -0.0003511
DataValue, -0.47600000000000003, 0.1, -0.00035108000000000003
DataValue, -0.48800000000000004, 0.1, -0.00036260000000000003
DataValue, -0.5, 0.1, -0.00035748
DataValue, -0.5, 0.1, -0.00035138000000000004
DataValue, -0.48800000000000004, 0.1, -0.00034406000000000004
DataValue, -0.47600000000000003, 0.1, -0.00035268
DataValue, -0.464, 0.1, -0.00034972000000000003
DataValue, -0.452, 0.1, -0.00033804
DataValue, -0.44, 0.1, -0.00034176000000000003
DataValue, -0.42800000000000005, 0.1, -0.00034886000000000004
DataValue, -0.41600000000000004, 0.1, -0.0003388
DataValue, -0.404, 0.1, -0.00033408
DataValue, -0.392, 0.1, -0.00034250000000000003
DataValue, -0.38, 0.1, -0.00034472
DataValue, -0.368, 0.1, -0.00033406
DataValue, -0.35600000000000004, 0.1, -0.00033314
DataValue, -0.34400000000000003, 0.1, -0.00034284
DataValue, -0.332, 0.1, -0.00034058
DataValue, -0.32, 0.1, -0.0003302
DataValue, -0.308, 0.1, -0.00033166
DataValue, -0.29600000000000004, 0.1, -0.00033942
DataValue, -0.28400000000000003, 0.1, -0.00033372
DataValue, -0.272, 0.1, -0.00032202
DataValue, -0.26, 0.1, -0.00032082000000000004
DataValue, -0.248, 0.1, -0.00031896
DataValue, -0.23600000000000002, 0.1, -0.00030510000000000004
DataValue, -0.224, 0.1, -0.00029174
DataValue, -0.21200000000000002, 0.1, -0.00028884
DataValue, -0.2, 0.1, -0.00028872
DataValue, -0.188, 0.1, -0.00027874000000000003
DataValue, -0.17600000000000002, 0.1, -0.00026992
DataValue, -0.164, 0.1, -0.00027014000000000004
DataValue, -0.152, 0.1, -0.00026746
DataValue, -0.14, 0.1, -0.00025678
DataValue, -0.128, 0.1, -0.00024732000000000004
DataValue, -0.116, 0.1, -0.00024116
DataValue, -0.10400000000000001, 0.1, -0.00023078
DataValue, -0.092, 0.1, -0.00021348000000000002
DataValue, -0.08, 0.1, -0.00019528000000000001
DataValue, -0.068, 0.1, -0.00017804000000000002
DataValue, -0.056, 0.1, -0.00015584
DataValue, -0.044000000000000004, 0.1, -0.00012706000000000002
DataValue, -0.032, 0.1, -0.000103954
DataValue, -0.02, 0.1, -6.6798E-05
DataValue, -0.008, 0.1, -2.7546E-05
DataValue, 0.004, 0.1, 1.4240000000000001E-05
DataValue, 0.016, 0.1, 6.0174000000000004E-05
DataValue, 0.028, 0.1, 0.00010861200000000001
DataValue, 0.04, 0.1, 0.00017726000000000002
DataValue, 0.052000000000000005, 0.1, 0.00023306000000000002
DataValue, 0.064, 0.1, 0.00030232
DataValue, 0.076, 0.1, 0.00036596
DataValue, 0.088000000000000009, 0.1, 0.00043986000000000003
DataValue, 0.1, 0.1, 0.0005111
DataValue, 0.1, 0, 0.00083152000000000009
DataValue, 0.088000000000000009, 0, 0.00074212000000000008
DataValue, 0.076, 0, 0.00063516000000000006
DataValue, 0.064, 0, 0.0005284
DataValue, 0.052000000000000005, 0, 0.00042626000000000003
DataValue, 0.04, 0, 0.00032088
DataValue, 0.028, 0, 0.00021898000000000002
DataValue, 0.016, 0, 0.0001232
DataValue, 0.004, 0, 2.8668E-05
DataValue, -0.008, 0, -5.8618E-05
DataValue, -0.02, 0, -0.0001373
DataValue, -0.032, 0, -0.00021846000000000002
DataValue, -0.044000000000000004, 0, -0.00029258
DataValue, -0.056, 0, -0.00036642
DataValue, -0.068, 0, -0.00043706
DataValue, -0.08, 0, -0.00049610000000000008
DataValue, -0.092, 0, -0.00055496000000000007
DataValue, -0.10400000000000001, 0, -0.00061524000000000008
DataValue, -0.116, 0, -0.00066188
DataValue, -0.128, 0, -0.00070522
DataValue, -0.14, 0, -0.00075262000000000007
DataValue, -0.152, 0, -0.00079154000000000008
DataValue, -0.164, 0, -0.00081594
DataValue, -0.17600000000000002, 0, -0.00085096000000000011
DataValue, -0.188, 0, -0.00088446000000000011
DataValue, -0.2, 0, -0.00089722
DataValue, -0.21200000000000002, 0, -0.00091762000000000007
DataValue, -0.224, 0, -0.0009466600000000001
DataValue, -0.23600000000000002, 0, -0.00095386000000000006
DataValue, -0.248, 0, -0.00096022
DataValue, -0.26, 0, -0.00098358
DataValue, -0.272, 0, -0.00099174
DataValue, -0.28400000000000003, 0, -0.00098606
DataValue, -0.29600000000000004, 0, -0.00100128
DataValue, -0.308, 0, -0.00101256
DataValue, -0.32, 0, -0.0010028
DataValue, -0.332, 0, -0.0010087400000000002
DataValue, -0.34400000000000003, 0, -0.0010234200000000002
DataValue, -0.35600000000000004, 0, -0.0010098800000000001
DataValue, -0.368, 0, -0.00100554
DataValue, -0.38, 0, -0.0010177
DataValue, -0.392, 0, -0.0010006000000000001
DataValue, -0.404, 0, -0.00097232
DataValue, -0.41600000000000004, 0, -0.00098092000000000014
DataValue, -0.42800000000000005, 0, -0.0009715800000000001
DataValue, -0.44, 0, -0.00094294000000000008
DataValue, -0.452, 0, -0.00095016
DataValue, -0.464, 0, -0.00096262000000000008
DataValue, -0.47600000000000003, 0, -0.00094284
DataValue, -0.48800000000000004, 0, -0.00093038000000000007
DataValue, -0.5, 0, -0.00094670000000000008
DataValue, -0.5, 0, -0.00095360000000000009
DataValue, -0.48800000000000004, 0, -0.00093064
DataValue, -0.47600000000000003, 0, -0.00091164
DataValue, -0.464, 0, -0.00092982
DataValue, -0.452, 0, -0.00092658000000000009
DataValue, -0.44, 0, -0.00090404
DataValue, -0.42800000000000005, 0, -0.00091704
DataValue, -0.41600000000000004, 0, -0.00092634000000000011
DataValue, -0.404, 0, -0.00090224
DataValue, -0.392, 0, -0.00090098
DataValue, -0.38, 0, -0.0009131
DataValue, -0.368, 0, -0.00088968
DataValue, -0.35600000000000004, 0, -0.0008675200000000001
DataValue, -0.34400000000000003, 0, -0.00086208000000000009
DataValue, -0.332, 0, -0.00085214
DataValue, -0.32, 0, -0.00083110000000000009
DataValue, -0.308, 0, -0.00082916
DataValue, -0.29600000000000004, 0, -0.00083188
DataValue, -0.28400000000000003, 0, -0.00081578
DataValue, -0.272, 0, -0.00080790000000000007
DataValue, -0.26, 0, -0.00081334000000000007
DataValue, -0.248, 0, -0.00080124
DataValue, -0.23600000000000002, 0, -0.00078444000000000007
DataValue, -0.224, 0, -0.00078484000000000008
DataValue, -0.21200000000000002, 0, -0.00077408
DataValue, -0.2, 0, -0.0007492
DataValue, -0.188, 0, -0.0007378
DataValue, -0.17600000000000002, 0, -0.00072362
DataValue, -0.164, 0, -0.00069152
DataValue, -0.152, 0, -0.000665
DataValue, -0.14, 0, -0.00064328000000000009
DataValue, -0.128, 0, -0.00060514
DataValue, -0.116, 0, -0.00056448
DataValue, -0.10400000000000001, 0, -0.0005301
DataValue, -0.092, 0, -0.00048462
DataValue, -0.08, 0, -0.00043142
DataValue, -0.068, 0, -0.00038172
DataValue, -0.056, 0, -0.00032636000000000004
DataValue, -0.044000000000000004, 0, -0.00026210000000000003
DataValue, -0.032, 0, -0.00019696
DataValue, -0.02, 0, -0.00012812
DataValue, -0.008, 0, -5.3768000000000004E-05
DataValue, 0.004, 0, 2.6822000000000002E-05
DataValue, 0.016, 0, 0.000111044
DataValue, 0.028, 0, 0.00020914000000000002
DataValue, 0.04, 0, 0.00030010000000000003
DataValue, 0.052000000000000005, 0, 0.00039902000000000004
DataValue, 0.064, 0, 0.00049974
DataValue, 0.076, 0, 0.00060164000000000007
DataValue, 0.088000000000000009, 0, 0.0007154
DataValue, 0.1, 0, 0.00083382000000000009
DataValue, 0.1, -0.1, 0.0011332
DataValue, 0.088000000000000009, -0.1, 0.0010122
DataValue, 0.076, -0.1, 0.00086764
DataValue, 0.064, -0.1, 0.0007310000000000001
DataValue, 0.052000000000000005, -0.1, 0.00059
DataValue, 0.04, -0.1, 0.00044726000000000005
DataValue, 0.028, -0.1, 0.00030996
DataValue, 0.016, -0.1, 0.00017548000000000002
DataValue, 0.004, -0.1, 4.1082000000000004E-05
DataValue, -0.008, -0.1, -8.4846000000000007E-05
DataValue, -0.02, -0.1, -0.00020444000000000002
DataValue, -0.032, -0.1, -0.00032602
DataValue, -0.044000000000000004, -0.1, -0.00044092000000000003
DataValue, -0.056, -0.1, -0.00055376
DataValue, -0.068, -0.1, -0.00066632000000000008
DataValue, -0.08, -0.1, -0.00076810000000000008
DataValue, -0.092, -0.1, -0.00086534
DataValue, -0.10400000000000001, -0.1, -0.00096398
DataValue, -0.116, -0.1, -0.0010581800000000001
DataValue, -0.128, -0.1, -0.00114036
DataValue, -0.14, -0.1, -0.0011806
DataValue, -0.152, -0.1, -0.0012666
DataValue, -0.164, -0.1, -0.0013406
DataValue, -0.17600000000000002, -0.1, -0.0014190000000000001
DataValue, -0.188, -0.1, -0.0014946
DataValue, -0.2, -0.1, -0.0015528
DataValue, -0.21200000000000002, -0.1, -0.0016022
DataValue, -0.224, -0.1, -0.00166
DataValue, -0.23600000000000002, -0.1, -0.0017178
DataValue, -0.248, -0.1, -0.0017526
DataValue, -0.26, -0.1, -0.0017798
DataValue, -0.272, -0.1, -0.001828
DataValue, -0.28400000000000003, -0.1, -0.0018678
DataValue, -0.29600000000000004, -0.1, -0.0018788000000000001
DataValue, -0.308, -0.1, -0.0018976
DataValue, -0.32, -0.1, -0.0019352
DataValue, -0.332, -0.1, -0.001954
DataValue, -0.34400000000000003, -0.1, -0.0019554
DataValue, -0.35600000000000004, -0.1, -0.0019676
DataValue, -0.368, -0.1, -0.0019946
DataValue, -0.38, -0.1, -0.0020052
DataValue, -0.392, -0.1, -0.0019962
DataValue, -0.404, -0.1, -0.002
DataValue, -0.41600000000000004, -0.1, -0.0019754
DataValue, -0.42800000000000005, -0.1, -0.001979
DataValue, -0.44, -0.1, -0.00201
DataValue, -0.452, -0.1, -0.0020118000000000002
DataValue, -0.464, -0.1, -0.0019968
DataValue, -0.47600000000000003, -0.1, -0.0020156
DataValue, -0.48800000000000004, -0.1, -0.0020214
DataValue, -0.5, -0.1, -0.0019906
DataValue, -0.5, -0.1, -0.00197
DataValue, -0.48800000000000004, -0.1, -0.001922
DataValue, -0.47600000000000003, -0.1, -0.00188
DataValue, -0.464, -0.1, -0.0018238
DataValue, -0.452, -0.1, -0.0017896000000000001
DataValue, -0.44, -0.1, -0.0017858
DataValue, -0.42800000000000005, -0.1, -0.0017734
DataValue, -0.41600000000000004, -0.1, -0.0017426
DataValue, -0.404, -0.1, -0.0017268000000000001
DataValue, -0.392, -0.1, -0.0017332
DataValue, -0.38, -0.1, -0.0017352000000000001
DataValue, -0.368, -0.1, -0.0017128
DataValue, -0.35600000000000004, -0.1, -0.0017188
DataValue, -0.34400000000000003, -0.1, -0.0017130000000000001
DataValue, -0.332, -0.1, -0.0016826
DataValue, -0.32, -0.1, -0.0016764
DataValue, -0.308, -0.1, -0.0016736000000000001
DataValue, -0.29600000000000004, -0.1, -0.0016388
DataValue, -0.28400000000000003, -0.1, -0.0016150000000000001
DataValue, -0.272, -0.1, -0.0016058000000000001
DataValue, -0.26, -0.1, -0.0015754
DataValue, -0.248, -0.1, -0.0015286
DataValue, -0.23600000000000002, -0.1, -0.001507
DataValue, -0.224, -0.1, -0.001474
DataValue, -0.21200000000000002, -0.1, -0.0014198
DataValue, -0.2, -0.1, -0.0013786
DataValue, -0.188, -0.1, -0.0013386000000000001
DataValue, -0.17600000000000002, -0.1, -0.0012758000000000001
DataValue, -0.164, -0.1, -0.001216
DataValue, -0.152, -0.1, -0.0011644000000000001
DataValue, -0.14, -0.1, -0.0010956
DataValue, -0.128, -0.1, -0.0010224
DataValue, -0.116, -0.1, -0.0009711600000000001
DataValue, -0.10400000000000001, -0.1, -0.0008775
DataValue, -0.092, -0.1, -0.0007917200000000001
DataValue, -0.08, -0.1, -0.00070584
DataValue, -0.068, -0.1, -0.00060774000000000006
DataValue, -0.056, -0.1, -0.00050874
DataValue, -0.044000000000000004, -0.1, -0.00041136000000000005
DataValue, -0.032, -0.1, -0.00030494
DataValue, -0.02, -0.1, -0.00019382
DataValue, -0.008, -0.1, -8.0708E-05
DataValue, 0.004, -0.1, 3.8772E-05
DataValue, 0.016, -0.1, 0.00016798
DataValue, 0.028, -0.1, 0.00029688
DataValue, 0.04, -0.1, 0.00042938000000000004
DataValue, 0.052000000000000005, -0.1, 0.00056244
DataValue, 0.064, -0.1, 0.00070032
DataValue, 0.076, -0.1, 0.00084512000000000009
DataValue, 0.088000000000000009, -0.1, 0.00099346
DataValue, 0.1, -0.1, 0.00113826
DataValue, 0.1, -0.2, 0.0013116
DataValue, 0.088000000000000009, -0.2, 0.0011794
DataValue, 0.076, -0.2, 0.00103
DataValue, 0.064, -0.2, 0.00086766
DataValue, 0.052000000000000005, -0.2, 0.0007062
DataValue, 0.04, -0.2, 0.00054050000000000007
DataValue, 0.028, -0.2, 0.00037548000000000003
DataValue, 0.016, -0.2, 0.00021370000000000002
DataValue, 0.004, -0.2, 5.0142E-05
