
SetupTitle, (c1) Output curve in LGP
PrimitiveTest, I/V Sweep
TestParameter, Context.MainFrame, B1500A
TestParameter, Channel.UnitType, SMU, SMU
TestParameter, Channel.Unit, SMU1:HR/AS, SMU2:HR/AS
TestParameter, Channel.IName, Ig, Id
TestParameter, Channel.VName, Vg, Vd
TestParameter, Channel.Mode, V, V
TestParameter, Channel.Func, VAR2, VAR1
TestParameter, Channel.Index, 
TestParameter, Channel.Time, 
TestParameter, Measurement.Port.Unit, SMU1:HR/AS, SMU2:HR/AS
TestParameter, Measurement.Port.SeriesResistor, NONE, NONE
TestParameter, Measurement.Port.Filter, ON, ON
TestParameter, Measurement.Port.OutputVoltageComparison, 0, 0
TestParameter, Measurement.Primary.Locus, Double
TestParameter, Measurement.Primary.Scale, LINEAR
TestParameter, Measurement.Primary.Start, 0.1
TestParameter, Measurement.Primary.Stop, -0.5
TestParameter, Measurement.Primary.Step, -0.012
TestParameter, Measurement.Primary.Compliance, 0.1
TestParameter, Measurement.Primary.PowerCompliance, 0
TestParameter, Measurement.Aborting.Condition, CONTINUE AT ANY
TestParameter, Measurement.PostOutput.Value, START
TestParameter, Measurement.PostOutput.Retention, OFF
TestParameter, Measurement.Secondary.Start, 0.1
TestParameter, Measurement.Secondary.Count, 6
TestParameter, Measurement.Secondary.Step, -0.1
TestParameter, Measurement.Secondary.Compliance, 0.0001
TestParameter, Measurement.Secondary.PowerCompliance, 0
TestParameter, Measurement.Bias.Source, 0.1, 0.1
TestParameter, Measurement.Bias.Compliance, 0.0001, 0.1
TestParameter, Measurement.Monitor.Unit, SMU1:HR/AS, SMU2:HR/AS
TestParameter, Measurement.Monitor.Adc, HR ADC, HR ADC
TestParameter, Measurement.Monitor.Measurement, Compliance Side, Compliance Side
TestParameter, Measurement.Monitor.RangingMode, LIMITED, LIMITED
TestParameter, Measurement.Monitor.RangeBoundary, 1nA, 1nA
TestParameter, Measurement.Monitor.RangeRating, BY FULL RANGE, BY FULL RANGE
TestParameter, Measurement.Monitor.RangeRatingCoeff, 50, 50
TestParameter, Measurement.Timing.Hold, 0
TestParameter, Measurement.Timing.Delay, 0
TestParameter, Measurement.Adc.HighSpeed.Mode, AUTO
TestParameter, Measurement.Adc.HighSpeed.Coeff, 1
TestParameter, Measurement.Adc.HighResolution.AutoZero, OFF
TestParameter, Measurement.Adc.HighResolution.Mode, AUTO
TestParameter, Measurement.Adc.HighResolution.Coeff, 6
TestParameter, Measurement.WaitTime.Source.Coeff, 1
TestParameter, Measurement.WaitTime.Source.Offset, 0
TestParameter, Measurement.WaitTime.Monitor.Coeff, 1
TestParameter, Measurement.WaitTime.Monitor.Offset, 0
TestParameter, Output.Graph.Enabled, true
TestParameter, Output.Graph.AutoScaling, false
TestParameter, Output.Graph.XAxis.Data, Vd
TestParameter, Output.Graph.XAxis.Scale, Linear
TestParameter, Output.Graph.XAxis.Left, 0
TestParameter, Output.Graph.XAxis.Right, -0.5
TestParameter, Output.Graph.XAxis.RunTimeAutoScale, true
TestParameter, Output.Graph.YAxis.Data, Id
TestParameter, Output.Graph.YAxis.Scale, Linear
TestParameter, Output.Graph.YAxis.Bottom, -0.1
TestParameter, Output.Graph.YAxis.Top, 0.1
TestParameter, Output.Graph.YAxis.Group, 
TestParameter, Output.Graph.YAxis.RunTimeAutoScale, true
TestParameter, Output.List.Data, Vd, Vg, Id
TestParameter, AutoAnalysis.Interpolation, false
TestParameter, AutoAnalysis.Var2StepCount, 1
TestParameter, AutoAnalysis.Var2StepScript, 
TestParameter, AutoAnalysis.Line1.Enabled, false
TestParameter, AutoAnalysis.Line1.Type, 1
TestParameter, AutoAnalysis.Line1.Fix, True
TestParameter, AutoAnalysis.Line1.YAxis, 0
TestParameter, AutoAnalysis.Line1.Point1.Type, 0
TestParameter, AutoAnalysis.Line1.Point1.XY.X, 
TestParameter, AutoAnalysis.Line1.Point1.XY.Y, 
TestParameter, AutoAnalysis.Line1.Point1.Data.Var, 
TestParameter, AutoAnalysis.Line1.Point1.Data.Condition, 
TestParameter, AutoAnalysis.Line1.Point1.Data.Start, false
TestParameter, AutoAnalysis.Line1.Point1.Data.StartVar, 
TestParameter, AutoAnalysis.Line1.Point1.Data.StartCondition, 
TestParameter, AutoAnalysis.Line1.Point2.Type, 0
TestParameter, AutoAnalysis.Line1.Point2.XY.X, 
TestParameter, AutoAnalysis.Line1.Point2.XY.Y, 
TestParameter, AutoAnalysis.Line1.Point2.Data.Var, 
TestParameter, AutoAnalysis.Line1.Point2.Data.Condition, 
TestParameter, AutoAnalysis.Line1.Point2.Data.Start, false
TestParameter, AutoAnalysis.Line1.Point2.Data.StartVar, 
TestParameter, AutoAnalysis.Line1.Point2.Data.StartCondition, 
TestParameter, AutoAnalysis.Line1.GradientExpr, 0
TestParameter, AutoAnalysis.Line2.Enabled, false
TestParameter, AutoAnalysis.Line2.Type, 1
TestParameter, AutoAnalysis.Line2.Fix, True
TestParameter, AutoAnalysis.Line2.YAxis, 0
TestParameter, AutoAnalysis.Line2.Point1.Type, 0
TestParameter, AutoAnalysis.Line2.Point1.XY.X, 
TestParameter, AutoAnalysis.Line2.Point1.XY.Y, 
TestParameter, AutoAnalysis.Line2.Point1.Data.Var, 
TestParameter, AutoAnalysis.Line2.Point1.Data.Condition, 
TestParameter, AutoAnalysis.Line2.Point1.Data.Start, false
TestParameter, AutoAnalysis.Line2.Point1.Data.StartVar, 
TestParameter, AutoAnalysis.Line2.Point1.Data.StartCondition, 
TestParameter, AutoAnalysis.Line2.Point2.Type, 0
TestParameter, AutoAnalysis.Line2.Point2.XY.X, 
TestParameter, AutoAnalysis.Line2.Point2.XY.Y, 
TestParameter, AutoAnalysis.Line2.Point2.Data.Var, 
TestParameter, AutoAnalysis.Line2.Point2.Data.Condition, 
TestParameter, AutoAnalysis.Line2.Point2.Data.Start, false
TestParameter, AutoAnalysis.Line2.Point2.Data.StartVar, 
TestParameter, AutoAnalysis.Line2.Point2.Data.StartCondition, 
TestParameter, AutoAnalysis.Line2.GradientExpr, 0
TestParameter, AutoAnalysis.Marker.Enabled, false
TestParameter, AutoAnalysis.Marker.Data.Var, 
TestParameter, AutoAnalysis.Marker.Data.Condition, 
TestParameter, AutoAnalysis.Marker.Data.Start, false
TestParameter, AutoAnalysis.Marker.Data.StartVar, 
TestParameter, AutoAnalysis.Marker.Data.StartCondition, 
MetaData, TestRecord.EntryPoint, true
MetaData, TestRecord.RecordTime, 11/20/2024 03:12:24
MetaData, TestRecord.TestTarget, 
MetaData, TestRecord.IterationIndex, 2
MetaData, TestRecord.Preservation, true
MetaData, TestRecord.Flag, 
MetaData, TestRecord.Remarks, s20c2
MetaData, TestRecord.LinkKey, 254fa603-740e-4353-b701-9c00e3551114
MetaData, TestRecord.Parameters, 
Dimension1, 102, 102, 102
Dimension2, 6, 6, 6
DataName, Vd, Vg, Id
DataValue, 0.1, 0.1, 0.00010165
DataValue, 0.088000000000000009, 0.1, 8.7954E-05
DataValue, 0.076, 0.1, 6.969E-05
DataValue, 0.064, 0.1, 5.6344E-05
DataValue, 0.052000000000000005, 0.1, 4.398E-05
DataValue, 0.04, 0.1, 3.0266E-05
DataValue, 0.028, 0.1, 1.9508E-05
DataValue, 0.016, 0.1, 1.0764E-05
DataValue, 0.004, 0.1, 2.1382E-06
DataValue, -0.008, 0.1, -4.3981E-06
DataValue, -0.02, 0.1, -9.9181E-06
DataValue, -0.032, 0.1, -1.273E-05
DataValue, -0.044000000000000004, 0.1, -1.7480000000000002E-05
DataValue, -0.056, 0.1, -1.968E-05
DataValue, -0.068, 0.1, -2.1796E-05
DataValue, -0.08, 0.1, -2.4604E-05
DataValue, -0.092, 0.1, -2.5168E-05
DataValue, -0.10400000000000001, 0.1, -2.4696000000000002E-05
DataValue, -0.116, 0.1, -2.6222E-05
DataValue, -0.128, 0.1, -2.711E-05
DataValue, -0.14, 0.1, -2.5640000000000002E-05
DataValue, -0.152, 0.1, -2.5926000000000002E-05
DataValue, -0.164, 0.1, -2.7374000000000003E-05
DataValue, -0.17600000000000002, 0.1, -2.6386E-05
DataValue, -0.188, 0.1, -2.5392E-05
DataValue, -0.2, 0.1, -2.6286000000000002E-05
DataValue, -0.21200000000000002, 0.1, -2.4886000000000002E-05
DataValue, -0.224, 0.1, -2.224E-05
DataValue, -0.23600000000000002, 0.1, -2.3128E-05
DataValue, -0.248, 0.1, -2.3738000000000002E-05
DataValue, -0.26, 0.1, -2.16E-05
DataValue, -0.272, 0.1, -2.1340000000000002E-05
DataValue, -0.28400000000000003, 0.1, -2.319E-05
DataValue, -0.29600000000000004, 0.1, -2.238E-05
DataValue, -0.308, 0.1, -2.0756E-05
DataValue, -0.32, 0.1, -2.2592E-05
DataValue, -0.332, 0.1, -2.2614E-05
DataValue, -0.34400000000000003, 0.1, -2.0616E-05
DataValue, -0.35600000000000004, 0.1, -2.1548E-05
DataValue, -0.368, 0.1, -2.2904E-05
DataValue, -0.38, 0.1, -2.1168E-05
DataValue, -0.392, 0.1, -2.0660000000000002E-05
DataValue, -0.404, 0.1, -2.2556000000000002E-05
DataValue, -0.41600000000000004, 0.1, -2.1982E-05
DataValue, -0.42800000000000005, 0.1, -2.0354000000000002E-05
DataValue, -0.44, 0.1, -2.173E-05
DataValue, -0.452, 0.1, -2.2634E-05
DataValue, -0.464, 0.1, -2.0572000000000002E-05
DataValue, -0.47600000000000003, 0.1, -2.0974E-05
DataValue, -0.48800000000000004, 0.1, -2.2626E-05
DataValue, -0.5, 0.1, -2.1624E-05
DataValue, -0.5, 0.1, -2.0678E-05
DataValue, -0.48800000000000004, 0.1, -2.0008000000000002E-05
DataValue, -0.47600000000000003, 0.1, -2.1682E-05
DataValue, -0.464, 0.1, -2.105E-05
DataValue, -0.452, 0.1, -1.9322000000000002E-05
DataValue, -0.44, 0.1, -1.9936E-05
DataValue, -0.42800000000000005, 0.1, -2.1162E-05
DataValue, -0.41600000000000004, 0.1, -2.0154E-05
DataValue, -0.404, 0.1, -1.8754E-05
DataValue, -0.392, 0.1, -1.9782E-05
DataValue, -0.38, 0.1, -2.0818E-05
DataValue, -0.368, 0.1, -1.9372E-05
DataValue, -0.35600000000000004, 0.1, -1.8474E-05
DataValue, -0.34400000000000003, 0.1, -1.9644E-05
DataValue, -0.332, 0.1, -2.0478E-05
DataValue, -0.32, 0.1, -1.8942E-05
DataValue, -0.308, 0.1, -1.829E-05
DataValue, -0.29600000000000004, 0.1, -2.0002E-05
DataValue, -0.28400000000000003, 0.1, -2.0116000000000002E-05
DataValue, -0.272, 0.1, -1.8506000000000002E-05
DataValue, -0.26, 0.1, -1.8374E-05
DataValue, -0.248, 0.1, -1.9808E-05
DataValue, -0.23600000000000002, 0.1, -1.9716000000000002E-05
DataValue, -0.224, 0.1, -1.7984E-05
DataValue, -0.21200000000000002, 0.1, -1.8206E-05
DataValue, -0.2, 0.1, -1.9398E-05
DataValue, -0.188, 0.1, -1.8702E-05
DataValue, -0.17600000000000002, 0.1, -1.7154000000000002E-05
DataValue, -0.164, 0.1, -1.6994E-05
DataValue, -0.152, 0.1, -1.7618E-05
DataValue, -0.14, 0.1, -1.6568E-05
DataValue, -0.128, 0.1, -1.5302E-05
DataValue, -0.116, 0.1, -1.5694E-05
DataValue, -0.10400000000000001, 0.1, -1.5812E-05
DataValue, -0.092, 0.1, -1.4672000000000001E-05
DataValue, -0.08, 0.1, -1.3616E-05
DataValue, -0.068, 0.1, -1.329E-05
DataValue, -0.056, 0.1, -1.2714E-05
DataValue, -0.044000000000000004, 0.1, -1.0928000000000001E-05
DataValue, -0.032, 0.1, -9.7276000000000015E-06
DataValue, -0.02, 0.1, -6.6073E-06
DataValue, -0.008, 0.1, -2.7809000000000003E-06
DataValue, 0.004, 0.1, 1.6652000000000002E-06
DataValue, 0.016, 0.1, 7.0393000000000005E-06
DataValue, 0.028, 0.1, 1.4534E-05
DataValue, 0.04, 0.1, 2.2420000000000002E-05
DataValue, 0.052000000000000005, 0.1, 3.0930000000000004E-05
DataValue, 0.064, 0.1, 3.9408E-05
DataValue, 0.076, 0.1, 5.2116E-05
DataValue, 0.088000000000000009, 0.1, 6.6908E-05
DataValue, 0.1, 0.1, 8.0390000000000008E-05
DataValue, 0.1, 0, 0.00021490000000000002
DataValue, 0.088000000000000009, 0, 0.00018704
DataValue, 0.076, 0, 0.00015276000000000002
DataValue, 0.064, 0, 0.00012594
DataValue, 0.052000000000000005, 0, 9.946E-05
DataValue, 0.04, 0, 6.9194E-05
DataValue, 0.028, 0, 4.8526E-05
DataValue, 0.016, 0, 2.5972E-05
DataValue, 0.004, 0, 6.0541E-06
DataValue, -0.008, 0, -1.1124E-05
DataValue, -0.02, 0, -2.7948E-05
DataValue, -0.032, 0, -4.2954E-05
DataValue, -0.044000000000000004, 0, -5.4276E-05
DataValue, -0.056, 0, -6.7532E-05
DataValue, -0.068, 0, -7.8482E-05
DataValue, -0.08, 0, -8.4298E-05
DataValue, -0.092, 0, -9.2318E-05
DataValue, -0.10400000000000001, 0, -0.000101434
DataValue, -0.116, 0, -0.000103706
DataValue, -0.128, 0, -0.000106066
DataValue, -0.14, 0, -0.000113436
DataValue, -0.152, 0, -0.00010698000000000001
DataValue, -0.164, 0, -0.00011052
DataValue, -0.17600000000000002, 0, -0.00011154
DataValue, -0.188, 0, -0.00011828000000000001
DataValue, -0.2, 0, -0.00011870000000000001
DataValue, -0.21200000000000002, 0, -0.00011548000000000001
DataValue, -0.224, 0, -0.00011994000000000001
DataValue, -0.23600000000000002, 0, -0.00012206000000000001
DataValue, -0.248, 0, -0.00011648000000000001
DataValue, -0.26, 0, -0.00011982
DataValue, -0.272, 0, -0.00012282000000000002
DataValue, -0.28400000000000003, 0, -0.00011702
DataValue, -0.29600000000000004, 0, -0.00011652
DataValue, -0.308, 0, -0.00012
DataValue, -0.32, 0, -0.00011338
DataValue, -0.332, 0, -0.00011074
DataValue, -0.34400000000000003, 0, -0.00011692000000000001
DataValue, -0.35600000000000004, 0, -0.00011370000000000001
DataValue, -0.368, 0, -0.0001089
DataValue, -0.38, 0, -0.0001149
DataValue, -0.392, 0, -0.00011558
DataValue, -0.404, 0, -0.00010896
DataValue, -0.41600000000000004, 0, -0.00011276000000000001
DataValue, -0.42800000000000005, 0, -0.00011682000000000001
DataValue, -0.44, 0, -0.00011018
DataValue, -0.452, 0, -0.00011088000000000001
DataValue, -0.464, 0, -0.00011718000000000001
DataValue, -0.47600000000000003, 0, -0.00011234000000000001
DataValue, -0.48800000000000004, 0, -0.00010948
DataValue, -0.5, 0, -0.00011624000000000001
DataValue, -0.5, 0, -0.00011678
DataValue, -0.48800000000000004, 0, -0.00010874
DataValue, -0.47600000000000003, 0, -0.00010866
DataValue, -0.464, 0, -0.00011422
DataValue, -0.452, 0, -0.00010932
DataValue, -0.44, 0, -0.00010584
DataValue, -0.42800000000000005, 0, -0.00011208000000000001
DataValue, -0.41600000000000004, 0, -0.00011086
DataValue, -0.404, 0, -0.00010498
DataValue, -0.392, 0, -0.00010926000000000001
DataValue, -0.38, 0, -0.0001123
DataValue, -0.368, 0, -0.0001056
DataValue, -0.35600000000000004, 0, -0.00010676
DataValue, -0.34400000000000003, 0, -0.00011222
DataValue, -0.332, 0, -0.00010716000000000001
DataValue, -0.32, 0, -0.0001043
DataValue, -0.308, 0, -0.00011018
DataValue, -0.29600000000000004, 0, -0.00010822
DataValue, -0.28400000000000003, 0, -0.00010238
DataValue, -0.272, 0, -0.00010396
DataValue, -0.26, 0, -0.00010542
DataValue, -0.248, 0, -0.000104104
DataValue, -0.23600000000000002, 0, -0.000104752
DataValue, -0.224, 0, -0.000100686
DataValue, -0.21200000000000002, 0, -9.631E-05
DataValue, -0.2, 0, -9.8706E-05
DataValue, -0.188, 0, -9.8742E-05
DataValue, -0.17600000000000002, 0, -9.4056000000000009E-05
DataValue, -0.164, 0, -9.4172E-05
DataValue, -0.152, 0, -9.6202E-05
DataValue, -0.14, 0, -9.1612E-05
DataValue, -0.128, 0, -8.7588E-05
DataValue, -0.116, 0, -8.8048000000000008E-05
DataValue, -0.10400000000000001, 0, -8.3782E-05
DataValue, -0.092, 0, -7.622E-05
DataValue, -0.08, 0, -7.1946E-05
DataValue, -0.068, 0, -6.646E-05
DataValue, -0.056, 0, -5.733E-05
DataValue, -0.044000000000000004, 0, -4.7068000000000004E-05
DataValue, -0.032, 0, -3.7548E-05
DataValue, -0.02, 0, -2.478E-05
DataValue, -0.008, 0, -1.0292E-05
DataValue, 0.004, 0, 5.6465000000000009E-06
DataValue, 0.016, 0, 2.4434E-05
DataValue, 0.028, 0, 4.5446000000000005E-05
DataValue, 0.04, 0, 6.5884000000000008E-05
DataValue, 0.052000000000000005, 0, 8.8138E-05
DataValue, 0.064, 0, 0.00011982
DataValue, 0.076, 0, 0.00014900000000000002
DataValue, 0.088000000000000009, 0, 0.0001786
DataValue, 0.1, 0, 0.00020712
DataValue, 0.1, -0.1, 0.0003951
DataValue, 0.088000000000000009, -0.1, 0.00034592
DataValue, 0.076, -0.1, 0.00028842
DataValue, 0.064, -0.1, 0.00023792000000000003
DataValue, 0.052000000000000005, -0.1, 0.00019094
DataValue, 0.04, -0.1, 0.0001398
DataValue, 0.028, -0.1, 9.3996E-05
DataValue, 0.016, -0.1, 5.2784E-05
DataValue, 0.004, -0.1, 1.2280000000000001E-05
DataValue, -0.008, -0.1, -2.4944E-05
DataValue, -0.02, -0.1, -6.1000000000000006E-05
DataValue, -0.032, -0.1, -9.4096E-05
DataValue, -0.044000000000000004, -0.1, -0.00011792000000000001
DataValue, -0.056, -0.1, -0.00014596000000000002
DataValue, -0.068, -0.1, -0.00017494
DataValue, -0.08, -0.1, -0.00020114000000000002
DataValue, -0.092, -0.1, -0.0002191
DataValue, -0.10400000000000001, -0.1, -0.0002367
DataValue, -0.116, -0.1, -0.00025990000000000003
DataValue, -0.128, -0.1, -0.00027504
DataValue, -0.14, -0.1, -0.00028258
DataValue, -0.152, -0.1, -0.00029752
DataValue, -0.164, -0.1, -0.00031446
DataValue, -0.17600000000000002, -0.1, -0.00031364
DataValue, -0.188, -0.1, -0.00032016
DataValue, -0.2, -0.1, -0.00033486000000000003
DataValue, -0.21200000000000002, -0.1, -0.0003411
DataValue, -0.224, -0.1, -0.00033818000000000005
DataValue, -0.23600000000000002, -0.1, -0.00034128
DataValue, -0.248, -0.1, -0.0003531
DataValue, -0.26, -0.1, -0.00035556000000000004
DataValue, -0.272, -0.1, -0.00034864
DataValue, -0.28400000000000003, -0.1, -0.00035002000000000004
DataValue, -0.29600000000000004, -0.1, -0.00036108
DataValue, -0.308, -0.1, -0.00035914000000000003
DataValue, -0.32, -0.1, -0.00035024000000000003
DataValue, -0.332, -0.1, -0.00035602
DataValue, -0.34400000000000003, -0.1, -0.00036472
DataValue, -0.35600000000000004, -0.1, -0.00035850000000000004
DataValue, -0.368, -0.1, -0.0003523
DataValue, -0.38, -0.1, -0.00035886
DataValue, -0.392, -0.1, -0.00036302000000000003
DataValue, -0.404, -0.1, -0.00035064000000000004
DataValue, -0.41600000000000004, -0.1, -0.0003418
DataValue, -0.42800000000000005, -0.1, -0.0003509
DataValue, -0.44, -0.1, -0.00035242000000000004
DataValue, -0.452, -0.1, -0.00033888
DataValue, -0.464, -0.1, -0.00033662000000000004
DataValue, -0.47600000000000003, -0.1, -0.00034942
DataValue, -0.48800000000000004, -0.1, -0.00034898000000000004
DataValue, -0.5, -0.1, -0.00033502
DataValue, -0.5, -0.1, -0.00033258
DataValue, -0.48800000000000004, -0.1, -0.0003395
DataValue, -0.47600000000000003, -0.1, -0.00034484
DataValue, -0.464, -0.1, -0.00032882
DataValue, -0.452, -0.1, -0.00032740000000000004
DataValue, -0.44, -0.1, -0.00034162
DataValue, -0.42800000000000005, -0.1, -0.00033472000000000005
DataValue, -0.41600000000000004, -0.1, -0.00032318
DataValue, -0.404, -0.1, -0.00033016
DataValue, -0.392, -0.1, -0.00033628
DataValue, -0.38, -0.1, -0.00032554000000000003
DataValue, -0.368, -0.1, -0.00031546000000000005
DataValue, -0.35600000000000004, -0.1, -0.00031812
DataValue, -0.34400000000000003, -0.1, -0.00032084
DataValue, -0.332, -0.1, -0.00031298000000000003
DataValue, -0.32, -0.1, -0.00030628000000000003
DataValue, -0.308, -0.1, -0.00031158
DataValue, -0.29600000000000004, -0.1, -0.00031492
DataValue, -0.28400000000000003, -0.1, -0.00030594000000000004
DataValue, -0.272, -0.1, -0.00030156000000000003
DataValue, -0.26, -0.1, -0.00030964
DataValue, -0.248, -0.1, -0.00030942000000000003
DataValue, -0.23600000000000002, -0.1, -0.00029894000000000003
DataValue, -0.224, -0.1, -0.00029584
DataValue, -0.21200000000000002, -0.1, -0.00029982
DataValue, -0.2, -0.1, -0.00029546
DataValue, -0.188, -0.1, -0.00028306
DataValue, -0.17600000000000002, -0.1, -0.00027746000000000004
DataValue, -0.164, -0.1, -0.00027652000000000004
DataValue, -0.152, -0.1, -0.00026644
DataValue, -0.14, -0.1, -0.00024998
DataValue, -0.128, -0.1, -0.00024052
DataValue, -0.116, -0.1, -0.00023290000000000002
DataValue, -0.10400000000000001, -0.1, -0.00021500000000000002
DataValue, -0.092, -0.1, -0.0001944
DataValue, -0.08, -0.1, -0.00017898000000000002
DataValue, -0.068, -0.1, -0.0001606
DataValue, -0.056, -0.1, -0.00013578
DataValue, -0.044000000000000004, -0.1, -0.00010970000000000001
DataValue, -0.032, -0.1, -8.7706E-05
DataValue, -0.02, -0.1, -5.482E-05
DataValue, -0.008, -0.1, -2.262E-05
DataValue, 0.004, -0.1, 1.1688E-05
DataValue, 0.016, -0.1, 4.8700000000000005E-05
DataValue, 0.028, -0.1, 8.6828E-05
DataValue, 0.04, -0.1, 0.00013468
DataValue, 0.052000000000000005, -0.1, 0.00017976
DataValue, 0.064, -0.1, 0.00022898000000000002
DataValue, 0.076, -0.1, 0.00027582
DataValue, 0.088000000000000009, -0.1, 0.00032686
DataValue, 0.1, -0.1, 0.00038892
DataValue, 0.1, -0.2, 0.00058848000000000006
DataValue, 0.088000000000000009, -0.2, 0.00051348000000000008
DataValue, 0.076, -0.2, 0.00044322000000000003
DataValue, 0.064, -0.2, 0.00036712
DataValue, 0.052000000000000005, -0.2, 0.00029006
DataValue, 0.04, -0.2, 0.000221
DataValue, 0.028, -0.2, 0.00015236
DataValue, 0.016, -0.2, 8.321E-05
DataValue, 0.004, -0.2, 2.0476000000000002E-05
DataValue, -0.008, -0.2, -4.137E-05
DataValue, -0.02, -0.2, -9.9332E-05
DataValue, -0.032, -0.2, -0.00015112
DataValue, -0.044000000000000004, -0.2, -0.00020848
DataValue, -0.056, -0.2, -0.00025806
DataValue, -0.068, -0.2, -0.00030334000000000003
