
SetupTitle, (c1) Output curve in LGP
PrimitiveTest, I/V Sweep
TestParameter, Context.MainFrame, B1500A
TestParameter, Channel.UnitType, SMU, SMU
TestParameter, Channel.Unit, SMU1:HR/AS, SMU2:HR/AS
TestParameter, Channel.IName, Ig, Id
TestParameter, Channel.VName, Vg, Vd
TestParameter, Channel.Mode, V, V
TestParameter, Channel.Func, VAR2, VAR1
TestParameter, Channel.Index, 
TestParameter, Channel.Time, 
TestParameter, Measurement.Port.Unit, SMU1:HR/AS, SMU2:HR/AS
TestParameter, Measurement.Port.SeriesResistor, NONE, NONE
TestParameter, Measurement.Port.Filter, ON, ON
TestParameter, Measurement.Port.OutputVoltageComparison, 0, 0
TestParameter, Measurement.Primary.Locus, Double
TestParameter, Measurement.Primary.Scale, LINEAR
TestParameter, Measurement.Primary.Start, 0.1
TestParameter, Measurement.Primary.Stop, -0.5
TestParameter, Measurement.Primary.Step, -0.012
TestParameter, Measurement.Primary.Compliance, 0.1
TestParameter, Measurement.Primary.PowerCompliance, 0
TestParameter, Measurement.Aborting.Condition, CONTINUE AT ANY
TestParameter, Measurement.PostOutput.Value, START
TestParameter, Measurement.PostOutput.Retention, OFF
TestParameter, Measurement.Secondary.Start, 0.1
TestParameter, Measurement.Secondary.Count, 6
TestParameter, Measurement.Secondary.Step, -0.1
TestParameter, Measurement.Secondary.Compliance, 0.0001
TestParameter, Measurement.Secondary.PowerCompliance, 0
TestParameter, Measurement.Bias.Source, 0.1, 0.1
TestParameter, Measurement.Bias.Compliance, 0.0001, 0.1
TestParameter, Measurement.Monitor.Unit, SMU1:HR/AS, SMU2:HR/AS
TestParameter, Measurement.Monitor.Adc, HR ADC, HR ADC
TestParameter, Measurement.Monitor.Measurement, Compliance Side, Compliance Side
TestParameter, Measurement.Monitor.RangingMode, LIMITED, LIMITED
TestParameter, Measurement.Monitor.RangeBoundary, 1nA, 1nA
TestParameter, Measurement.Monitor.RangeRating, BY FULL RANGE, BY FULL RANGE
TestParameter, Measurement.Monitor.RangeRatingCoeff, 50, 50
TestParameter, Measurement.Timing.Hold, 0
TestParameter, Measurement.Timing.Delay, 0
TestParameter, Measurement.Adc.HighSpeed.Mode, AUTO
TestParameter, Measurement.Adc.HighSpeed.Coeff, 1
TestParameter, Measurement.Adc.HighResolution.AutoZero, OFF
TestParameter, Measurement.Adc.HighResolution.Mode, AUTO
TestParameter, Measurement.Adc.HighResolution.Coeff, 6
TestParameter, Measurement.WaitTime.Source.Coeff, 1
TestParameter, Measurement.WaitTime.Source.Offset, 0
TestParameter, Measurement.WaitTime.Monitor.Coeff, 1
TestParameter, Measurement.WaitTime.Monitor.Offset, 0
TestParameter, Output.Graph.Enabled, true
TestParameter, Output.Graph.AutoScaling, false
TestParameter, Output.Graph.XAxis.Data, Vd
TestParameter, Output.Graph.XAxis.Scale, Linear
TestParameter, Output.Graph.XAxis.Left, 0
TestParameter, Output.Graph.XAxis.Right, -0.5
TestParameter, Output.Graph.XAxis.RunTimeAutoScale, true
TestParameter, Output.Graph.YAxis.Data, Id
TestParameter, Output.Graph.YAxis.Scale, Linear
TestParameter, Output.Graph.YAxis.Bottom, -0.1
TestParameter, Output.Graph.YAxis.Top, 0.1
TestParameter, Output.Graph.YAxis.Group, 
TestParameter, Output.Graph.YAxis.RunTimeAutoScale, true
TestParameter, Output.List.Data, Vd, Vg, Id
TestParameter, AutoAnalysis.Interpolation, false
TestParameter, AutoAnalysis.Var2StepCount, 1
TestParameter, AutoAnalysis.Var2StepScript, 
TestParameter, AutoAnalysis.Line1.Enabled, false
TestParameter, AutoAnalysis.Line1.Type, 1
TestParameter, AutoAnalysis.Line1.Fix, True
TestParameter, AutoAnalysis.Line1.YAxis, 0
TestParameter, AutoAnalysis.Line1.Point1.Type, 0
TestParameter, AutoAnalysis.Line1.Point1.XY.X, 
TestParameter, AutoAnalysis.Line1.Point1.XY.Y, 
TestParameter, AutoAnalysis.Line1.Point1.Data.Var, 
TestParameter, AutoAnalysis.Line1.Point1.Data.Condition, 
TestParameter, AutoAnalysis.Line1.Point1.Data.Start, false
TestParameter, AutoAnalysis.Line1.Point1.Data.StartVar, 
TestParameter, AutoAnalysis.Line1.Point1.Data.StartCondition, 
TestParameter, AutoAnalysis.Line1.Point2.Type, 0
TestParameter, AutoAnalysis.Line1.Point2.XY.X, 
TestParameter, AutoAnalysis.Line1.Point2.XY.Y, 
TestParameter, AutoAnalysis.Line1.Point2.Data.Var, 
TestParameter, AutoAnalysis.Line1.Point2.Data.Condition, 
TestParameter, AutoAnalysis.Line1.Point2.Data.Start, false
TestParameter, AutoAnalysis.Line1.Point2.Data.StartVar, 
TestParameter, AutoAnalysis.Line1.Point2.Data.StartCondition, 
TestParameter, AutoAnalysis.Line1.GradientExpr, 0
TestParameter, AutoAnalysis.Line2.Enabled, false
TestParameter, AutoAnalysis.Line2.Type, 1
TestParameter, AutoAnalysis.Line2.Fix, True
TestParameter, AutoAnalysis.Line2.YAxis, 0
TestParameter, AutoAnalysis.Line2.Point1.Type, 0
TestParameter, AutoAnalysis.Line2.Point1.XY.X, 
TestParameter, AutoAnalysis.Line2.Point1.XY.Y, 
TestParameter, AutoAnalysis.Line2.Point1.Data.Var, 
TestParameter, AutoAnalysis.Line2.Point1.Data.Condition, 
TestParameter, AutoAnalysis.Line2.Point1.Data.Start, false
TestParameter, AutoAnalysis.Line2.Point1.Data.StartVar, 
TestParameter, AutoAnalysis.Line2.Point1.Data.StartCondition, 
TestParameter, AutoAnalysis.Line2.Point2.Type, 0
TestParameter, AutoAnalysis.Line2.Point2.XY.X, 
TestParameter, AutoAnalysis.Line2.Point2.XY.Y, 
TestParameter, AutoAnalysis.Line2.Point2.Data.Var, 
TestParameter, AutoAnalysis.Line2.Point2.Data.Condition, 
TestParameter, AutoAnalysis.Line2.Point2.Data.Start, false
TestParameter, AutoAnalysis.Line2.Point2.Data.StartVar, 
TestParameter, AutoAnalysis.Line2.Point2.Data.StartCondition, 
TestParameter, AutoAnalysis.Line2.GradientExpr, 0
TestParameter, AutoAnalysis.Marker.Enabled, false
TestParameter, AutoAnalysis.Marker.Data.Var, 
TestParameter, AutoAnalysis.Marker.Data.Condition, 
TestParameter, AutoAnalysis.Marker.Data.Start, false
TestParameter, AutoAnalysis.Marker.Data.StartVar, 
TestParameter, AutoAnalysis.Marker.Data.StartCondition, 
MetaData, TestRecord.EntryPoint, true
MetaData, TestRecord.RecordTime, 11/20/2024 03:11:48
MetaData, TestRecord.TestTarget, 
MetaData, TestRecord.IterationIndex, 1
MetaData, TestRecord.Preservation, true
MetaData, TestRecord.Flag, 
MetaData, TestRecord.Remarks, s20c1
MetaData, TestRecord.LinkKey, 7535b2a7-5203-48b0-af07-75b8cb9f2fd1
MetaData, TestRecord.Parameters, 
Dimension1, 102, 102, 102
Dimension2, 6, 6, 6
DataName, Vd, Vg, Id
DataValue, 0.1, 0.1, 8.9038E-05
DataValue, 0.088000000000000009, 0.1, 7.8906E-05
DataValue, 0.076, 0.1, 6.3238E-05
DataValue, 0.064, 0.1, 4.9526E-05
DataValue, 0.052000000000000005, 0.1, 3.8462E-05
DataValue, 0.04, 0.1, 2.7060000000000002E-05
DataValue, 0.028, 0.1, 1.6898E-05
DataValue, 0.016, 0.1, 8.5769E-06
DataValue, 0.004, 0.1, 1.8294000000000002E-06
DataValue, -0.008, 0.1, -3.6550000000000006E-06
DataValue, -0.02, 0.1, -8.550700000000001E-06
DataValue, -0.032, 0.1, -1.0094E-05
DataValue, -0.044000000000000004, 0.1, -1.4124E-05
DataValue, -0.056, 0.1, -1.6642E-05
DataValue, -0.068, 0.1, -1.8088E-05
DataValue, -0.08, 0.1, -1.969E-05
DataValue, -0.092, 0.1, -2.1306000000000002E-05
DataValue, -0.10400000000000001, 0.1, -2.1336E-05
DataValue, -0.116, 0.1, -2.0964E-05
DataValue, -0.128, 0.1, -2.1754000000000002E-05
DataValue, -0.14, 0.1, -2.1930000000000002E-05
DataValue, -0.152, 0.1, -2.0884000000000002E-05
DataValue, -0.164, 0.1, -2.0954E-05
DataValue, -0.17600000000000002, 0.1, -2.1388E-05
DataValue, -0.188, 0.1, -1.983E-05
DataValue, -0.2, 0.1, -1.891E-05
DataValue, -0.21200000000000002, 0.1, -1.9534E-05
DataValue, -0.224, 0.1, -1.8706E-05
DataValue, -0.23600000000000002, 0.1, -1.7568000000000002E-05
DataValue, -0.248, 0.1, -1.8084E-05
DataValue, -0.26, 0.1, -1.8818000000000002E-05
DataValue, -0.272, 0.1, -1.813E-05
DataValue, -0.28400000000000003, 0.1, -1.7192E-05
DataValue, -0.29600000000000004, 0.1, -1.7952E-05
DataValue, -0.308, 0.1, -1.8560000000000002E-05
DataValue, -0.32, 0.1, -1.7344000000000002E-05
DataValue, -0.332, 0.1, -1.713E-05
DataValue, -0.34400000000000003, 0.1, -1.8108E-05
DataValue, -0.35600000000000004, 0.1, -1.8072E-05
DataValue, -0.368, 0.1, -1.7114E-05
DataValue, -0.38, 0.1, -1.7276000000000002E-05
DataValue, -0.392, 0.1, -1.8358E-05
DataValue, -0.404, 0.1, -1.7942000000000002E-05
DataValue, -0.41600000000000004, 0.1, -1.7014E-05
DataValue, -0.42800000000000005, 0.1, -1.7612E-05
DataValue, -0.44, 0.1, -1.8408E-05
DataValue, -0.452, 0.1, -1.7406E-05
DataValue, -0.464, 0.1, -1.7016E-05
DataValue, -0.47600000000000003, 0.1, -1.7888000000000002E-05
DataValue, -0.48800000000000004, 0.1, -1.8226E-05
DataValue, -0.5, 0.1, -1.727E-05
DataValue, -0.5, 0.1, -1.6942E-05
DataValue, -0.48800000000000004, 0.1, -1.7088E-05
DataValue, -0.47600000000000003, 0.1, -1.7676E-05
DataValue, -0.464, 0.1, -1.6702E-05
DataValue, -0.452, 0.1, -1.607E-05
DataValue, -0.44, 0.1, -1.7056E-05
DataValue, -0.42800000000000005, 0.1, -1.7148E-05
DataValue, -0.41600000000000004, 0.1, -1.6118E-05
DataValue, -0.404, 0.1, -1.6016E-05
DataValue, -0.392, 0.1, -1.6904E-05
DataValue, -0.38, 0.1, -1.6686E-05
DataValue, -0.368, 0.1, -1.5728E-05
DataValue, -0.35600000000000004, 0.1, -1.5926E-05
DataValue, -0.34400000000000003, 0.1, -1.69E-05
DataValue, -0.332, 0.1, -1.6368E-05
DataValue, -0.32, 0.1, -1.5494E-05
DataValue, -0.308, 0.1, -1.6208E-05
DataValue, -0.29600000000000004, 0.1, -1.6736E-05
DataValue, -0.28400000000000003, 0.1, -1.5996E-05
DataValue, -0.272, 0.1, -1.5438E-05
DataValue, -0.26, 0.1, -1.6194E-05
DataValue, -0.248, 0.1, -1.6474000000000002E-05
DataValue, -0.23600000000000002, 0.1, -1.5406E-05
DataValue, -0.224, 0.1, -1.653E-05
DataValue, -0.21200000000000002, 0.1, -1.5516000000000002E-05
DataValue, -0.2, 0.1, -1.5098E-05
DataValue, -0.188, 0.1, -1.5866E-05
DataValue, -0.17600000000000002, 0.1, -1.5356E-05
DataValue, -0.164, 0.1, -1.4218E-05
DataValue, -0.152, 0.1, -1.4166000000000001E-05
DataValue, -0.14, 0.1, -1.4040000000000001E-05
DataValue, -0.128, 0.1, -1.3168E-05
DataValue, -0.116, 0.1, -1.2614E-05
DataValue, -0.10400000000000001, 0.1, -1.287E-05
DataValue, -0.092, 0.1, -1.2472E-05
DataValue, -0.08, 0.1, -1.1386E-05
DataValue, -0.068, 0.1, -1.0968E-05
DataValue, -0.056, 0.1, -1.0498E-05
DataValue, -0.044000000000000004, 0.1, -9.735E-06
DataValue, -0.032, 0.1, -7.9709E-06
DataValue, -0.02, 0.1, -5.4213000000000009E-06
DataValue, -0.008, 0.1, -2.33E-06
DataValue, 0.004, 0.1, 1.4146000000000002E-06
DataValue, 0.016, 0.1, 5.9699E-06
DataValue, 0.028, 0.1, 1.14879E-05
DataValue, 0.04, 0.1, 2.1122000000000002E-05
DataValue, 0.052000000000000005, 0.1, 2.7476000000000003E-05
DataValue, 0.064, 0.1, 3.6546E-05
DataValue, 0.076, 0.1, 4.7924000000000004E-05
DataValue, 0.088000000000000009, 0.1, 6.0428000000000005E-05
DataValue, 0.1, 0.1, 7.2248E-05
DataValue, 0.1, 0, 0.00021164
DataValue, 0.088000000000000009, 0, 0.00018514
DataValue, 0.076, 0, 0.00015778
DataValue, 0.064, 0, 0.000126
DataValue, 0.052000000000000005, 0, 9.5248000000000007E-05
DataValue, 0.04, 0, 7.1488E-05
DataValue, 0.028, 0, 4.6952E-05
DataValue, 0.016, 0, 2.5872000000000002E-05
DataValue, 0.004, 0, 5.6573000000000009E-06
DataValue, -0.008, 0, -1.1480400000000001E-05
DataValue, -0.02, 0, -2.5844000000000002E-05
DataValue, -0.032, 0, -3.9916E-05
DataValue, -0.044000000000000004, 0, -5.3552000000000005E-05
DataValue, -0.056, 0, -6.5638E-05
DataValue, -0.068, 0, -7.3982E-05
DataValue, -0.08, 0, -8.0794E-05
DataValue, -0.092, 0, -8.9754000000000008E-05
DataValue, -0.10400000000000001, 0, -9.4578E-05
DataValue, -0.116, 0, -9.6994E-05
DataValue, -0.128, 0, -0.00010259200000000001
DataValue, -0.14, 0, -0.00010655400000000001
DataValue, -0.152, 0, -0.000105804
DataValue, -0.164, 0, -0.00010780200000000001
DataValue, -0.17600000000000002, 0, -0.000111682
DataValue, -0.188, 0, -0.000110474
DataValue, -0.2, 0, -0.000109342
DataValue, -0.21200000000000002, 0, -0.000112708
DataValue, -0.224, 0, -0.00010248000000000001
DataValue, -0.23600000000000002, 0, -0.00010508
DataValue, -0.248, 0, -0.00010608
DataValue, -0.26, 0, -0.00011078
DataValue, -0.272, 0, -0.00011048000000000001
DataValue, -0.28400000000000003, 0, -0.00010592
DataValue, -0.29600000000000004, 0, -0.00010852000000000001
DataValue, -0.308, 0, -0.00010740000000000001
DataValue, -0.32, 0, -0.0001023
DataValue, -0.332, 0, -0.00010456
DataValue, -0.34400000000000003, 0, -0.00010638000000000001
DataValue, -0.35600000000000004, 0, -0.00010178
DataValue, -0.368, 0, -0.0001026
DataValue, -0.38, 0, -0.00010646000000000001
DataValue, -0.392, 0, -0.00010272
DataValue, -0.404, 0, -0.00010128
DataValue, -0.41600000000000004, 0, -0.00010592
DataValue, -0.42800000000000005, 0, -0.00010426000000000001
DataValue, -0.44, 0, -0.00010086
DataValue, -0.452, 0, -0.00010494000000000001
DataValue, -0.464, 0, -0.00010570000000000001
DataValue, -0.47600000000000003, 0, -0.00010120000000000001
DataValue, -0.48800000000000004, 0, -0.00010364
DataValue, -0.5, 0, -0.0001066
DataValue, -0.5, 0, -0.00010434000000000001
DataValue, -0.48800000000000004, 0, -9.958E-05
DataValue, -0.47600000000000003, 0, -0.00010222000000000001
DataValue, -0.464, 0, -0.00010388
DataValue, -0.452, 0, -0.00010010000000000001
DataValue, -0.44, 0, -0.000103666
DataValue, -0.42800000000000005, 0, -0.00010295600000000001
DataValue, -0.41600000000000004, 0, -9.8364000000000009E-05
DataValue, -0.404, 0, -9.9262E-05
DataValue, -0.392, 0, -0.00010259
DataValue, -0.38, 0, -0.000100764
DataValue, -0.368, 0, -9.7418000000000008E-05
DataValue, -0.35600000000000004, 0, -9.9046E-05
DataValue, -0.34400000000000003, 0, -0.000102372
DataValue, -0.332, 0, -9.9572E-05
DataValue, -0.32, 0, -9.6606E-05
DataValue, -0.308, 0, -9.937800000000001E-05
DataValue, -0.29600000000000004, 0, -0.000100858
DataValue, -0.28400000000000003, 0, -9.7476E-05
DataValue, -0.272, 0, -9.4488000000000007E-05
DataValue, -0.26, 0, -9.516E-05
DataValue, -0.248, 0, -9.449E-05
DataValue, -0.23600000000000002, 0, -9.0684E-05
DataValue, -0.224, 0, -8.842E-05
DataValue, -0.21200000000000002, 0, -8.9598E-05
DataValue, -0.2, 0, -9.0458000000000007E-05
DataValue, -0.188, 0, -8.6864E-05
DataValue, -0.17600000000000002, 0, -8.4888E-05
DataValue, -0.164, 0, -8.6902E-05
DataValue, -0.152, 0, -8.5636E-05
DataValue, -0.14, 0, -8.1686E-05
DataValue, -0.128, 0, -8.0088E-05
DataValue, -0.116, 0, -7.9136000000000009E-05
DataValue, -0.10400000000000001, 0, -7.5818E-05
DataValue, -0.092, 0, -7.0194E-05
DataValue, -0.08, 0, -6.5378E-05
DataValue, -0.068, 0, -6.0684000000000004E-05
DataValue, -0.056, 0, -5.3342000000000005E-05
DataValue, -0.044000000000000004, 0, -4.3698E-05
DataValue, -0.032, 0, -3.4052E-05
DataValue, -0.02, 0, -2.3312E-05
DataValue, -0.008, 0, -1.02733E-05
DataValue, 0.004, 0, 5.4037000000000005E-06
DataValue, 0.016, 0, 2.3772000000000002E-05
DataValue, 0.028, 0, 4.2592E-05
DataValue, 0.04, 0, 6.4716000000000009E-05
DataValue, 0.052000000000000005, 0, 8.7006E-05
DataValue, 0.064, 0, 0.00011112800000000001
DataValue, 0.076, 0, 0.00014972
DataValue, 0.088000000000000009, 0, 0.00018140000000000002
DataValue, 0.1, 0, 0.00021114000000000002
DataValue, 0.1, -0.1, 0.0004043
DataValue, 0.088000000000000009, -0.1, 0.00035888
DataValue, 0.076, -0.1, 0.00030286
DataValue, 0.064, -0.1, 0.00024624
DataValue, 0.052000000000000005, -0.1, 0.00019642000000000002
DataValue, 0.04, -0.1, 0.00014678
DataValue, 0.028, -0.1, 9.636200000000001E-05
DataValue, 0.016, -0.1, 5.4628E-05
DataValue, 0.004, -0.1, 1.2754E-05
DataValue, -0.008, -0.1, -2.5796000000000002E-05
DataValue, -0.02, -0.1, -6.1726E-05
DataValue, -0.032, -0.1, -9.5872E-05
DataValue, -0.044000000000000004, -0.1, -0.00011960000000000001
DataValue, -0.056, -0.1, -0.00014910000000000002
DataValue, -0.068, -0.1, -0.00017862000000000002
DataValue, -0.08, -0.1, -0.00020278
DataValue, -0.092, -0.1, -0.00022180000000000002
DataValue, -0.10400000000000001, -0.1, -0.00024036
DataValue, -0.116, -0.1, -0.00026208000000000004
DataValue, -0.128, -0.1, -0.00027524
DataValue, -0.14, -0.1, -0.00028346
DataValue, -0.152, -0.1, -0.00030066
DataValue, -0.164, -0.1, -0.00031338000000000004
DataValue, -0.17600000000000002, -0.1, -0.00031604
DataValue, -0.188, -0.1, -0.00032216000000000005
DataValue, -0.2, -0.1, -0.00033394
DataValue, -0.21200000000000002, -0.1, -0.00033850000000000004
DataValue, -0.224, -0.1, -0.00033712
DataValue, -0.23600000000000002, -0.1, -0.00034062000000000003
DataValue, -0.248, -0.1, -0.00034862
DataValue, -0.26, -0.1, -0.00035008
DataValue, -0.272, -0.1, -0.00034572000000000004
DataValue, -0.28400000000000003, -0.1, -0.00034740000000000004
DataValue, -0.29600000000000004, -0.1, -0.00035524000000000005
DataValue, -0.308, -0.1, -0.00035308000000000003
DataValue, -0.32, -0.1, -0.00034068
DataValue, -0.332, -0.1, -0.00035130000000000003
DataValue, -0.34400000000000003, -0.1, -0.00034808
DataValue, -0.35600000000000004, -0.1, -0.00034520000000000004
DataValue, -0.368, -0.1, -0.00035294000000000005
DataValue, -0.38, -0.1, -0.0003505
DataValue, -0.392, -0.1, -0.00034046
DataValue, -0.404, -0.1, -0.00034472
DataValue, -0.41600000000000004, -0.1, -0.0003441
DataValue, -0.42800000000000005, -0.1, -0.00033206
DataValue, -0.44, -0.1, -0.00033562
DataValue, -0.452, -0.1, -0.00034196000000000004
DataValue, -0.464, -0.1, -0.00033174
DataValue, -0.47600000000000003, -0.1, -0.00033138000000000004
DataValue, -0.48800000000000004, -0.1, -0.00034142000000000005
DataValue, -0.5, -0.1, -0.00033462000000000005
DataValue, -0.5, -0.1, -0.00032838
DataValue, -0.48800000000000004, -0.1, -0.00032700000000000003
DataValue, -0.47600000000000003, -0.1, -0.00033556000000000005
DataValue, -0.464, -0.1, -0.00032854
DataValue, -0.452, -0.1, -0.000321
DataValue, -0.44, -0.1, -0.00032700000000000003
DataValue, -0.42800000000000005, -0.1, -0.00033208
DataValue, -0.41600000000000004, -0.1, -0.00032424
DataValue, -0.404, -0.1, -0.00031888
DataValue, -0.392, -0.1, -0.00032476
DataValue, -0.38, -0.1, -0.00032534
DataValue, -0.368, -0.1, -0.00031488
DataValue, -0.35600000000000004, -0.1, -0.00030838
DataValue, -0.34400000000000003, -0.1, -0.00030992000000000004
DataValue, -0.332, -0.1, -0.00031182000000000003
DataValue, -0.32, -0.1, -0.0003036
DataValue, -0.308, -0.1, -0.00030046
DataValue, -0.29600000000000004, -0.1, -0.00030508
DataValue, -0.28400000000000003, -0.1, -0.00030404
DataValue, -0.272, -0.1, -0.00029632000000000004
DataValue, -0.26, -0.1, -0.00030128
DataValue, -0.248, -0.1, -0.00030306
DataValue, -0.23600000000000002, -0.1, -0.00029350000000000003
DataValue, -0.224, -0.1, -0.0002909
DataValue, -0.21200000000000002, -0.1, -0.00029370000000000004
DataValue, -0.2, -0.1, -0.0002857
DataValue, -0.188, -0.1, -0.00027800000000000004
DataValue, -0.17600000000000002, -0.1, -0.00027800000000000004
DataValue, -0.164, -0.1, -0.00027024000000000004
DataValue, -0.152, -0.1, -0.00025728000000000003
DataValue, -0.14, -0.1, -0.00025094
DataValue, -0.128, -0.1, -0.00024228000000000002
DataValue, -0.116, -0.1, -0.00022644
DataValue, -0.10400000000000001, -0.1, -0.00021122
DataValue, -0.092, -0.1, -0.00019904000000000002
DataValue, -0.08, -0.1, -0.00017962000000000002
DataValue, -0.068, -0.1, -0.00015738000000000001
DataValue, -0.056, -0.1, -0.00013718
DataValue, -0.044000000000000004, -0.1, -0.00011294000000000001
DataValue, -0.032, -0.1, -8.7514E-05
DataValue, -0.02, -0.1, -5.6504E-05
DataValue, -0.008, -0.1, -2.3288E-05
DataValue, 0.004, -0.1, 1.1714E-05
DataValue, 0.016, -0.1, 4.9594E-05
DataValue, 0.028, -0.1, 9.0086E-05
DataValue, 0.04, -0.1, 0.00014116
DataValue, 0.052000000000000005, -0.1, 0.00018324000000000001
DataValue, 0.064, -0.1, 0.00023192000000000002
DataValue, 0.076, -0.1, 0.00028768
DataValue, 0.088000000000000009, -0.1, 0.00034044
DataValue, 0.1, -0.1, 0.00039900000000000005
DataValue, 0.1, -0.2, 0.0006154
DataValue, 0.088000000000000009, -0.2, 0.0005446
DataValue, 0.076, -0.2, 0.00046330000000000004
DataValue, 0.064, -0.2, 0.00038256000000000005
DataValue, 0.052000000000000005, -0.2, 0.0003078
DataValue, 0.04, -0.2, 0.00023216000000000003
DataValue, 0.028, -0.2, 0.00015794000000000002
DataValue, 0.016, -0.2, 8.7814E-05
DataValue, 0.004, -0.2, 2.0916E-05
DataValue, -0.008, -0.2, -4.2922E-05
DataValue, -0.02, -0.2, -0.00010540400000000001
