
SetupTitle, (c2) Transfer curve in LGP
PrimitiveTest, I/V Sweep
TestParameter, Context.MainFrame, B1500A
TestParameter, Channel.UnitType, SMU, SMU
TestParameter, Channel.Unit, SMU1:HR/AS, SMU2:HR/AS
TestParameter, Channel.IName, Ig, Id
TestParameter, Channel.VName, Vg, Vd
TestParameter, Channel.Mode, V, V
TestParameter, Channel.Func, VAR1, VAR2
TestParameter, Channel.Index, 
TestParameter, Channel.Time, 
TestParameter, Measurement.Port.Unit, SMU1:HR/AS, SMU2:HR/AS
TestParameter, Measurement.Port.SeriesResistor, NONE, NONE
TestParameter, Measurement.Port.Filter, ON, ON
TestParameter, Measurement.Port.OutputVoltageComparison, 0, 0
TestParameter, Measurement.Primary.Locus, Double
TestParameter, Measurement.Primary.Scale, LINEAR
TestParameter, Measurement.Primary.Start, 0.1
TestParameter, Measurement.Primary.Stop, -0.4
TestParameter, Measurement.Primary.Step, -0.01
TestParameter, Measurement.Primary.Compliance, 0.1
TestParameter, Measurement.Primary.PowerCompliance, 1
TestParameter, Measurement.Aborting.Condition, SKIP AT ANY ABNORMAL
TestParameter, Measurement.PostOutput.Value, START
TestParameter, Measurement.PostOutput.Retention, OFF
TestParameter, Measurement.Secondary.Start, -0.25
TestParameter, Measurement.Secondary.Count, 5
TestParameter, Measurement.Secondary.Step, 0
TestParameter, Measurement.Secondary.Compliance, 0.1
TestParameter, Measurement.Secondary.PowerCompliance, 1
TestParameter, Measurement.Bias.Source, 0.1, -0.25
TestParameter, Measurement.Bias.Compliance, 0.1, 0.1
TestParameter, Measurement.Monitor.Unit, SMU1:HR/AS, SMU2:HR/AS
TestParameter, Measurement.Monitor.Adc, HR ADC, HR ADC
TestParameter, Measurement.Monitor.Measurement, Compliance Side, Compliance Side
TestParameter, Measurement.Monitor.RangingMode, LIMITED, LIMITED
TestParameter, Measurement.Monitor.RangeBoundary, 1nA, 1nA
TestParameter, Measurement.Monitor.RangeRating, BY FULL RANGE, BY FULL RANGE
TestParameter, Measurement.Monitor.RangeRatingCoeff, 50, 50
TestParameter, Measurement.Timing.Hold, 0
TestParameter, Measurement.Timing.Delay, 0
TestParameter, Measurement.Adc.HighSpeed.Mode, AUTO
TestParameter, Measurement.Adc.HighSpeed.Coeff, 1
TestParameter, Measurement.Adc.HighResolution.AutoZero, OFF
TestParameter, Measurement.Adc.HighResolution.Mode, AUTO
TestParameter, Measurement.Adc.HighResolution.Coeff, 6
TestParameter, Measurement.WaitTime.Source.Coeff, 1
TestParameter, Measurement.WaitTime.Source.Offset, 0
TestParameter, Measurement.WaitTime.Monitor.Coeff, 1
TestParameter, Measurement.WaitTime.Monitor.Offset, 0
TestParameter, Output.Graph.Enabled, true
TestParameter, Output.Graph.AutoScaling, false
TestParameter, Output.Graph.XAxis.Data, Vg
TestParameter, Output.Graph.XAxis.Scale, Linear
TestParameter, Output.Graph.XAxis.Left, 0.60000000000000009
TestParameter, Output.Graph.XAxis.Right, -0.60000000000000009
TestParameter, Output.Graph.XAxis.RunTimeAutoScale, true
TestParameter, Output.Graph.YAxis.Data, Id
TestParameter, Output.Graph.YAxis.Scale, Linear
TestParameter, Output.Graph.YAxis.Bottom, -0.1
TestParameter, Output.Graph.YAxis.Top, 0.1
TestParameter, Output.Graph.YAxis.Group, 
TestParameter, Output.Graph.YAxis.RunTimeAutoScale, true
TestParameter, Output.List.Data, Vd, Vg, Id
TestParameter, AutoAnalysis.Interpolation, false
TestParameter, AutoAnalysis.Var2StepCount, 1
TestParameter, AutoAnalysis.Var2StepScript, 
TestParameter, AutoAnalysis.Line1.Enabled, false
TestParameter, AutoAnalysis.Line1.Type, 1
TestParameter, AutoAnalysis.Line1.Fix, True
TestParameter, AutoAnalysis.Line1.YAxis, 0
TestParameter, AutoAnalysis.Line1.Point1.Type, 0
TestParameter, AutoAnalysis.Line1.Point1.XY.X, 
TestParameter, AutoAnalysis.Line1.Point1.XY.Y, 
TestParameter, AutoAnalysis.Line1.Point1.Data.Var, 
TestParameter, AutoAnalysis.Line1.Point1.Data.Condition, 
TestParameter, AutoAnalysis.Line1.Point1.Data.Start, false
TestParameter, AutoAnalysis.Line1.Point1.Data.StartVar, 
TestParameter, AutoAnalysis.Line1.Point1.Data.StartCondition, 
TestParameter, AutoAnalysis.Line1.Point2.Type, 0
TestParameter, AutoAnalysis.Line1.Point2.XY.X, 
TestParameter, AutoAnalysis.Line1.Point2.XY.Y, 
TestParameter, AutoAnalysis.Line1.Point2.Data.Var, 
TestParameter, AutoAnalysis.Line1.Point2.Data.Condition, 
TestParameter, AutoAnalysis.Line1.Point2.Data.Start, false
TestParameter, AutoAnalysis.Line1.Point2.Data.StartVar, 
TestParameter, AutoAnalysis.Line1.Point2.Data.StartCondition, 
TestParameter, AutoAnalysis.Line1.GradientExpr, 0
TestParameter, AutoAnalysis.Line2.Enabled, false
TestParameter, AutoAnalysis.Line2.Type, 1
TestParameter, AutoAnalysis.Line2.Fix, True
TestParameter, AutoAnalysis.Line2.YAxis, 0
TestParameter, AutoAnalysis.Line2.Point1.Type, 0
TestParameter, AutoAnalysis.Line2.Point1.XY.X, 
TestParameter, AutoAnalysis.Line2.Point1.XY.Y, 
TestParameter, AutoAnalysis.Line2.Point1.Data.Var, 
TestParameter, AutoAnalysis.Line2.Point1.Data.Condition, 
TestParameter, AutoAnalysis.Line2.Point1.Data.Start, false
TestParameter, AutoAnalysis.Line2.Point1.Data.StartVar, 
TestParameter, AutoAnalysis.Line2.Point1.Data.StartCondition, 
TestParameter, AutoAnalysis.Line2.Point2.Type, 0
TestParameter, AutoAnalysis.Line2.Point2.XY.X, 
TestParameter, AutoAnalysis.Line2.Point2.XY.Y, 
TestParameter, AutoAnalysis.Line2.Point2.Data.Var, 
TestParameter, AutoAnalysis.Line2.Point2.Data.Condition, 
TestParameter, AutoAnalysis.Line2.Point2.Data.Start, false
TestParameter, AutoAnalysis.Line2.Point2.Data.StartVar, 
TestParameter, AutoAnalysis.Line2.Point2.Data.StartCondition, 
TestParameter, AutoAnalysis.Line2.GradientExpr, 0
TestParameter, AutoAnalysis.Marker.Enabled, false
TestParameter, AutoAnalysis.Marker.Data.Var, 
TestParameter, AutoAnalysis.Marker.Data.Condition, 
TestParameter, AutoAnalysis.Marker.Data.Start, false
TestParameter, AutoAnalysis.Marker.Data.StartVar, 
TestParameter, AutoAnalysis.Marker.Data.StartCondition, 
MetaData, TestRecord.EntryPoint, true
MetaData, TestRecord.RecordTime, 12/22/2024 05:08:47
MetaData, TestRecord.TestTarget, 
MetaData, TestRecord.IterationIndex, 1
MetaData, TestRecord.Preservation, true
MetaData, TestRecord.Flag, 
MetaData, TestRecord.Remarks, 0.625wt-s21c4
MetaData, TestRecord.LinkKey, fbe32778-0bfb-48ec-a620-8f8140dcc651
MetaData, TestRecord.Parameters, 
Dimension1, 102, 102, 102
Dimension2, 5, 5, 5
DataName, Vg, Vd, Id
DataValue, 0.1, -0.25, -2.8513E-06
DataValue, 0.090000000000000011, -0.25, -3.3974000000000003E-06
DataValue, 0.08, -0.25, -4.0617000000000004E-06
DataValue, 0.07, -0.25, -4.7347000000000006E-06
DataValue, 0.060000000000000005, -0.25, -5.6009000000000009E-06
DataValue, 0.05, -0.25, -6.5863000000000008E-06
DataValue, 0.04, -0.25, -7.6733000000000016E-06
DataValue, 0.030000000000000002, -0.25, -8.9470000000000009E-06
DataValue, 0.02, -0.25, -1.0316100000000001E-05
DataValue, 0.01, -0.25, -1.2110000000000001E-05
DataValue, 0, -0.25, -1.378E-05
DataValue, -0.01, -0.25, -1.5652000000000002E-05
DataValue, -0.02, -0.25, -1.7778E-05
DataValue, -0.030000000000000002, -0.25, -2.0102E-05
DataValue, -0.04, -0.25, -2.269E-05
DataValue, -0.05, -0.25, -2.5376000000000002E-05
DataValue, -0.060000000000000005, -0.25, -2.855E-05
DataValue, -0.07, -0.25, -3.1852E-05
DataValue, -0.08, -0.25, -3.548E-05
DataValue, -0.090000000000000011, -0.25, -3.9428E-05
DataValue, -0.1, -0.25, -4.3532E-05
DataValue, -0.11, -0.25, -4.8006E-05
DataValue, -0.12000000000000001, -0.25, -5.286E-05
DataValue, -0.13, -0.25, -5.8024E-05
DataValue, -0.14, -0.25, -6.3476E-05
DataValue, -0.15, -0.25, -6.9302000000000008E-05
DataValue, -0.16, -0.25, -7.5476000000000007E-05
DataValue, -0.17, -0.25, -8.1806000000000009E-05
DataValue, -0.18000000000000002, -0.25, -8.8596E-05
DataValue, -0.19, -0.25, -9.5794E-05
DataValue, -0.2, -0.25, -0.000103174
DataValue, -0.21000000000000002, -0.25, -0.00011113
DataValue, -0.22, -0.25, -0.00012202000000000001
DataValue, -0.23, -0.25, -0.00013010000000000002
DataValue, -0.24000000000000002, -0.25, -0.00013832000000000002
DataValue, -0.25, -0.25, -0.0001473
DataValue, -0.26, -0.25, -0.00015652
DataValue, -0.27, -0.25, -0.00016568
DataValue, -0.28, -0.25, -0.0001753
DataValue, -0.29000000000000004, -0.25, -0.00018490000000000002
DataValue, -0.3, -0.25, -0.00019498
DataValue, -0.31, -0.25, -0.00020484000000000002
DataValue, -0.32, -0.25, -0.00021502
DataValue, -0.33, -0.25, -0.00022502
DataValue, -0.34, -0.25, -0.00023542000000000002
DataValue, -0.35000000000000003, -0.25, -0.0002461
DataValue, -0.36000000000000004, -0.25, -0.00025586
DataValue, -0.37, -0.25, -0.0002665
DataValue, -0.38, -0.25, -0.00027608
DataValue, -0.39, -0.25, -0.00028546
DataValue, -0.4, -0.25, -0.00029496000000000004
DataValue, -0.4, -0.25, -0.00029546
DataValue, -0.39, -0.25, -0.00028824
DataValue, -0.38, -0.25, -0.00027976
DataValue, -0.37, -0.25, -0.0002707
DataValue, -0.36000000000000004, -0.25, -0.00026218000000000004
DataValue, -0.35000000000000003, -0.25, -0.00025286000000000004
DataValue, -0.34, -0.25, -0.00024368000000000003
DataValue, -0.33, -0.25, -0.00023424
DataValue, -0.32, -0.25, -0.00022492
DataValue, -0.31, -0.25, -0.00021554
DataValue, -0.3, -0.25, -0.00020586
DataValue, -0.29000000000000004, -0.25, -0.00019592
DataValue, -0.28, -0.25, -0.00018624
DataValue, -0.27, -0.25, -0.0001766
DataValue, -0.26, -0.25, -0.00016714
DataValue, -0.25, -0.25, -0.00015796
DataValue, -0.24000000000000002, -0.25, -0.00014874000000000002
DataValue, -0.23, -0.25, -0.00013984000000000002
DataValue, -0.22, -0.25, -0.00013104000000000002
DataValue, -0.21000000000000002, -0.25, -0.00012274
DataValue, -0.2, -0.25, -0.00011470000000000001
DataValue, -0.19, -0.25, -0.00010688
DataValue, -0.18000000000000002, -0.25, -9.8578E-05
DataValue, -0.17, -0.25, -9.1398000000000008E-05
DataValue, -0.16, -0.25, -8.4428E-05
DataValue, -0.15, -0.25, -7.7906000000000009E-05
DataValue, -0.14, -0.25, -7.18E-05
DataValue, -0.13, -0.25, -6.556E-05
DataValue, -0.12000000000000001, -0.25, -6.0002E-05
DataValue, -0.11, -0.25, -5.4592E-05
DataValue, -0.1, -0.25, -4.9666E-05
DataValue, -0.090000000000000011, -0.25, -4.4912E-05
DataValue, -0.08, -0.25, -4.0426E-05
DataValue, -0.07, -0.25, -3.6524000000000005E-05
DataValue, -0.060000000000000005, -0.25, -3.2670000000000004E-05
DataValue, -0.05, -0.25, -2.9164E-05
DataValue, -0.04, -0.25, -2.6014000000000002E-05
DataValue, -0.030000000000000002, -0.25, -2.3058000000000002E-05
DataValue, -0.02, -0.25, -2.0284E-05
DataValue, -0.01, -0.25, -1.779E-05
DataValue, 0, -0.25, -1.558E-05
DataValue, 0.01, -0.25, -1.3546E-05
DataValue, 0.02, -0.25, -1.1698E-05
DataValue, 0.030000000000000002, -0.25, -1.005E-05
DataValue, 0.04, -0.25, -8.4279000000000011E-06
DataValue, 0.05, -0.25, -7.2526000000000007E-06
DataValue, 0.060000000000000005, -0.25, -6.1275E-06
DataValue, 0.07, -0.25, -5.129E-06
DataValue, 0.08, -0.25, -4.3165E-06
DataValue, 0.090000000000000011, -0.25, -3.5348000000000004E-06
DataValue, 0.1, -0.25, -2.8765000000000003E-06
DataValue, 0.1, -0.25, -2.4994E-06
DataValue, 0.090000000000000011, -0.25, -3.0144000000000003E-06
DataValue, 0.08, -0.25, -3.5467000000000003E-06
DataValue, 0.07, -0.25, -4.2412E-06
DataValue, 0.060000000000000005, -0.25, -5.042E-06
DataValue, 0.05, -0.25, -5.8871000000000008E-06
DataValue, 0.04, -0.25, -6.9351000000000007E-06
DataValue, 0.030000000000000002, -0.25, -8.1585000000000016E-06
DataValue, 0.02, -0.25, -9.4493000000000012E-06
DataValue, 0.01, -0.25, -1.0946900000000002E-05
DataValue, 0, -0.25, -1.3102000000000001E-05
DataValue, -0.01, -0.25, -1.4806E-05
DataValue, -0.02, -0.25, -1.6896000000000002E-05
DataValue, -0.030000000000000002, -0.25, -1.9118000000000002E-05
DataValue, -0.04, -0.25, -2.1538E-05
DataValue, -0.05, -0.25, -2.4358E-05
DataValue, -0.060000000000000005, -0.25, -2.7346000000000002E-05
DataValue, -0.07, -0.25, -3.0528E-05
DataValue, -0.08, -0.25, -3.4054E-05
DataValue, -0.090000000000000011, -0.25, -3.8022E-05
DataValue, -0.1, -0.25, -4.2206E-05
DataValue, -0.11, -0.25, -4.6606E-05
DataValue, -0.12000000000000001, -0.25, -5.1414E-05
DataValue, -0.13, -0.25, -5.6506000000000004E-05
DataValue, -0.14, -0.25, -6.2048E-05
DataValue, -0.15, -0.25, -6.7994E-05
DataValue, -0.16, -0.25, -7.4370000000000008E-05
DataValue, -0.17, -0.25, -8.061E-05
DataValue, -0.18000000000000002, -0.25, -8.7506E-05
DataValue, -0.19, -0.25, -9.4964000000000008E-05
DataValue, -0.2, -0.25, -0.000102228
DataValue, -0.21000000000000002, -0.25, -0.00010995200000000001
DataValue, -0.22, -0.25, -0.00012084
DataValue, -0.23, -0.25, -0.00012904
DataValue, -0.24000000000000002, -0.25, -0.00013732000000000002
DataValue, -0.25, -0.25, -0.0001461
DataValue, -0.26, -0.25, -0.00015544000000000002
DataValue, -0.27, -0.25, -0.00016474
DataValue, -0.28, -0.25, -0.0001745
DataValue, -0.29000000000000004, -0.25, -0.00018402000000000002
DataValue, -0.3, -0.25, -0.0001942
DataValue, -0.31, -0.25, -0.0002043
DataValue, -0.32, -0.25, -0.00021482
DataValue, -0.33, -0.25, -0.00022476
DataValue, -0.34, -0.25, -0.00023510000000000002
DataValue, -0.35000000000000003, -0.25, -0.00024518
DataValue, -0.36000000000000004, -0.25, -0.00025546
DataValue, -0.37, -0.25, -0.00026508
DataValue, -0.38, -0.25, -0.0002743
DataValue, -0.39, -0.25, -0.00028478
DataValue, -0.4, -0.25, -0.00029402000000000003
DataValue, -0.4, -0.25, -0.00029456
DataValue, -0.39, -0.25, -0.00028692
DataValue, -0.38, -0.25, -0.0002788
DataValue, -0.37, -0.25, -0.00027016000000000003
DataValue, -0.36000000000000004, -0.25, -0.00026102
DataValue, -0.35000000000000003, -0.25, -0.00025186
DataValue, -0.34, -0.25, -0.00024282
DataValue, -0.33, -0.25, -0.0002334
DataValue, -0.32, -0.25, -0.00022380000000000002
DataValue, -0.31, -0.25, -0.00021438000000000002
DataValue, -0.3, -0.25, -0.00020472
DataValue, -0.29000000000000004, -0.25, -0.00019532000000000002
DataValue, -0.28, -0.25, -0.00018546
DataValue, -0.27, -0.25, -0.00017636
DataValue, -0.26, -0.25, -0.00016716000000000002
DataValue, -0.25, -0.25, -0.00015726000000000002
DataValue, -0.24000000000000002, -0.25, -0.00014810000000000002
DataValue, -0.23, -0.25, -0.00013928
DataValue, -0.22, -0.25, -0.00013052000000000002
DataValue, -0.21000000000000002, -0.25, -0.00012208
DataValue, -0.2, -0.25, -0.00011396000000000001
DataValue, -0.19, -0.25, -0.00010608
DataValue, -0.18000000000000002, -0.25, -9.7868E-05
DataValue, -0.17, -0.25, -9.0896E-05
DataValue, -0.16, -0.25, -8.3922E-05
DataValue, -0.15, -0.25, -7.731E-05
DataValue, -0.14, -0.25, -7.1188E-05
DataValue, -0.13, -0.25, -6.5276E-05
DataValue, -0.12000000000000001, -0.25, -5.95E-05
DataValue, -0.11, -0.25, -5.406E-05
DataValue, -0.1, -0.25, -4.9148000000000004E-05
DataValue, -0.090000000000000011, -0.25, -4.4326E-05
DataValue, -0.08, -0.25, -3.9874000000000005E-05
DataValue, -0.07, -0.25, -3.588E-05
DataValue, -0.060000000000000005, -0.25, -3.177E-05
DataValue, -0.05, -0.25, -2.8374E-05
DataValue, -0.04, -0.25, -2.5318E-05
DataValue, -0.030000000000000002, -0.25, -2.2374E-05
DataValue, -0.02, -0.25, -1.9694E-05
DataValue, -0.01, -0.25, -1.728E-05
DataValue, 0, -0.25, -1.5092E-05
DataValue, 0.01, -0.25, -1.3058000000000001E-05
DataValue, 0.02, -0.25, -1.1332000000000001E-05
DataValue, 0.030000000000000002, -0.25, -9.5882E-06
DataValue, 0.04, -0.25, -8.2402000000000012E-06
DataValue, 0.05, -0.25, -7.0382000000000006E-06
DataValue, 0.060000000000000005, -0.25, -5.9158E-06
DataValue, 0.07, -0.25, -4.9643000000000009E-06
DataValue, 0.08, -0.25, -4.1834000000000005E-06
DataValue, 0.090000000000000011, -0.25, -3.3949000000000003E-06
DataValue, 0.1, -0.25, -2.7875000000000004E-06
DataValue, 0.1, -0.25, -2.3732000000000004E-06
DataValue, 0.090000000000000011, -0.25, -2.8217000000000004E-06
DataValue, 0.08, -0.25, -3.4093000000000005E-06
DataValue, 0.07, -0.25, -4.0223000000000004E-06
DataValue, 0.060000000000000005, -0.25, -4.7661000000000008E-06
DataValue, 0.05, -0.25, -5.6944000000000009E-06
DataValue, 0.04, -0.25, -6.6447000000000009E-06
DataValue, 0.030000000000000002, -0.25, -7.739500000000001E-06
DataValue, 0.02, -0.25, -9.0901000000000013E-06
DataValue, 0.01, -0.25, -1.04728E-05
DataValue, 0, -0.25, -1.2612E-05
DataValue, -0.01, -0.25, -1.4348E-05
DataValue, -0.02, -0.25, -1.6296E-05
DataValue, -0.030000000000000002, -0.25, -1.8522E-05
DataValue, -0.04, -0.25, -2.1028E-05
DataValue, -0.05, -0.25, -2.3644E-05
DataValue, -0.060000000000000005, -0.25, -2.6688000000000003E-05
DataValue, -0.07, -0.25, -2.9784E-05
DataValue, -0.08, -0.25, -3.3294000000000003E-05
DataValue, -0.090000000000000011, -0.25, -3.7168E-05
DataValue, -0.1, -0.25, -4.121E-05
DataValue, -0.11, -0.25, -4.568E-05
DataValue, -0.12000000000000001, -0.25, -5.0440000000000005E-05
DataValue, -0.13, -0.25, -5.5682E-05
DataValue, -0.14, -0.25, -6.1006000000000005E-05
DataValue, -0.15, -0.25, -6.6570000000000008E-05
DataValue, -0.16, -0.25, -7.2638E-05
DataValue, -0.17, -0.25, -7.917E-05
DataValue, -0.18000000000000002, -0.25, -8.5918E-05
DataValue, -0.19, -0.25, -9.3158E-05
DataValue, -0.2, -0.25, -0.000100704
DataValue, -0.21000000000000002, -0.25, -0.00010858000000000001
DataValue, -0.22, -0.25, -0.00011964000000000001
DataValue, -0.23, -0.25, -0.00012776
DataValue, -0.24000000000000002, -0.25, -0.00013632
DataValue, -0.25, -0.25, -0.00014526
DataValue, -0.26, -0.25, -0.0001544
DataValue, -0.27, -0.25, -0.00016382000000000001
DataValue, -0.28, -0.25, -0.0001732
DataValue, -0.29000000000000004, -0.25, -0.00018298
DataValue, -0.3, -0.25, -0.0001931
DataValue, -0.31, -0.25, -0.000203
DataValue, -0.32, -0.25, -0.00021284
DataValue, -0.33, -0.25, -0.00022318000000000002
DataValue, -0.34, -0.25, -0.00023358000000000002
DataValue, -0.35000000000000003, -0.25, -0.00024358000000000002
DataValue, -0.36000000000000004, -0.25, -0.00025360000000000004
DataValue, -0.37, -0.25, -0.00026368
DataValue, -0.38, -0.25, -0.00027350000000000003
DataValue, -0.39, -0.25, -0.00028348
DataValue, -0.4, -0.25, -0.00029306000000000004
DataValue, -0.4, -0.25, -0.00029396
DataValue, -0.39, -0.25, -0.00028596000000000003
DataValue, -0.38, -0.25, -0.00027780000000000003
DataValue, -0.37, -0.25, -0.00026920000000000004
DataValue, -0.36000000000000004, -0.25, -0.00026042000000000003
DataValue, -0.35000000000000003, -0.25, -0.00025092
DataValue, -0.34, -0.25, -0.00024146
DataValue, -0.33, -0.25, -0.00023254000000000002
DataValue, -0.32, -0.25, -0.00022266
DataValue, -0.31, -0.25, -0.00021288
DataValue, -0.3, -0.25, -0.00020372
DataValue, -0.29000000000000004, -0.25, -0.00019428000000000002
DataValue, -0.28, -0.25, -0.00018432000000000002
DataValue, -0.27, -0.25, -0.0001753
DataValue, -0.26, -0.25, -0.00016594
DataValue, -0.25, -0.25, -0.00015656
DataValue, -0.24000000000000002, -0.25, -0.00014738000000000002
DataValue, -0.23, -0.25, -0.00013846
DataValue, -0.22, -0.25, -0.00012964
DataValue, -0.21000000000000002, -0.25, -0.00012106000000000001
DataValue, -0.2, -0.25, -0.00011318000000000001
DataValue, -0.19, -0.25, -0.00010522000000000001
DataValue, -0.18000000000000002, -0.25, -9.7132E-05
DataValue, -0.17, -0.25, -8.986600000000001E-05
DataValue, -0.16, -0.25, -8.297E-05
DataValue, -0.15, -0.25, -7.6418E-05
DataValue, -0.14, -0.25, -7.0286E-05
DataValue, -0.13, -0.25, -6.4302000000000009E-05
DataValue, -0.12000000000000001, -0.25, -5.865E-05
DataValue, -0.11, -0.25, -5.3502000000000004E-05
DataValue, -0.1, -0.25, -4.8314E-05
DataValue, -0.090000000000000011, -0.25, -4.3632E-05
DataValue, -0.08, -0.25, -3.9406E-05
DataValue, -0.07, -0.25, -3.5422E-05
DataValue, -0.060000000000000005, -0.25, -3.1582000000000004E-05
DataValue, -0.05, -0.25, -2.8194E-05
DataValue, -0.04, -0.25, -2.4904E-05
DataValue, -0.030000000000000002, -0.25, -2.2014E-05
DataValue, -0.02, -0.25, -1.938E-05
DataValue, -0.01, -0.25, -1.6968E-05
DataValue, 0, -0.25, -1.4834E-05
DataValue, 0.01, -0.25, -1.2814E-05
DataValue, 0.02, -0.25, -1.0954E-05
DataValue, 0.030000000000000002, -0.25, -9.3220000000000016E-06
DataValue, 0.04, -0.25, -7.9497000000000012E-06
DataValue, 0.05, -0.25, -6.8056000000000005E-06
DataValue, 0.060000000000000005, -0.25, -5.7513E-06
DataValue, 0.07, -0.25, -4.8150000000000005E-06
