
SetupTitle, (c2) Transfer curve in LGP
PrimitiveTest, I/V Sweep
TestParameter, Context.MainFrame, B1500A
TestParameter, Channel.UnitType, SMU, SMU
TestParameter, Channel.Unit, SMU1:HR/AS, SMU2:HR/AS
TestParameter, Channel.IName, Ig, Id
TestParameter, Channel.VName, Vg, Vd
TestParameter, Channel.Mode, V, V
TestParameter, Channel.Func, VAR1, VAR2
TestParameter, Channel.Index, 
TestParameter, Channel.Time, 
TestParameter, Measurement.Port.Unit, SMU1:HR/AS, SMU2:HR/AS
TestParameter, Measurement.Port.SeriesResistor, NONE, NONE
TestParameter, Measurement.Port.Filter, ON, ON
TestParameter, Measurement.Port.OutputVoltageComparison, 0, 0
TestParameter, Measurement.Primary.Locus, Double
TestParameter, Measurement.Primary.Scale, LINEAR
TestParameter, Measurement.Primary.Start, 0.1
TestParameter, Measurement.Primary.Stop, -0.4
TestParameter, Measurement.Primary.Step, -0.01
TestParameter, Measurement.Primary.Compliance, 0.1
TestParameter, Measurement.Primary.PowerCompliance, 1
TestParameter, Measurement.Aborting.Condition, SKIP AT ANY ABNORMAL
TestParameter, Measurement.PostOutput.Value, START
TestParameter, Measurement.PostOutput.Retention, OFF
TestParameter, Measurement.Secondary.Start, -0.25
TestParameter, Measurement.Secondary.Count, 5
TestParameter, Measurement.Secondary.Step, 0
TestParameter, Measurement.Secondary.Compliance, 0.1
TestParameter, Measurement.Secondary.PowerCompliance, 1
TestParameter, Measurement.Bias.Source, 0.1, -0.25
TestParameter, Measurement.Bias.Compliance, 0.1, 0.1
TestParameter, Measurement.Monitor.Unit, SMU1:HR/AS, SMU2:HR/AS
TestParameter, Measurement.Monitor.Adc, HR ADC, HR ADC
TestParameter, Measurement.Monitor.Measurement, Compliance Side, Compliance Side
TestParameter, Measurement.Monitor.RangingMode, LIMITED, LIMITED
TestParameter, Measurement.Monitor.RangeBoundary, 1nA, 1nA
TestParameter, Measurement.Monitor.RangeRating, BY FULL RANGE, BY FULL RANGE
TestParameter, Measurement.Monitor.RangeRatingCoeff, 50, 50
TestParameter, Measurement.Timing.Hold, 0
TestParameter, Measurement.Timing.Delay, 0
TestParameter, Measurement.Adc.HighSpeed.Mode, AUTO
TestParameter, Measurement.Adc.HighSpeed.Coeff, 1
TestParameter, Measurement.Adc.HighResolution.AutoZero, OFF
TestParameter, Measurement.Adc.HighResolution.Mode, AUTO
TestParameter, Measurement.Adc.HighResolution.Coeff, 6
TestParameter, Measurement.WaitTime.Source.Coeff, 1
TestParameter, Measurement.WaitTime.Source.Offset, 0
TestParameter, Measurement.WaitTime.Monitor.Coeff, 1
TestParameter, Measurement.WaitTime.Monitor.Offset, 0
TestParameter, Output.Graph.Enabled, true
TestParameter, Output.Graph.AutoScaling, false
TestParameter, Output.Graph.XAxis.Data, Vg
TestParameter, Output.Graph.XAxis.Scale, Linear
TestParameter, Output.Graph.XAxis.Left, 0.60000000000000009
TestParameter, Output.Graph.XAxis.Right, -0.60000000000000009
TestParameter, Output.Graph.XAxis.RunTimeAutoScale, true
TestParameter, Output.Graph.YAxis.Data, Id
TestParameter, Output.Graph.YAxis.Scale, Linear
TestParameter, Output.Graph.YAxis.Bottom, -0.1
TestParameter, Output.Graph.YAxis.Top, 0.1
TestParameter, Output.Graph.YAxis.Group, 
TestParameter, Output.Graph.YAxis.RunTimeAutoScale, true
TestParameter, Output.List.Data, Vd, Vg, Id
TestParameter, AutoAnalysis.Interpolation, false
TestParameter, AutoAnalysis.Var2StepCount, 1
TestParameter, AutoAnalysis.Var2StepScript, 
TestParameter, AutoAnalysis.Line1.Enabled, false
TestParameter, AutoAnalysis.Line1.Type, 1
TestParameter, AutoAnalysis.Line1.Fix, True
TestParameter, AutoAnalysis.Line1.YAxis, 0
TestParameter, AutoAnalysis.Line1.Point1.Type, 0
TestParameter, AutoAnalysis.Line1.Point1.XY.X, 
TestParameter, AutoAnalysis.Line1.Point1.XY.Y, 
TestParameter, AutoAnalysis.Line1.Point1.Data.Var, 
TestParameter, AutoAnalysis.Line1.Point1.Data.Condition, 
TestParameter, AutoAnalysis.Line1.Point1.Data.Start, false
TestParameter, AutoAnalysis.Line1.Point1.Data.StartVar, 
TestParameter, AutoAnalysis.Line1.Point1.Data.StartCondition, 
TestParameter, AutoAnalysis.Line1.Point2.Type, 0
TestParameter, AutoAnalysis.Line1.Point2.XY.X, 
TestParameter, AutoAnalysis.Line1.Point2.XY.Y, 
TestParameter, AutoAnalysis.Line1.Point2.Data.Var, 
TestParameter, AutoAnalysis.Line1.Point2.Data.Condition, 
TestParameter, AutoAnalysis.Line1.Point2.Data.Start, false
TestParameter, AutoAnalysis.Line1.Point2.Data.StartVar, 
TestParameter, AutoAnalysis.Line1.Point2.Data.StartCondition, 
TestParameter, AutoAnalysis.Line1.GradientExpr, 0
TestParameter, AutoAnalysis.Line2.Enabled, false
TestParameter, AutoAnalysis.Line2.Type, 1
TestParameter, AutoAnalysis.Line2.Fix, True
TestParameter, AutoAnalysis.Line2.YAxis, 0
TestParameter, AutoAnalysis.Line2.Point1.Type, 0
TestParameter, AutoAnalysis.Line2.Point1.XY.X, 
TestParameter, AutoAnalysis.Line2.Point1.XY.Y, 
TestParameter, AutoAnalysis.Line2.Point1.Data.Var, 
TestParameter, AutoAnalysis.Line2.Point1.Data.Condition, 
TestParameter, AutoAnalysis.Line2.Point1.Data.Start, false
TestParameter, AutoAnalysis.Line2.Point1.Data.StartVar, 
TestParameter, AutoAnalysis.Line2.Point1.Data.StartCondition, 
TestParameter, AutoAnalysis.Line2.Point2.Type, 0
TestParameter, AutoAnalysis.Line2.Point2.XY.X, 
TestParameter, AutoAnalysis.Line2.Point2.XY.Y, 
TestParameter, AutoAnalysis.Line2.Point2.Data.Var, 
TestParameter, AutoAnalysis.Line2.Point2.Data.Condition, 
TestParameter, AutoAnalysis.Line2.Point2.Data.Start, false
TestParameter, AutoAnalysis.Line2.Point2.Data.StartVar, 
TestParameter, AutoAnalysis.Line2.Point2.Data.StartCondition, 
TestParameter, AutoAnalysis.Line2.GradientExpr, 0
TestParameter, AutoAnalysis.Marker.Enabled, false
TestParameter, AutoAnalysis.Marker.Data.Var, 
TestParameter, AutoAnalysis.Marker.Data.Condition, 
TestParameter, AutoAnalysis.Marker.Data.Start, false
TestParameter, AutoAnalysis.Marker.Data.StartVar, 
TestParameter, AutoAnalysis.Marker.Data.StartCondition, 
MetaData, TestRecord.EntryPoint, true
MetaData, TestRecord.RecordTime, 12/22/2024 05:03:47
MetaData, TestRecord.TestTarget, 
MetaData, TestRecord.IterationIndex, 1
MetaData, TestRecord.Preservation, true
MetaData, TestRecord.Flag, 
MetaData, TestRecord.Remarks, 0.625wt-s21c2
MetaData, TestRecord.LinkKey, 0d5644c2-7bff-4964-a872-e2811040c51f
MetaData, TestRecord.Parameters, 
Dimension1, 102, 102, 102
Dimension2, 5, 5, 5
DataName, Vg, Vd, Id
DataValue, 0.1, -0.25, -2.169E-05
DataValue, 0.090000000000000011, -0.25, -2.5792E-05
DataValue, 0.08, -0.25, -3.0682E-05
DataValue, 0.07, -0.25, -3.6492E-05
DataValue, 0.060000000000000005, -0.25, -4.3106000000000004E-05
DataValue, 0.05, -0.25, -5.0518E-05
DataValue, 0.04, -0.25, -5.9014E-05
DataValue, 0.030000000000000002, -0.25, -6.8464E-05
DataValue, 0.02, -0.25, -7.893E-05
DataValue, 0.01, -0.25, -9.0628E-05
DataValue, 0, -0.25, -0.00010352
DataValue, -0.01, -0.25, -0.00011966
DataValue, -0.02, -0.25, -0.00013434000000000002
DataValue, -0.030000000000000002, -0.25, -0.00015084
DataValue, -0.04, -0.25, -0.00016874000000000001
DataValue, -0.05, -0.25, -0.00018812
DataValue, -0.060000000000000005, -0.25, -0.00020868000000000002
DataValue, -0.07, -0.25, -0.00023092000000000002
DataValue, -0.08, -0.25, -0.00025456000000000003
DataValue, -0.090000000000000011, -0.25, -0.0002795
DataValue, -0.1, -0.25, -0.0003062
DataValue, -0.11, -0.25, -0.0003347
DataValue, -0.12000000000000001, -0.25, -0.00036392
DataValue, -0.13, -0.25, -0.00039468
DataValue, -0.14, -0.25, -0.00042732
DataValue, -0.15, -0.25, -0.00046102000000000003
DataValue, -0.16, -0.25, -0.00049570000000000007
DataValue, -0.17, -0.25, -0.00053222
DataValue, -0.18000000000000002, -0.25, -0.0005695
DataValue, -0.19, -0.25, -0.00060836000000000006
DataValue, -0.2, -0.25, -0.00064714
DataValue, -0.21000000000000002, -0.25, -0.00068746000000000009
DataValue, -0.22, -0.25, -0.00072992
DataValue, -0.23, -0.25, -0.00077094
DataValue, -0.24000000000000002, -0.25, -0.00081332000000000008
DataValue, -0.25, -0.25, -0.00085572
DataValue, -0.26, -0.25, -0.00089814000000000007
DataValue, -0.27, -0.25, -0.0009412200000000001
DataValue, -0.28, -0.25, -0.0009842
DataValue, -0.29000000000000004, -0.25, -0.00102668
DataValue, -0.3, -0.25, -0.0010692400000000002
DataValue, -0.31, -0.25, -0.0011113400000000002
DataValue, -0.32, -0.25, -0.0011594
DataValue, -0.33, -0.25, -0.0011978
DataValue, -0.34, -0.25, -0.0012366
DataValue, -0.35000000000000003, -0.25, -0.0012744
DataValue, -0.36000000000000004, -0.25, -0.0013112
DataValue, -0.37, -0.25, -0.0013466
DataValue, -0.38, -0.25, -0.001381
DataValue, -0.39, -0.25, -0.0014142
DataValue, -0.4, -0.25, -0.0014454000000000001
DataValue, -0.4, -0.25, -0.001447
DataValue, -0.39, -0.25, -0.0014212
DataValue, -0.38, -0.25, -0.0013928
DataValue, -0.37, -0.25, -0.001362
DataValue, -0.36000000000000004, -0.25, -0.00133
DataValue, -0.35000000000000003, -0.25, -0.0012964
DataValue, -0.34, -0.25, -0.0012606
DataValue, -0.33, -0.25, -0.0012246
DataValue, -0.32, -0.25, -0.0011870000000000001
DataValue, -0.31, -0.25, -0.0011478
DataValue, -0.3, -0.25, -0.0011082
DataValue, -0.29000000000000004, -0.25, -0.0010678
DataValue, -0.28, -0.25, -0.0010262000000000001
DataValue, -0.27, -0.25, -0.0009827
DataValue, -0.26, -0.25, -0.00094158
DataValue, -0.25, -0.25, -0.0008995
DataValue, -0.24000000000000002, -0.25, -0.0008576800000000001
DataValue, -0.23, -0.25, -0.00081584000000000008
DataValue, -0.22, -0.25, -0.00077330000000000009
DataValue, -0.21000000000000002, -0.25, -0.00073162
DataValue, -0.2, -0.25, -0.0006907
DataValue, -0.19, -0.25, -0.00064996
DataValue, -0.18000000000000002, -0.25, -0.0006101
DataValue, -0.17, -0.25, -0.00057154
DataValue, -0.16, -0.25, -0.00053332
DataValue, -0.15, -0.25, -0.00049672000000000008
DataValue, -0.14, -0.25, -0.00046132000000000004
DataValue, -0.13, -0.25, -0.00042704
DataValue, -0.12000000000000001, -0.25, -0.00039398000000000005
DataValue, -0.11, -0.25, -0.00036186000000000004
DataValue, -0.1, -0.25, -0.00033226
DataValue, -0.090000000000000011, -0.25, -0.00030366000000000003
DataValue, -0.08, -0.25, -0.0002764
DataValue, -0.07, -0.25, -0.0002509
DataValue, -0.060000000000000005, -0.25, -0.00022694000000000002
DataValue, -0.05, -0.25, -0.00020390000000000002
DataValue, -0.04, -0.25, -0.00018292000000000002
DataValue, -0.030000000000000002, -0.25, -0.00016344000000000002
DataValue, -0.02, -0.25, -0.00014512000000000002
DataValue, -0.01, -0.25, -0.0001283
DataValue, 0, -0.25, -0.00011284000000000001
DataValue, 0.01, -0.25, -9.7882000000000009E-05
DataValue, 0.02, -0.25, -8.5284E-05
DataValue, 0.030000000000000002, -0.25, -7.3982E-05
DataValue, 0.04, -0.25, -6.367E-05
DataValue, 0.05, -0.25, -5.4168E-05
DataValue, 0.060000000000000005, -0.25, -4.5916E-05
DataValue, 0.07, -0.25, -3.8634E-05
DataValue, 0.08, -0.25, -3.2026E-05
DataValue, 0.090000000000000011, -0.25, -2.6352E-05
DataValue, 0.1, -0.25, -2.1374000000000002E-05
DataValue, 0.1, -0.25, -1.796E-05
DataValue, 0.090000000000000011, -0.25, -2.1712E-05
DataValue, 0.08, -0.25, -2.6128E-05
DataValue, 0.07, -0.25, -3.1252E-05
DataValue, 0.060000000000000005, -0.25, -3.7218E-05
DataValue, 0.05, -0.25, -4.4032E-05
DataValue, 0.04, -0.25, -5.1636000000000005E-05
DataValue, 0.030000000000000002, -0.25, -6.0254E-05
DataValue, 0.02, -0.25, -7.004E-05
DataValue, 0.01, -0.25, -8.0818E-05
DataValue, 0, -0.25, -9.2748E-05
DataValue, -0.01, -0.25, -0.000106118
DataValue, -0.02, -0.25, -0.00012392000000000002
DataValue, -0.030000000000000002, -0.25, -0.0001392
DataValue, -0.04, -0.25, -0.00015618
DataValue, -0.05, -0.25, -0.00017474000000000002
DataValue, -0.060000000000000005, -0.25, -0.00019482
DataValue, -0.07, -0.25, -0.00021610000000000002
DataValue, -0.08, -0.25, -0.00023968
DataValue, -0.090000000000000011, -0.25, -0.00026404
DataValue, -0.1, -0.25, -0.00028998
DataValue, -0.11, -0.25, -0.00031812
DataValue, -0.12000000000000001, -0.25, -0.00034722
DataValue, -0.13, -0.25, -0.0003778
DataValue, -0.14, -0.25, -0.00041028
DataValue, -0.15, -0.25, -0.000444
DataValue, -0.16, -0.25, -0.00047906
DataValue, -0.17, -0.25, -0.00051560000000000006
DataValue, -0.18000000000000002, -0.25, -0.00055294
DataValue, -0.19, -0.25, -0.00059258
DataValue, -0.2, -0.25, -0.00063174
DataValue, -0.21000000000000002, -0.25, -0.00067208
DataValue, -0.22, -0.25, -0.0007138
DataValue, -0.23, -0.25, -0.000756
DataValue, -0.24000000000000002, -0.25, -0.00079832
DataValue, -0.25, -0.25, -0.00084304000000000009
DataValue, -0.26, -0.25, -0.0008874000000000001
DataValue, -0.27, -0.25, -0.00093060000000000007
DataValue, -0.28, -0.25, -0.00097402
DataValue, -0.29000000000000004, -0.25, -0.0010176200000000001
DataValue, -0.3, -0.25, -0.00106058
DataValue, -0.31, -0.25, -0.00110306
DataValue, -0.32, -0.25, -0.0011451
DataValue, -0.33, -0.25, -0.001197
DataValue, -0.34, -0.25, -0.0012348
DataValue, -0.35000000000000003, -0.25, -0.0012722
DataValue, -0.36000000000000004, -0.25, -0.0013084
DataValue, -0.37, -0.25, -0.0013438
DataValue, -0.38, -0.25, -0.0013776
DataValue, -0.39, -0.25, -0.00141
DataValue, -0.4, -0.25, -0.0014412000000000001
DataValue, -0.4, -0.25, -0.0014428
DataValue, -0.39, -0.25, -0.0014166
DataValue, -0.38, -0.25, -0.0013882
DataValue, -0.37, -0.25, -0.0013582
DataValue, -0.36000000000000004, -0.25, -0.0013256000000000001
DataValue, -0.35000000000000003, -0.25, -0.0012916
DataValue, -0.34, -0.25, -0.0012568
DataValue, -0.33, -0.25, -0.0012206
DataValue, -0.32, -0.25, -0.0011826
DataValue, -0.31, -0.25, -0.001144
DataValue, -0.3, -0.25, -0.0011044
DataValue, -0.29000000000000004, -0.25, -0.0010636
DataValue, -0.28, -0.25, -0.0010222
DataValue, -0.27, -0.25, -0.00097842
DataValue, -0.26, -0.25, -0.00093702000000000011
DataValue, -0.25, -0.25, -0.0008949
DataValue, -0.24000000000000002, -0.25, -0.00085272000000000006
DataValue, -0.23, -0.25, -0.0008097200000000001
DataValue, -0.22, -0.25, -0.00076744000000000009
DataValue, -0.21000000000000002, -0.25, -0.00072586
DataValue, -0.2, -0.25, -0.00068432000000000009
DataValue, -0.19, -0.25, -0.00064334000000000006
DataValue, -0.18000000000000002, -0.25, -0.00060346
DataValue, -0.17, -0.25, -0.00056414000000000008
DataValue, -0.16, -0.25, -0.00052582000000000009
DataValue, -0.15, -0.25, -0.00048898000000000008
DataValue, -0.14, -0.25, -0.00045322000000000006
DataValue, -0.13, -0.25, -0.00041858000000000005
DataValue, -0.12000000000000001, -0.25, -0.00038566
DataValue, -0.11, -0.25, -0.00035406
DataValue, -0.1, -0.25, -0.00032368
DataValue, -0.090000000000000011, -0.25, -0.00029506000000000004
DataValue, -0.08, -0.25, -0.00026812
DataValue, -0.07, -0.25, -0.00024258000000000003
DataValue, -0.060000000000000005, -0.25, -0.00021862000000000002
DataValue, -0.05, -0.25, -0.00019652000000000002
DataValue, -0.04, -0.25, -0.00017556
DataValue, -0.030000000000000002, -0.25, -0.0001563
DataValue, -0.02, -0.25, -0.00013848000000000002
DataValue, -0.01, -0.25, -0.00012214000000000002
DataValue, 0, -0.25, -0.00010708000000000001
DataValue, 0.01, -0.25, -9.257E-05
DataValue, 0.02, -0.25, -8.062E-05
DataValue, 0.030000000000000002, -0.25, -6.9512000000000008E-05
DataValue, 0.04, -0.25, -5.975E-05
DataValue, 0.05, -0.25, -5.0904E-05
DataValue, 0.060000000000000005, -0.25, -4.2862000000000004E-05
DataValue, 0.07, -0.25, -3.594E-05
DataValue, 0.08, -0.25, -2.9782E-05
DataValue, 0.090000000000000011, -0.25, -2.4568E-05
DataValue, 0.1, -0.25, -1.9980000000000002E-05
DataValue, 0.1, -0.25, -1.717E-05
DataValue, 0.090000000000000011, -0.25, -2.0802000000000002E-05
DataValue, 0.08, -0.25, -2.5042000000000002E-05
DataValue, 0.07, -0.25, -2.998E-05
DataValue, 0.060000000000000005, -0.25, -3.5756E-05
DataValue, 0.05, -0.25, -4.2304E-05
DataValue, 0.04, -0.25, -4.9668E-05
DataValue, 0.030000000000000002, -0.25, -5.8136E-05
DataValue, 0.02, -0.25, -6.761E-05
DataValue, 0.01, -0.25, -7.8084E-05
DataValue, 0, -0.25, -8.9768E-05
DataValue, -0.01, -0.25, -0.000102804
DataValue, -0.02, -0.25, -0.00012018
DataValue, -0.030000000000000002, -0.25, -0.00013516
DataValue, -0.04, -0.25, -0.00015188000000000002
DataValue, -0.05, -0.25, -0.00017032
DataValue, -0.060000000000000005, -0.25, -0.0001898
DataValue, -0.07, -0.25, -0.00021094
DataValue, -0.08, -0.25, -0.00023400000000000002
DataValue, -0.090000000000000011, -0.25, -0.00025818
DataValue, -0.1, -0.25, -0.0002841
DataValue, -0.11, -0.25, -0.00031194
DataValue, -0.12000000000000001, -0.25, -0.00034092000000000004
DataValue, -0.13, -0.25, -0.00037188
DataValue, -0.14, -0.25, -0.0004038
DataValue, -0.15, -0.25, -0.00043732000000000005
DataValue, -0.16, -0.25, -0.00047258
DataValue, -0.17, -0.25, -0.00050852
DataValue, -0.18000000000000002, -0.25, -0.00054598000000000005
DataValue, -0.19, -0.25, -0.00058562
DataValue, -0.2, -0.25, -0.00062484
DataValue, -0.21000000000000002, -0.25, -0.00066562
DataValue, -0.22, -0.25, -0.00070806
DataValue, -0.23, -0.25, -0.00075004
DataValue, -0.24000000000000002, -0.25, -0.00079254
DataValue, -0.25, -0.25, -0.00083622
DataValue, -0.26, -0.25, -0.0008800800000000001
DataValue, -0.27, -0.25, -0.00092352
DataValue, -0.28, -0.25, -0.00096910000000000008
DataValue, -0.29000000000000004, -0.25, -0.0010134200000000001
DataValue, -0.3, -0.25, -0.00105638
DataValue, -0.31, -0.25, -0.00109884
DataValue, -0.32, -0.25, -0.0011411000000000001
DataValue, -0.33, -0.25, -0.001194
DataValue, -0.34, -0.25, -0.0012318000000000001
DataValue, -0.35000000000000003, -0.25, -0.0012688
DataValue, -0.36000000000000004, -0.25, -0.0013048
DataValue, -0.37, -0.25, -0.0013406
DataValue, -0.38, -0.25, -0.0013748
DataValue, -0.39, -0.25, -0.001407
DataValue, -0.4, -0.25, -0.0014384
DataValue, -0.4, -0.25, -0.0014404
DataValue, -0.39, -0.25, -0.0014142
DataValue, -0.38, -0.25, -0.0013854
DataValue, -0.37, -0.25, -0.0013552
DataValue, -0.36000000000000004, -0.25, -0.0013234
DataValue, -0.35000000000000003, -0.25, -0.0012892000000000001
DataValue, -0.34, -0.25, -0.0012544000000000001
DataValue, -0.33, -0.25, -0.0012182
DataValue, -0.32, -0.25, -0.0011802
DataValue, -0.31, -0.25, -0.0011416
DataValue, -0.3, -0.25, -0.0011022
DataValue, -0.29000000000000004, -0.25, -0.0010612
DataValue, -0.28, -0.25, -0.0010196
DataValue, -0.27, -0.25, -0.00097548
DataValue, -0.26, -0.25, -0.00093402
DataValue, -0.25, -0.25, -0.00089204000000000009
DataValue, -0.24000000000000002, -0.25, -0.00084958000000000006
DataValue, -0.23, -0.25, -0.00080716
DataValue, -0.22, -0.25, -0.00076478000000000006
DataValue, -0.21000000000000002, -0.25, -0.00072256
DataValue, -0.2, -0.25, -0.00068120000000000008
DataValue, -0.19, -0.25, -0.00064014000000000009
DataValue, -0.18000000000000002, -0.25, -0.00059974000000000008
DataValue, -0.17, -0.25, -0.0005609
DataValue, -0.16, -0.25, -0.00052184000000000009
DataValue, -0.15, -0.25, -0.00048516000000000005
DataValue, -0.14, -0.25, -0.00044966
DataValue, -0.13, -0.25, -0.00041494000000000004
DataValue, -0.12000000000000001, -0.25, -0.00038202
DataValue, -0.11, -0.25, -0.00035054000000000004
DataValue, -0.1, -0.25, -0.00032030000000000003
DataValue, -0.090000000000000011, -0.25, -0.00029168
DataValue, -0.08, -0.25, -0.00026456
DataValue, -0.07, -0.25, -0.00023918000000000002
DataValue, -0.060000000000000005, -0.25, -0.0002156
DataValue, -0.05, -0.25, -0.00019292000000000002
DataValue, -0.04, -0.25, -0.00017252
DataValue, -0.030000000000000002, -0.25, -0.00015360000000000002
DataValue, -0.02, -0.25, -0.00013574
DataValue, -0.01, -0.25, -0.00011960000000000001
DataValue, 0, -0.25, -0.0001049
DataValue, 0.01, -0.25, -9.041E-05
DataValue, 0.02, -0.25, -7.8662E-05
DataValue, 0.030000000000000002, -0.25, -6.7884E-05
DataValue, 0.04, -0.25, -5.8226E-05
DataValue, 0.05, -0.25, -4.931E-05
DataValue, 0.060000000000000005, -0.25, -4.1728000000000004E-05
DataValue, 0.07, -0.25, -3.5036E-05
DataValue, 0.08, -0.25, -2.903E-05
DataValue, 0.090000000000000011, -0.25, -2.3872E-05
DataValue, 0.1, -0.25, -1.9486E-05
DataValue, 0.1, -0.25, -1.7788E-05
DataValue, 0.090000000000000011, -0.25, -2.1442000000000002E-05
DataValue, 0.08, -0.25, -2.5762000000000002E-05
DataValue, 0.07, -0.25, -3.0936E-05
DataValue, 0.060000000000000005, -0.25, -3.6804E-05
