
SetupTitle, (c1) Output curve in LGP
PrimitiveTest, I/V Sweep
TestParameter, Context.MainFrame, B1500A
TestParameter, Channel.UnitType, SMU, SMU
TestParameter, Channel.Unit, SMU1:HR/AS, SMU2:HR/AS
TestParameter, Channel.IName, Ig, Id
TestParameter, Channel.VName, Vg, Vd
TestParameter, Channel.Mode, V, V
TestParameter, Channel.Func, VAR2, VAR1
TestParameter, Channel.Index, 
TestParameter, Channel.Time, 
TestParameter, Measurement.Port.Unit, SMU1:HR/AS, SMU2:HR/AS
TestParameter, Measurement.Port.SeriesResistor, NONE, NONE
TestParameter, Measurement.Port.Filter, ON, ON
TestParameter, Measurement.Port.OutputVoltageComparison, 0, 0
TestParameter, Measurement.Primary.Locus, Double
TestParameter, Measurement.Primary.Scale, LINEAR
TestParameter, Measurement.Primary.Start, 0.1
TestParameter, Measurement.Primary.Stop, -0.5
TestParameter, Measurement.Primary.Step, -0.012
TestParameter, Measurement.Primary.Compliance, 0.1
TestParameter, Measurement.Primary.PowerCompliance, 0
TestParameter, Measurement.Aborting.Condition, CONTINUE AT ANY
TestParameter, Measurement.PostOutput.Value, START
TestParameter, Measurement.PostOutput.Retention, OFF
TestParameter, Measurement.Secondary.Start, 0.1
TestParameter, Measurement.Secondary.Count, 6
TestParameter, Measurement.Secondary.Step, -0.1
TestParameter, Measurement.Secondary.Compliance, 0.0001
TestParameter, Measurement.Secondary.PowerCompliance, 0
TestParameter, Measurement.Bias.Source, 0.1, 0.1
TestParameter, Measurement.Bias.Compliance, 0.0001, 0.1
TestParameter, Measurement.Monitor.Unit, SMU1:HR/AS, SMU2:HR/AS
TestParameter, Measurement.Monitor.Adc, HR ADC, HR ADC
TestParameter, Measurement.Monitor.Measurement, Compliance Side, Compliance Side
TestParameter, Measurement.Monitor.RangingMode, LIMITED, LIMITED
TestParameter, Measurement.Monitor.RangeBoundary, 1nA, 1nA
TestParameter, Measurement.Monitor.RangeRating, BY FULL RANGE, BY FULL RANGE
TestParameter, Measurement.Monitor.RangeRatingCoeff, 50, 50
TestParameter, Measurement.Timing.Hold, 0
TestParameter, Measurement.Timing.Delay, 0
TestParameter, Measurement.Adc.HighSpeed.Mode, AUTO
TestParameter, Measurement.Adc.HighSpeed.Coeff, 1
TestParameter, Measurement.Adc.HighResolution.AutoZero, OFF
TestParameter, Measurement.Adc.HighResolution.Mode, AUTO
TestParameter, Measurement.Adc.HighResolution.Coeff, 6
TestParameter, Measurement.WaitTime.Source.Coeff, 1
TestParameter, Measurement.WaitTime.Source.Offset, 0
TestParameter, Measurement.WaitTime.Monitor.Coeff, 1
TestParameter, Measurement.WaitTime.Monitor.Offset, 0
TestParameter, Output.Graph.Enabled, true
TestParameter, Output.Graph.AutoScaling, false
TestParameter, Output.Graph.XAxis.Data, Vd
TestParameter, Output.Graph.XAxis.Scale, Linear
TestParameter, Output.Graph.XAxis.Left, 0
TestParameter, Output.Graph.XAxis.Right, -0.5
TestParameter, Output.Graph.XAxis.RunTimeAutoScale, true
TestParameter, Output.Graph.YAxis.Data, Id
TestParameter, Output.Graph.YAxis.Scale, Linear
TestParameter, Output.Graph.YAxis.Bottom, -0.1
TestParameter, Output.Graph.YAxis.Top, 0.1
TestParameter, Output.Graph.YAxis.Group, 
TestParameter, Output.Graph.YAxis.RunTimeAutoScale, true
TestParameter, Output.List.Data, Vd, Vg, Id
TestParameter, AutoAnalysis.Interpolation, false
TestParameter, AutoAnalysis.Var2StepCount, 1
TestParameter, AutoAnalysis.Var2StepScript, 
TestParameter, AutoAnalysis.Line1.Enabled, false
TestParameter, AutoAnalysis.Line1.Type, 1
TestParameter, AutoAnalysis.Line1.Fix, True
TestParameter, AutoAnalysis.Line1.YAxis, 0
TestParameter, AutoAnalysis.Line1.Point1.Type, 0
TestParameter, AutoAnalysis.Line1.Point1.XY.X, 
TestParameter, AutoAnalysis.Line1.Point1.XY.Y, 
TestParameter, AutoAnalysis.Line1.Point1.Data.Var, 
TestParameter, AutoAnalysis.Line1.Point1.Data.Condition, 
TestParameter, AutoAnalysis.Line1.Point1.Data.Start, false
TestParameter, AutoAnalysis.Line1.Point1.Data.StartVar, 
TestParameter, AutoAnalysis.Line1.Point1.Data.StartCondition, 
TestParameter, AutoAnalysis.Line1.Point2.Type, 0
TestParameter, AutoAnalysis.Line1.Point2.XY.X, 
TestParameter, AutoAnalysis.Line1.Point2.XY.Y, 
TestParameter, AutoAnalysis.Line1.Point2.Data.Var, 
TestParameter, AutoAnalysis.Line1.Point2.Data.Condition, 
TestParameter, AutoAnalysis.Line1.Point2.Data.Start, false
TestParameter, AutoAnalysis.Line1.Point2.Data.StartVar, 
TestParameter, AutoAnalysis.Line1.Point2.Data.StartCondition, 
TestParameter, AutoAnalysis.Line1.GradientExpr, 0
TestParameter, AutoAnalysis.Line2.Enabled, false
TestParameter, AutoAnalysis.Line2.Type, 1
TestParameter, AutoAnalysis.Line2.Fix, True
TestParameter, AutoAnalysis.Line2.YAxis, 0
TestParameter, AutoAnalysis.Line2.Point1.Type, 0
TestParameter, AutoAnalysis.Line2.Point1.XY.X, 
TestParameter, AutoAnalysis.Line2.Point1.XY.Y, 
TestParameter, AutoAnalysis.Line2.Point1.Data.Var, 
TestParameter, AutoAnalysis.Line2.Point1.Data.Condition, 
TestParameter, AutoAnalysis.Line2.Point1.Data.Start, false
TestParameter, AutoAnalysis.Line2.Point1.Data.StartVar, 
TestParameter, AutoAnalysis.Line2.Point1.Data.StartCondition, 
TestParameter, AutoAnalysis.Line2.Point2.Type, 0
TestParameter, AutoAnalysis.Line2.Point2.XY.X, 
TestParameter, AutoAnalysis.Line2.Point2.XY.Y, 
TestParameter, AutoAnalysis.Line2.Point2.Data.Var, 
TestParameter, AutoAnalysis.Line2.Point2.Data.Condition, 
TestParameter, AutoAnalysis.Line2.Point2.Data.Start, false
TestParameter, AutoAnalysis.Line2.Point2.Data.StartVar, 
TestParameter, AutoAnalysis.Line2.Point2.Data.StartCondition, 
TestParameter, AutoAnalysis.Line2.GradientExpr, 0
TestParameter, AutoAnalysis.Marker.Enabled, false
TestParameter, AutoAnalysis.Marker.Data.Var, 
TestParameter, AutoAnalysis.Marker.Data.Condition, 
TestParameter, AutoAnalysis.Marker.Data.Start, false
TestParameter, AutoAnalysis.Marker.Data.StartVar, 
TestParameter, AutoAnalysis.Marker.Data.StartCondition, 
MetaData, TestRecord.EntryPoint, true
MetaData, TestRecord.RecordTime, 12/22/2024 05:02:59
MetaData, TestRecord.TestTarget, 
MetaData, TestRecord.IterationIndex, 1
MetaData, TestRecord.Preservation, true
MetaData, TestRecord.Flag, 
MetaData, TestRecord.Remarks, 0.625wt-s21c2
MetaData, TestRecord.LinkKey, 74f92427-0625-490e-b2b6-7ecc88dcc7b9
MetaData, TestRecord.Parameters, 
Dimension1, 102, 102, 102
Dimension2, 6, 6, 6
DataName, Vd, Vg, Id
DataValue, 0.1, 0.1, 8.0496E-05
DataValue, 0.088000000000000009, 0.1, 6.6002E-05
DataValue, 0.076, 0.1, 5.2912000000000004E-05
DataValue, 0.064, 0.1, 4.1262E-05
DataValue, 0.052000000000000005, 0.1, 3.0886E-05
DataValue, 0.04, 0.1, 2.182E-05
DataValue, 0.028, 0.1, 1.4040000000000001E-05
DataValue, 0.016, 0.1, 7.2269000000000011E-06
DataValue, 0.004, 0.1, 1.6388E-06
DataValue, -0.008, 0.1, -3.0560000000000005E-06
DataValue, -0.02, 0.1, -6.915900000000001E-06
DataValue, -0.032, 0.1, -9.912800000000001E-06
DataValue, -0.044000000000000004, 0.1, -1.1796E-05
DataValue, -0.056, 0.1, -1.3618E-05
DataValue, -0.068, 0.1, -1.4954000000000001E-05
DataValue, -0.08, 0.1, -1.5988E-05
DataValue, -0.092, 0.1, -1.6674E-05
DataValue, -0.10400000000000001, 0.1, -1.7088E-05
DataValue, -0.116, 0.1, -1.739E-05
DataValue, -0.128, 0.1, -1.7596000000000002E-05
DataValue, -0.14, 0.1, -1.7632E-05
DataValue, -0.152, 0.1, -1.7650000000000002E-05
DataValue, -0.164, 0.1, -1.7708E-05
DataValue, -0.17600000000000002, 0.1, -1.7682E-05
DataValue, -0.188, 0.1, -1.7630000000000002E-05
DataValue, -0.2, 0.1, -1.762E-05
DataValue, -0.21200000000000002, 0.1, -1.7606E-05
DataValue, -0.224, 0.1, -1.7522E-05
DataValue, -0.23600000000000002, 0.1, -1.7464E-05
DataValue, -0.248, 0.1, -1.7472E-05
DataValue, -0.26, 0.1, -1.741E-05
DataValue, -0.272, 0.1, -1.7334E-05
DataValue, -0.28400000000000003, 0.1, -1.7334E-05
DataValue, -0.29600000000000004, 0.1, -1.732E-05
DataValue, -0.308, 0.1, -1.7232E-05
DataValue, -0.32, 0.1, -1.7186E-05
DataValue, -0.332, 0.1, -1.7194000000000002E-05
DataValue, -0.34400000000000003, 0.1, -1.7138E-05
DataValue, -0.35600000000000004, 0.1, -1.7064E-05
DataValue, -0.368, 0.1, -1.7094E-05
DataValue, -0.38, 0.1, -1.7062E-05
DataValue, -0.392, 0.1, -1.7E-05
DataValue, -0.404, 0.1, -1.6968E-05
DataValue, -0.41600000000000004, 0.1, -1.6984000000000002E-05
DataValue, -0.42800000000000005, 0.1, -1.6954E-05
DataValue, -0.44, 0.1, -1.6876E-05
DataValue, -0.452, 0.1, -1.6874E-05
DataValue, -0.464, 0.1, -1.687E-05
DataValue, -0.47600000000000003, 0.1, -1.6818E-05
DataValue, -0.48800000000000004, 0.1, -1.6786E-05
DataValue, -0.5, 0.1, -1.6826E-05
DataValue, -0.5, 0.1, -1.6812E-05
DataValue, -0.48800000000000004, 0.1, -1.6724E-05
DataValue, -0.47600000000000003, 0.1, -1.6674E-05
DataValue, -0.464, 0.1, -1.667E-05
DataValue, -0.452, 0.1, -1.6658000000000002E-05
DataValue, -0.44, 0.1, -1.6574E-05
DataValue, -0.42800000000000005, 0.1, -1.6556000000000002E-05
DataValue, -0.41600000000000004, 0.1, -1.656E-05
DataValue, -0.404, 0.1, -1.6518E-05
DataValue, -0.392, 0.1, -1.6436E-05
DataValue, -0.38, 0.1, -1.6444E-05
DataValue, -0.368, 0.1, -1.6444E-05
DataValue, -0.35600000000000004, 0.1, -1.6356E-05
DataValue, -0.34400000000000003, 0.1, -1.631E-05
DataValue, -0.332, 0.1, -1.6314E-05
DataValue, -0.32, 0.1, -1.63E-05
DataValue, -0.308, 0.1, -1.6212E-05
DataValue, -0.29600000000000004, 0.1, -1.6166E-05
DataValue, -0.28400000000000003, 0.1, -1.6158E-05
DataValue, -0.272, 0.1, -1.6116E-05
DataValue, -0.26, 0.1, -1.6016E-05
DataValue, -0.248, 0.1, -1.595E-05
DataValue, -0.23600000000000002, 0.1, -1.5924000000000002E-05
DataValue, -0.224, 0.1, -1.5870000000000002E-05
DataValue, -0.21200000000000002, 0.1, -1.5736E-05
DataValue, -0.2, 0.1, -1.5648E-05
DataValue, -0.188, 0.1, -1.5634E-05
DataValue, -0.17600000000000002, 0.1, -1.5506E-05
DataValue, -0.164, 0.1, -1.5332E-05
DataValue, -0.152, 0.1, -1.5234E-05
DataValue, -0.14, 0.1, -1.5074E-05
DataValue, -0.128, 0.1, -1.4818000000000001E-05
DataValue, -0.116, 0.1, -1.4514E-05
DataValue, -0.10400000000000001, 0.1, -1.4146E-05
DataValue, -0.092, 0.1, -1.3680000000000001E-05
DataValue, -0.08, 0.1, -1.302E-05
DataValue, -0.068, 0.1, -1.2114000000000001E-05
DataValue, -0.056, 0.1, -1.1018E-05
DataValue, -0.044000000000000004, 0.1, -9.6294000000000014E-06
DataValue, -0.032, 0.1, -7.7222E-06
DataValue, -0.02, 0.1, -5.3895000000000007E-06
DataValue, -0.008, 0.1, -2.3708000000000002E-06
DataValue, 0.004, 0.1, 1.309E-06
DataValue, 0.016, 0.1, 5.7289E-06
DataValue, 0.028, 0.1, 1.11162E-05
DataValue, 0.04, 0.1, 1.7942000000000002E-05
DataValue, 0.052000000000000005, 0.1, 2.5466E-05
DataValue, 0.064, 0.1, 3.4266E-05
DataValue, 0.076, 0.1, 4.4462E-05
DataValue, 0.088000000000000009, 0.1, 5.5986E-05
DataValue, 0.1, 0.1, 6.9092000000000009E-05
DataValue, 0.1, 0, 0.00018460000000000002
DataValue, 0.088000000000000009, 0, 0.00015576
DataValue, 0.076, 0, 0.00012854
DataValue, 0.064, 0, 0.00010316000000000001
DataValue, 0.052000000000000005, 0, 7.987E-05
DataValue, 0.04, 0, 5.8388000000000004E-05
DataValue, 0.028, 0, 3.881E-05
DataValue, 0.016, 0, 2.1036E-05
DataValue, 0.004, 0, 4.8401000000000005E-06
DataValue, -0.008, 0, -9.5322000000000017E-06
DataValue, -0.02, 0, -2.2444E-05
DataValue, -0.032, 0, -3.3808E-05
DataValue, -0.044000000000000004, 0, -4.3862E-05
DataValue, -0.056, 0, -5.2688E-05
DataValue, -0.068, 0, -6.024E-05
DataValue, -0.08, 0, -6.66E-05
DataValue, -0.092, 0, -7.2094E-05
DataValue, -0.10400000000000001, 0, -7.6702E-05
DataValue, -0.116, 0, -8.0424E-05
DataValue, -0.128, 0, -8.338E-05
DataValue, -0.14, 0, -8.583600000000001E-05
DataValue, -0.152, 0, -8.767E-05
DataValue, -0.164, 0, -8.9152E-05
DataValue, -0.17600000000000002, 0, -9.0284E-05
DataValue, -0.188, 0, -9.1188000000000009E-05
DataValue, -0.2, 0, -9.1866E-05
DataValue, -0.21200000000000002, 0, -9.2294000000000008E-05
DataValue, -0.224, 0, -9.2776000000000008E-05
DataValue, -0.23600000000000002, 0, -9.312E-05
DataValue, -0.248, 0, -9.3304E-05
DataValue, -0.26, 0, -9.3532E-05
DataValue, -0.272, 0, -9.3786E-05
DataValue, -0.28400000000000003, 0, -9.3874E-05
DataValue, -0.29600000000000004, 0, -9.3946E-05
DataValue, -0.308, 0, -9.416E-05
DataValue, -0.32, 0, -9.424800000000001E-05
DataValue, -0.332, 0, -9.4290000000000007E-05
DataValue, -0.34400000000000003, 0, -9.4398E-05
DataValue, -0.35600000000000004, 0, -9.4524E-05
DataValue, -0.368, 0, -9.4572E-05
DataValue, -0.38, 0, -9.449E-05
DataValue, -0.392, 0, -9.4632E-05
DataValue, -0.404, 0, -9.4674000000000009E-05
DataValue, -0.41600000000000004, 0, -9.4604E-05
DataValue, -0.42800000000000005, 0, -9.472400000000001E-05
DataValue, -0.44, 0, -9.4746E-05
DataValue, -0.452, 0, -9.4684E-05
DataValue, -0.464, 0, -9.4742000000000009E-05
DataValue, -0.47600000000000003, 0, -9.4808E-05
DataValue, -0.48800000000000004, 0, -9.4814E-05
DataValue, -0.5, 0, -9.4812E-05
DataValue, -0.5, 0, -9.4764E-05
DataValue, -0.48800000000000004, 0, -9.47E-05
DataValue, -0.47600000000000003, 0, -9.449E-05
DataValue, -0.464, 0, -9.4444E-05
DataValue, -0.452, 0, -9.444E-05
DataValue, -0.44, 0, -9.4272000000000008E-05
DataValue, -0.42800000000000005, 0, -9.4104E-05
DataValue, -0.41600000000000004, 0, -9.4092E-05
DataValue, -0.404, 0, -9.3974E-05
DataValue, -0.392, 0, -9.3782E-05
DataValue, -0.38, 0, -9.3692E-05
DataValue, -0.368, 0, -9.3564E-05
DataValue, -0.35600000000000004, 0, -9.3386E-05
DataValue, -0.34400000000000003, 0, -9.309E-05
DataValue, -0.332, 0, -9.2984E-05
DataValue, -0.32, 0, -9.281400000000001E-05
DataValue, -0.308, 0, -9.2528E-05
DataValue, -0.29600000000000004, 0, -9.2232000000000007E-05
DataValue, -0.28400000000000003, 0, -9.2116E-05
DataValue, -0.272, 0, -9.1766E-05
DataValue, -0.26, 0, -9.1376E-05
DataValue, -0.248, 0, -9.1064000000000008E-05
DataValue, -0.23600000000000002, 0, -9.0692E-05
DataValue, -0.224, 0, -9.0186000000000007E-05
DataValue, -0.21200000000000002, 0, -8.9566E-05
DataValue, -0.2, 0, -8.884600000000001E-05
DataValue, -0.188, 0, -8.8026E-05
DataValue, -0.17600000000000002, 0, -8.7062E-05
DataValue, -0.164, 0, -8.566E-05
DataValue, -0.152, 0, -8.409E-05
DataValue, -0.14, 0, -8.2302E-05
DataValue, -0.128, 0, -7.9828000000000009E-05
DataValue, -0.116, 0, -7.681E-05
DataValue, -0.10400000000000001, 0, -7.3338000000000008E-05
DataValue, -0.092, 0, -6.9078E-05
DataValue, -0.08, 0, -6.3876E-05
DataValue, -0.068, 0, -5.7786000000000005E-05
DataValue, -0.056, 0, -5.0626E-05
DataValue, -0.044000000000000004, 0, -4.2388E-05
DataValue, -0.032, 0, -3.2762E-05
DataValue, -0.02, 0, -2.173E-05
DataValue, -0.008, 0, -9.4111E-06
DataValue, 0.004, 0, 4.8512E-06
DataValue, 0.016, 0, 2.0870000000000002E-05
DataValue, 0.028, 0, 3.8632E-05
DataValue, 0.04, 0, 5.8328E-05
DataValue, 0.052000000000000005, 0, 7.9908000000000008E-05
DataValue, 0.064, 0, 0.000103478
DataValue, 0.076, 0, 0.00013056
DataValue, 0.088000000000000009, 0, 0.00015856
DataValue, 0.1, 0, 0.00018874
DataValue, 0.1, -0.1, 0.0003502
DataValue, 0.088000000000000009, -0.1, 0.00030078
DataValue, 0.076, -0.1, 0.00025288000000000003
DataValue, 0.064, -0.1, 0.00020706
DataValue, 0.052000000000000005, -0.1, 0.00016358
DataValue, 0.04, -0.1, 0.00012196
DataValue, 0.028, -0.1, 8.2768E-05
DataValue, 0.016, -0.1, 4.5796E-05
DataValue, 0.004, -0.1, 1.0746E-05
DataValue, -0.008, -0.1, -2.1782E-05
DataValue, -0.02, -0.1, -5.2144E-05
DataValue, -0.032, -0.1, -8.0542E-05
DataValue, -0.044000000000000004, -0.1, -0.000106682
DataValue, -0.056, -0.1, -0.00013020000000000002
DataValue, -0.068, -0.1, -0.00015234000000000002
DataValue, -0.08, -0.1, -0.00017262
DataValue, -0.092, -0.1, -0.00019094
DataValue, -0.10400000000000001, -0.1, -0.00020724
DataValue, -0.116, -0.1, -0.00022206000000000003
DataValue, -0.128, -0.1, -0.00023524
DataValue, -0.14, -0.1, -0.00024648000000000004
DataValue, -0.152, -0.1, -0.0002567
DataValue, -0.164, -0.1, -0.00026566000000000003
DataValue, -0.17600000000000002, -0.1, -0.00027312
DataValue, -0.188, -0.1, -0.00027938
DataValue, -0.2, -0.1, -0.00028484
DataValue, -0.21200000000000002, -0.1, -0.00028954
DataValue, -0.224, -0.1, -0.0002931
DataValue, -0.23600000000000002, -0.1, -0.00029614
DataValue, -0.248, -0.1, -0.00029866
DataValue, -0.26, -0.1, -0.00030070000000000004
DataValue, -0.272, -0.1, -0.0003021
DataValue, -0.28400000000000003, -0.1, -0.00030362
DataValue, -0.29600000000000004, -0.1, -0.00030480000000000004
DataValue, -0.308, -0.1, -0.0003057
DataValue, -0.32, -0.1, -0.00030642
DataValue, -0.332, -0.1, -0.00030704
DataValue, -0.34400000000000003, -0.1, -0.00030748
DataValue, -0.35600000000000004, -0.1, -0.00030808
DataValue, -0.368, -0.1, -0.00030868000000000003
DataValue, -0.38, -0.1, -0.00030904
DataValue, -0.392, -0.1, -0.00030940000000000004
DataValue, -0.404, -0.1, -0.00030984000000000003
DataValue, -0.41600000000000004, -0.1, -0.00031012000000000005
DataValue, -0.42800000000000005, -0.1, -0.0003101
DataValue, -0.44, -0.1, -0.00031058
DataValue, -0.452, -0.1, -0.00031074
DataValue, -0.464, -0.1, -0.00031058
DataValue, -0.47600000000000003, -0.1, -0.0003109
DataValue, -0.48800000000000004, -0.1, -0.00031098000000000003
DataValue, -0.5, -0.1, -0.00031104
DataValue, -0.5, -0.1, -0.0003108
DataValue, -0.48800000000000004, -0.1, -0.00031034000000000004
DataValue, -0.47600000000000003, -0.1, -0.00030992000000000004
DataValue, -0.464, -0.1, -0.00030926
DataValue, -0.452, -0.1, -0.00030884
DataValue, -0.44, -0.1, -0.00030838
DataValue, -0.42800000000000005, -0.1, -0.00030766
DataValue, -0.41600000000000004, -0.1, -0.00030718
DataValue, -0.404, -0.1, -0.00030678000000000004
DataValue, -0.392, -0.1, -0.000306
DataValue, -0.38, -0.1, -0.00030508
DataValue, -0.368, -0.1, -0.00030454
DataValue, -0.35600000000000004, -0.1, -0.00030392
DataValue, -0.34400000000000003, -0.1, -0.00030308
DataValue, -0.332, -0.1, -0.000302
DataValue, -0.32, -0.1, -0.00030128
DataValue, -0.308, -0.1, -0.00030000000000000003
DataValue, -0.29600000000000004, -0.1, -0.00029866
DataValue, -0.28400000000000003, -0.1, -0.00029712
DataValue, -0.272, -0.1, -0.0002955
DataValue, -0.26, -0.1, -0.00029362
DataValue, -0.248, -0.1, -0.00029092
DataValue, -0.23600000000000002, -0.1, -0.0002883
DataValue, -0.224, -0.1, -0.00028512000000000003
DataValue, -0.21200000000000002, -0.1, -0.00028102000000000004
DataValue, -0.2, -0.1, -0.00027636
DataValue, -0.188, -0.1, -0.00027112
DataValue, -0.17600000000000002, -0.1, -0.00026470000000000004
DataValue, -0.164, -0.1, -0.00025722
DataValue, -0.152, -0.1, -0.00024888
DataValue, -0.14, -0.1, -0.00023926
DataValue, -0.128, -0.1, -0.00022816
DataValue, -0.116, -0.1, -0.00021562000000000003
DataValue, -0.10400000000000001, -0.1, -0.00020148
DataValue, -0.092, -0.1, -0.00018584000000000002
DataValue, -0.08, -0.1, -0.00016834
DataValue, -0.068, -0.1, -0.00014882
DataValue, -0.056, -0.1, -0.00012754000000000002
DataValue, -0.044000000000000004, -0.1, -0.00010444000000000001
DataValue, -0.032, -0.1, -7.8966E-05
DataValue, -0.02, -0.1, -5.1332E-05
DataValue, -0.008, -0.1, -2.1484E-05
DataValue, 0.004, -0.1, 1.0712E-05
DataValue, 0.016, -0.1, 4.5274E-05
DataValue, 0.028, -0.1, 8.1972000000000007E-05
DataValue, 0.04, -0.1, 0.00012216
DataValue, 0.052000000000000005, -0.1, 0.00016388
DataValue, 0.064, -0.1, 0.00020802
DataValue, 0.076, -0.1, 0.00025456000000000003
DataValue, 0.088000000000000009, -0.1, 0.00030324000000000003
DataValue, 0.1, -0.1, 0.00035452000000000004
DataValue, 0.1, -0.2, 0.00051942
DataValue, 0.088000000000000009, -0.2, 0.00045154
DataValue, 0.076, -0.2, 0.00038454
DataValue, 0.064, -0.2, 0.0003191
DataValue, 0.052000000000000005, -0.2, 0.00025550000000000003
DataValue, 0.04, -0.2, 0.00019312000000000002
DataValue, 0.028, -0.2, 0.00013268
DataValue, 0.016, -0.2, 7.4532E-05
DataValue, 0.004, -0.2, 1.7840000000000002E-05
DataValue, -0.008, -0.2, -3.6442E-05
DataValue, -0.02, -0.2, -8.8732E-05
DataValue, -0.032, -0.2, -0.00013872
DataValue, -0.044000000000000004, -0.2, -0.00018682
DataValue, -0.056, -0.2, -0.00023228000000000002
DataValue, -0.068, -0.2, -0.00027558000000000004
DataValue, -0.08, -0.2, -0.00031674000000000003
DataValue, -0.092, -0.2, -0.0003553
DataValue, -0.10400000000000001, -0.2, -0.00039154
DataValue, -0.116, -0.2, -0.00042562000000000003
