
SetupTitle, (c1) Output curve in LGP
PrimitiveTest, I/V Sweep
TestParameter, Context.MainFrame, B1500A
TestParameter, Channel.UnitType, SMU, SMU
TestParameter, Channel.Unit, SMU1:HR/AS, SMU2:HR/AS
TestParameter, Channel.IName, Ig, Id
TestParameter, Channel.VName, Vg, Vd
TestParameter, Channel.Mode, V, V
TestParameter, Channel.Func, VAR2, VAR1
TestParameter, Channel.Index, 
TestParameter, Channel.Time, 
TestParameter, Measurement.Port.Unit, SMU1:HR/AS, SMU2:HR/AS
TestParameter, Measurement.Port.SeriesResistor, NONE, NONE
TestParameter, Measurement.Port.Filter, ON, ON
TestParameter, Measurement.Port.OutputVoltageComparison, 0, 0
TestParameter, Measurement.Primary.Locus, Double
TestParameter, Measurement.Primary.Scale, LINEAR
TestParameter, Measurement.Primary.Start, 0.1
TestParameter, Measurement.Primary.Stop, -0.5
TestParameter, Measurement.Primary.Step, -0.012
TestParameter, Measurement.Primary.Compliance, 0.1
TestParameter, Measurement.Primary.PowerCompliance, 0
TestParameter, Measurement.Aborting.Condition, CONTINUE AT ANY
TestParameter, Measurement.PostOutput.Value, START
TestParameter, Measurement.PostOutput.Retention, OFF
TestParameter, Measurement.Secondary.Start, 0.1
TestParameter, Measurement.Secondary.Count, 6
TestParameter, Measurement.Secondary.Step, -0.1
TestParameter, Measurement.Secondary.Compliance, 0.0001
TestParameter, Measurement.Secondary.PowerCompliance, 0
TestParameter, Measurement.Bias.Source, 0.1, 0.1
TestParameter, Measurement.Bias.Compliance, 0.0001, 0.1
TestParameter, Measurement.Monitor.Unit, SMU1:HR/AS, SMU2:HR/AS
TestParameter, Measurement.Monitor.Adc, HR ADC, HR ADC
TestParameter, Measurement.Monitor.Measurement, Compliance Side, Compliance Side
TestParameter, Measurement.Monitor.RangingMode, LIMITED, LIMITED
TestParameter, Measurement.Monitor.RangeBoundary, 1nA, 1nA
TestParameter, Measurement.Monitor.RangeRating, BY FULL RANGE, BY FULL RANGE
TestParameter, Measurement.Monitor.RangeRatingCoeff, 50, 50
TestParameter, Measurement.Timing.Hold, 0
TestParameter, Measurement.Timing.Delay, 0
TestParameter, Measurement.Adc.HighSpeed.Mode, AUTO
TestParameter, Measurement.Adc.HighSpeed.Coeff, 1
TestParameter, Measurement.Adc.HighResolution.AutoZero, OFF
TestParameter, Measurement.Adc.HighResolution.Mode, AUTO
TestParameter, Measurement.Adc.HighResolution.Coeff, 6
TestParameter, Measurement.WaitTime.Source.Coeff, 1
TestParameter, Measurement.WaitTime.Source.Offset, 0
TestParameter, Measurement.WaitTime.Monitor.Coeff, 1
TestParameter, Measurement.WaitTime.Monitor.Offset, 0
TestParameter, Output.Graph.Enabled, true
TestParameter, Output.Graph.AutoScaling, false
TestParameter, Output.Graph.XAxis.Data, Vd
TestParameter, Output.Graph.XAxis.Scale, Linear
TestParameter, Output.Graph.XAxis.Left, 0
TestParameter, Output.Graph.XAxis.Right, -0.5
TestParameter, Output.Graph.XAxis.RunTimeAutoScale, true
TestParameter, Output.Graph.YAxis.Data, Id
TestParameter, Output.Graph.YAxis.Scale, Linear
TestParameter, Output.Graph.YAxis.Bottom, -0.1
TestParameter, Output.Graph.YAxis.Top, 0.1
TestParameter, Output.Graph.YAxis.Group, 
TestParameter, Output.Graph.YAxis.RunTimeAutoScale, true
TestParameter, Output.List.Data, Vd, Vg, Id
TestParameter, AutoAnalysis.Interpolation, false
TestParameter, AutoAnalysis.Var2StepCount, 1
TestParameter, AutoAnalysis.Var2StepScript, 
TestParameter, AutoAnalysis.Line1.Enabled, false
TestParameter, AutoAnalysis.Line1.Type, 1
TestParameter, AutoAnalysis.Line1.Fix, True
TestParameter, AutoAnalysis.Line1.YAxis, 0
TestParameter, AutoAnalysis.Line1.Point1.Type, 0
TestParameter, AutoAnalysis.Line1.Point1.XY.X, 
TestParameter, AutoAnalysis.Line1.Point1.XY.Y, 
TestParameter, AutoAnalysis.Line1.Point1.Data.Var, 
TestParameter, AutoAnalysis.Line1.Point1.Data.Condition, 
TestParameter, AutoAnalysis.Line1.Point1.Data.Start, false
TestParameter, AutoAnalysis.Line1.Point1.Data.StartVar, 
TestParameter, AutoAnalysis.Line1.Point1.Data.StartCondition, 
TestParameter, AutoAnalysis.Line1.Point2.Type, 0
TestParameter, AutoAnalysis.Line1.Point2.XY.X, 
TestParameter, AutoAnalysis.Line1.Point2.XY.Y, 
TestParameter, AutoAnalysis.Line1.Point2.Data.Var, 
TestParameter, AutoAnalysis.Line1.Point2.Data.Condition, 
TestParameter, AutoAnalysis.Line1.Point2.Data.Start, false
TestParameter, AutoAnalysis.Line1.Point2.Data.StartVar, 
TestParameter, AutoAnalysis.Line1.Point2.Data.StartCondition, 
TestParameter, AutoAnalysis.Line1.GradientExpr, 0
TestParameter, AutoAnalysis.Line2.Enabled, false
TestParameter, AutoAnalysis.Line2.Type, 1
TestParameter, AutoAnalysis.Line2.Fix, True
TestParameter, AutoAnalysis.Line2.YAxis, 0
TestParameter, AutoAnalysis.Line2.Point1.Type, 0
TestParameter, AutoAnalysis.Line2.Point1.XY.X, 
TestParameter, AutoAnalysis.Line2.Point1.XY.Y, 
TestParameter, AutoAnalysis.Line2.Point1.Data.Var, 
TestParameter, AutoAnalysis.Line2.Point1.Data.Condition, 
TestParameter, AutoAnalysis.Line2.Point1.Data.Start, false
TestParameter, AutoAnalysis.Line2.Point1.Data.StartVar, 
TestParameter, AutoAnalysis.Line2.Point1.Data.StartCondition, 
TestParameter, AutoAnalysis.Line2.Point2.Type, 0
TestParameter, AutoAnalysis.Line2.Point2.XY.X, 
TestParameter, AutoAnalysis.Line2.Point2.XY.Y, 
TestParameter, AutoAnalysis.Line2.Point2.Data.Var, 
TestParameter, AutoAnalysis.Line2.Point2.Data.Condition, 
TestParameter, AutoAnalysis.Line2.Point2.Data.Start, false
TestParameter, AutoAnalysis.Line2.Point2.Data.StartVar, 
TestParameter, AutoAnalysis.Line2.Point2.Data.StartCondition, 
TestParameter, AutoAnalysis.Line2.GradientExpr, 0
TestParameter, AutoAnalysis.Marker.Enabled, false
TestParameter, AutoAnalysis.Marker.Data.Var, 
TestParameter, AutoAnalysis.Marker.Data.Condition, 
TestParameter, AutoAnalysis.Marker.Data.Start, false
TestParameter, AutoAnalysis.Marker.Data.StartVar, 
TestParameter, AutoAnalysis.Marker.Data.StartCondition, 
MetaData, TestRecord.EntryPoint, true
MetaData, TestRecord.RecordTime, 12/22/2024 05:04:53
MetaData, TestRecord.TestTarget, 
MetaData, TestRecord.IterationIndex, 1
MetaData, TestRecord.Preservation, true
MetaData, TestRecord.Flag, 
MetaData, TestRecord.Remarks, 0.625wt-s21c3
MetaData, TestRecord.LinkKey, 2b03d540-1773-496f-9558-0c95157e0005
MetaData, TestRecord.Parameters, 
Dimension1, 102, 102, 102
Dimension2, 6, 6, 6
DataName, Vd, Vg, Id
DataValue, 0.1, 0.1, 5.0238000000000009E-06
DataValue, 0.088000000000000009, 0.1, 4.0936E-06
DataValue, 0.076, 0.1, 3.2219000000000004E-06
DataValue, 0.064, 0.1, 2.4428E-06
DataValue, 0.052000000000000005, 0.1, 1.8453000000000002E-06
DataValue, 0.04, 0.1, 1.2755000000000001E-06
DataValue, 0.028, 0.1, 8.269E-07
DataValue, 0.016, 0.1, 4.0152E-07
DataValue, 0.004, 0.1, 1.1102859999999999E-07
DataValue, -0.008, 0.1, -1.6186E-07
DataValue, -0.02, 0.1, -4.0772E-07
DataValue, -0.032, 0.1, -5.3618E-07
DataValue, -0.044000000000000004, 0.1, -6.65E-07
DataValue, -0.056, 0.1, -8.0852E-07
DataValue, -0.068, 0.1, -8.4884E-07
DataValue, -0.08, 0.1, -8.9315999999999993E-07
DataValue, -0.092, 0.1, -9.7313999999999988E-07
DataValue, -0.10400000000000001, 0.1, -1.00334E-06
DataValue, -0.116, 0.1, -9.7948E-07
DataValue, -0.128, 0.1, -1.0136599999999999E-06
DataValue, -0.14, 0.1, -1.0489E-06
DataValue, -0.152, 0.1, -1.01192E-06
DataValue, -0.164, 0.1, -1.01348E-06
DataValue, -0.17600000000000002, 0.1, -1.05728E-06
DataValue, -0.188, 0.1, -1.02568E-06
DataValue, -0.2, 0.1, -9.9898E-07
DataValue, -0.21200000000000002, 0.1, -1.04032E-06
DataValue, -0.224, 0.1, -1.02912E-06
DataValue, -0.23600000000000002, 0.1, -9.8694E-07
DataValue, -0.248, 0.1, -1.0212E-06
DataValue, -0.26, 0.1, -1.03318E-06
DataValue, -0.272, 0.1, -9.9181999999999989E-07
DataValue, -0.28400000000000003, 0.1, -9.8354E-07
DataValue, -0.29600000000000004, 0.1, -1.01756E-06
DataValue, -0.308, 0.1, -1.01716E-06
DataValue, -0.32, 0.1, -9.7216E-07
DataValue, -0.332, 0.1, -9.8092E-07
DataValue, -0.34400000000000003, 0.1, -1.01512E-06
DataValue, -0.35600000000000004, 0.1, -9.8848E-07
DataValue, -0.368, 0.1, -9.6108E-07
DataValue, -0.38, 0.1, -9.9878E-07
DataValue, -0.392, 0.1, -1.00866E-06
DataValue, -0.404, 0.1, -9.6758E-07
DataValue, -0.41600000000000004, 0.1, -9.647E-07
DataValue, -0.42800000000000005, 0.1, -1.00222E-06
DataValue, -0.44, 0.1, -9.917E-07
DataValue, -0.452, 0.1, -9.5032E-07
DataValue, -0.464, 0.1, -9.6826E-07
DataValue, -0.47600000000000003, 0.1, -1.00306E-06
DataValue, -0.48800000000000004, 0.1, -9.7883999999999989E-07
DataValue, -0.5, 0.1, -9.4525999999999993E-07
DataValue, -0.5, 0.1, -9.4884E-07
DataValue, -0.48800000000000004, 0.1, -9.832E-07
DataValue, -0.47600000000000003, 0.1, -9.759E-07
DataValue, -0.464, 0.1, -9.374E-07
DataValue, -0.452, 0.1, -9.579E-07
DataValue, -0.44, 0.1, -9.8148E-07
DataValue, -0.42800000000000005, 0.1, -9.5224E-07
DataValue, -0.41600000000000004, 0.1, -9.2578E-07
DataValue, -0.404, 0.1, -9.6248E-07
DataValue, -0.392, 0.1, -9.7052E-07
DataValue, -0.38, 0.1, -9.2863999999999993E-07
DataValue, -0.368, 0.1, -9.2168E-07
DataValue, -0.35600000000000004, 0.1, -9.5544E-07
DataValue, -0.34400000000000003, 0.1, -9.5482E-07
DataValue, -0.332, 0.1, -9.148E-07
DataValue, -0.32, 0.1, -9.1468E-07
DataValue, -0.308, 0.1, -9.5268E-07
DataValue, -0.29600000000000004, 0.1, -9.4021999999999993E-07
DataValue, -0.28400000000000003, 0.1, -8.9994E-07
DataValue, -0.272, 0.1, -9.1252E-07
DataValue, -0.26, 0.1, -9.4394E-07
DataValue, -0.248, 0.1, -9.2044E-07
DataValue, -0.23600000000000002, 0.1, -8.8086E-07
DataValue, -0.224, 0.1, -9.0018E-07
DataValue, -0.21200000000000002, 0.1, -9.2702E-07
DataValue, -0.2, 0.1, -8.9526E-07
DataValue, -0.188, 0.1, -8.6225999999999994E-07
DataValue, -0.17600000000000002, 0.1, -8.8286E-07
DataValue, -0.164, 0.1, -9.0063999999999994E-07
DataValue, -0.152, 0.1, -8.5385999999999994E-07
DataValue, -0.14, 0.1, -8.2872E-07
DataValue, -0.128, 0.1, -8.5767999999999994E-07
DataValue, -0.116, 0.1, -7.9829999999999994E-07
DataValue, -0.10400000000000001, 0.1, -8.1478E-07
DataValue, -0.092, 0.1, -7.8552E-07
DataValue, -0.08, 0.1, -7.037E-07
DataValue, -0.068, 0.1, -6.8004E-07
DataValue, -0.056, 0.1, -6.4064E-07
DataValue, -0.044000000000000004, 0.1, -5.173E-07
DataValue, -0.032, 0.1, -4.1314E-07
DataValue, -0.02, 0.1, -3.2442E-07
DataValue, -0.008, 0.1, -1.3021999999999998E-07
DataValue, 0.004, 0.1, 1.0068E-07
DataValue, 0.016, 0.1, 3.0189999999999997E-07
DataValue, 0.028, 0.1, 6.4592E-07
DataValue, 0.04, 0.1, 1.04208E-06
DataValue, 0.052000000000000005, 0.1, 1.5355000000000002E-06
DataValue, 0.064, 0.1, 2.0333E-06
DataValue, 0.076, 0.1, 2.6851000000000003E-06
DataValue, 0.088000000000000009, 0.1, 3.4713000000000005E-06
DataValue, 0.1, 0.1, 4.3057E-06
DataValue, 0.1, 0, 1.4502000000000001E-05
DataValue, 0.088000000000000009, 0, 1.2068E-05
DataValue, 0.076, 0, 9.7701000000000015E-06
DataValue, 0.064, 0, 7.7437E-06
DataValue, 0.052000000000000005, 0, 5.9253000000000007E-06
DataValue, 0.04, 0, 4.2217000000000006E-06
DataValue, 0.028, 0, 2.7803000000000003E-06
DataValue, 0.016, 0, 1.503E-06
DataValue, 0.004, 0, 3.563E-07
DataValue, -0.008, 0, -6.4832E-07
DataValue, -0.02, 0, -1.5037E-06
DataValue, -0.032, 0, -2.2841000000000003E-06
DataValue, -0.044000000000000004, 0, -2.8778000000000002E-06
DataValue, -0.056, 0, -3.4381E-06
DataValue, -0.068, 0, -3.9254000000000006E-06
DataValue, -0.08, 0, -4.2595000000000005E-06
DataValue, -0.092, 0, -4.5956000000000005E-06
DataValue, -0.10400000000000001, 0, -4.8808000000000008E-06
DataValue, -0.116, 0, -5.0365000000000008E-06
DataValue, -0.128, 0, -5.2249000000000006E-06
DataValue, -0.14, 0, -5.3772000000000008E-06
DataValue, -0.152, 0, -5.4268E-06
DataValue, -0.164, 0, -5.5336000000000007E-06
DataValue, -0.17600000000000002, 0, -5.6118E-06
DataValue, -0.188, 0, -5.6139000000000006E-06
DataValue, -0.2, 0, -5.6560000000000006E-06
DataValue, -0.21200000000000002, 0, -5.7183000000000008E-06
DataValue, -0.224, 0, -5.7041E-06
DataValue, -0.23600000000000002, 0, -5.7018E-06
DataValue, -0.248, 0, -5.7557000000000006E-06
DataValue, -0.26, 0, -5.7347E-06
DataValue, -0.272, 0, -5.7168000000000009E-06
DataValue, -0.28400000000000003, 0, -5.7631000000000008E-06
DataValue, -0.29600000000000004, 0, -5.7568000000000005E-06
DataValue, -0.308, 0, -5.7217000000000006E-06
DataValue, -0.32, 0, -5.7664E-06
DataValue, -0.332, 0, -5.7748E-06
DataValue, -0.34400000000000003, 0, -5.7315000000000009E-06
DataValue, -0.35600000000000004, 0, -5.7582E-06
DataValue, -0.368, 0, -5.7815000000000005E-06
DataValue, -0.38, 0, -5.7341000000000007E-06
DataValue, -0.392, 0, -5.7459E-06
DataValue, -0.404, 0, -5.7900000000000005E-06
DataValue, -0.41600000000000004, 0, -5.7450000000000009E-06
DataValue, -0.42800000000000005, 0, -5.7409E-06
DataValue, -0.44, 0, -5.7903E-06
DataValue, -0.452, 0, -5.7338000000000009E-06
DataValue, -0.464, 0, -5.7697000000000008E-06
DataValue, -0.47600000000000003, 0, -5.7864E-06
DataValue, -0.48800000000000004, 0, -5.7459E-06
DataValue, -0.5, 0, -5.7681000000000007E-06
DataValue, -0.5, 0, -5.7918E-06
DataValue, -0.48800000000000004, 0, -5.7566000000000009E-06
DataValue, -0.47600000000000003, 0, -5.7312E-06
DataValue, -0.464, 0, -5.774000000000001E-06
DataValue, -0.452, 0, -5.7388000000000009E-06
DataValue, -0.44, 0, -5.7105000000000006E-06
DataValue, -0.42800000000000005, 0, -5.7510000000000005E-06
DataValue, -0.41600000000000004, 0, -5.7226000000000009E-06
DataValue, -0.404, 0, -5.6903E-06
DataValue, -0.392, 0, -5.7235E-06
DataValue, -0.38, 0, -5.7172000000000009E-06
DataValue, -0.368, 0, -5.6679E-06
DataValue, -0.35600000000000004, 0, -5.7025000000000009E-06
DataValue, -0.34400000000000003, 0, -5.6899E-06
DataValue, -0.332, 0, -5.6427E-06
DataValue, -0.32, 0, -5.6751000000000009E-06
DataValue, -0.308, 0, -5.6586E-06
DataValue, -0.29600000000000004, 0, -5.6104000000000005E-06
DataValue, -0.28400000000000003, 0, -5.6455E-06
DataValue, -0.272, 0, -5.6204000000000004E-06
DataValue, -0.26, 0, -5.5708000000000009E-06
DataValue, -0.248, 0, -5.6020000000000007E-06
DataValue, -0.23600000000000002, 0, -5.5644000000000005E-06
DataValue, -0.224, 0, -5.5106E-06
DataValue, -0.21200000000000002, 0, -5.5325000000000008E-06
DataValue, -0.2, 0, -5.4575000000000007E-06
DataValue, -0.188, 0, -5.4108000000000008E-06
DataValue, -0.17600000000000002, 0, -5.4010000000000005E-06
DataValue, -0.164, 0, -5.2928E-06
DataValue, -0.152, 0, -5.2054E-06
DataValue, -0.14, 0, -5.1429E-06
DataValue, -0.128, 0, -4.9885000000000006E-06
DataValue, -0.116, 0, -4.7947000000000009E-06
DataValue, -0.10400000000000001, 0, -4.6373000000000005E-06
DataValue, -0.092, 0, -4.3883000000000008E-06
DataValue, -0.08, 0, -4.0524E-06
DataValue, -0.068, 0, -3.7270000000000005E-06
DataValue, -0.056, 0, -3.3054E-06
DataValue, -0.044000000000000004, 0, -2.7485000000000005E-06
DataValue, -0.032, 0, -2.1767000000000003E-06
DataValue, -0.02, 0, -1.4836E-06
DataValue, -0.008, 0, -6.3866E-07
DataValue, 0.004, 0, 3.0772E-07
DataValue, 0.016, 0, 1.4381E-06
DataValue, 0.028, 0, 2.7660000000000003E-06
DataValue, 0.04, 0, 4.2119E-06
DataValue, 0.052000000000000005, 0, 5.822300000000001E-06
DataValue, 0.064, 0, 7.7161E-06
DataValue, 0.076, 0, 9.813E-06
DataValue, 0.088000000000000009, 0, 1.2280000000000001E-05
DataValue, 0.1, 0, 1.489E-05
DataValue, 0.1, -0.1, 3.4486E-05
DataValue, 0.088000000000000009, -0.1, 2.9278E-05
DataValue, 0.076, -0.1, 2.4330000000000003E-05
DataValue, 0.064, -0.1, 1.9602E-05
DataValue, 0.052000000000000005, -0.1, 1.5256000000000001E-05
DataValue, 0.04, -0.1, 1.1266E-05
DataValue, 0.028, -0.1, 7.4738E-06
DataValue, 0.016, -0.1, 4.1149E-06
DataValue, 0.004, -0.1, 9.1868E-07
DataValue, -0.008, -0.1, -1.8802000000000002E-06
DataValue, -0.02, -0.1, -4.4595E-06
DataValue, -0.032, -0.1, -6.8586000000000007E-06
DataValue, -0.044000000000000004, -0.1, -8.9419000000000016E-06
DataValue, -0.056, -0.1, -1.07895E-05
DataValue, -0.068, -0.1, -1.2448E-05
DataValue, -0.08, -0.1, -1.3904000000000001E-05
DataValue, -0.092, -0.1, -1.5234E-05
DataValue, -0.10400000000000001, -0.1, -1.6428E-05
DataValue, -0.116, -0.1, -1.7382E-05
DataValue, -0.128, -0.1, -1.8212E-05
DataValue, -0.14, -0.1, -1.8988000000000002E-05
DataValue, -0.152, -0.1, -1.9614000000000002E-05
DataValue, -0.164, -0.1, -2.0086E-05
DataValue, -0.17600000000000002, -0.1, -2.0542E-05
DataValue, -0.188, -0.1, -2.0912000000000002E-05
DataValue, -0.2, -0.1, -2.1158E-05
DataValue, -0.21200000000000002, -0.1, -2.1392E-05
DataValue, -0.224, -0.1, -2.1634E-05
DataValue, -0.23600000000000002, -0.1, -2.1742E-05
DataValue, -0.248, -0.1, -2.1836000000000002E-05
DataValue, -0.26, -0.1, -2.1972000000000002E-05
DataValue, -0.272, -0.1, -2.2058E-05
DataValue, -0.28400000000000003, -0.1, -2.2038E-05
DataValue, -0.29600000000000004, -0.1, -2.2112E-05
DataValue, -0.308, -0.1, -2.219E-05
DataValue, -0.32, -0.1, -2.217E-05
DataValue, -0.332, -0.1, -2.2182000000000002E-05
DataValue, -0.34400000000000003, -0.1, -2.2266E-05
DataValue, -0.35600000000000004, -0.1, -2.2268E-05
DataValue, -0.368, -0.1, -2.2238E-05
DataValue, -0.38, -0.1, -2.2288E-05
DataValue, -0.392, -0.1, -2.2328E-05
DataValue, -0.404, -0.1, -2.2290000000000002E-05
DataValue, -0.41600000000000004, -0.1, -2.2306E-05
DataValue, -0.42800000000000005, -0.1, -2.2372000000000002E-05
DataValue, -0.44, -0.1, -2.2346E-05
DataValue, -0.452, -0.1, -2.2334E-05
DataValue, -0.464, -0.1, -2.239E-05
DataValue, -0.47600000000000003, -0.1, -2.2400000000000002E-05
DataValue, -0.48800000000000004, -0.1, -2.2372000000000002E-05
DataValue, -0.5, -0.1, -2.2388E-05
DataValue, -0.5, -0.1, -2.2414E-05
DataValue, -0.48800000000000004, -0.1, -2.2374E-05
DataValue, -0.47600000000000003, -0.1, -2.2302E-05
DataValue, -0.464, -0.1, -2.2294E-05
DataValue, -0.452, -0.1, -2.231E-05
DataValue, -0.44, -0.1, -2.2266E-05
DataValue, -0.42800000000000005, -0.1, -2.2198E-05
DataValue, -0.41600000000000004, -0.1, -2.2184E-05
DataValue, -0.404, -0.1, -2.2196000000000002E-05
DataValue, -0.392, -0.1, -2.2142000000000002E-05
DataValue, -0.38, -0.1, -2.2084E-05
DataValue, -0.368, -0.1, -2.2066000000000002E-05
DataValue, -0.35600000000000004, -0.1, -2.207E-05
DataValue, -0.34400000000000003, -0.1, -2.1992000000000002E-05
DataValue, -0.332, -0.1, -2.1924000000000002E-05
DataValue, -0.32, -0.1, -2.192E-05
DataValue, -0.308, -0.1, -2.1876000000000002E-05
DataValue, -0.29600000000000004, -0.1, -2.1778E-05
DataValue, -0.28400000000000003, -0.1, -2.1696E-05
DataValue, -0.272, -0.1, -2.1644E-05
DataValue, -0.26, -0.1, -2.1544000000000002E-05
DataValue, -0.248, -0.1, -2.137E-05
DataValue, -0.23600000000000002, -0.1, -2.1218E-05
DataValue, -0.224, -0.1, -2.109E-05
DataValue, -0.21200000000000002, -0.1, -2.0874E-05
DataValue, -0.2, -0.1, -2.0572000000000002E-05
DataValue, -0.188, -0.1, -2.0280000000000002E-05
DataValue, -0.17600000000000002, -0.1, -1.9972E-05
DataValue, -0.164, -0.1, -1.9508E-05
DataValue, -0.152, -0.1, -1.8954000000000002E-05
DataValue, -0.14, -0.1, -1.8386E-05
DataValue, -0.128, -0.1, -1.7706E-05
DataValue, -0.116, -0.1, -1.6858E-05
DataValue, -0.10400000000000001, -0.1, -1.5882E-05
DataValue, -0.092, -0.1, -1.4814E-05
DataValue, -0.08, -0.1, -1.3588000000000001E-05
DataValue, -0.068, -0.1, -1.2124000000000001E-05
DataValue, -0.056, -0.1, -1.0496E-05
DataValue, -0.044000000000000004, -0.1, -8.7584E-06
DataValue, -0.032, -0.1, -6.656700000000001E-06
DataValue, -0.02, -0.1, -4.4015E-06
DataValue, -0.008, -0.1, -1.8919000000000003E-06
DataValue, 0.004, -0.1, 9.3008E-07
DataValue, 0.016, -0.1, 4.113E-06
DataValue, 0.028, -0.1, 7.5300000000000008E-06
DataValue, 0.04, -0.1, 1.13365E-05
DataValue, 0.052000000000000005, -0.1, 1.5548E-05
DataValue, 0.064, -0.1, 1.9984E-05
DataValue, 0.076, -0.1, 2.4832000000000002E-05
DataValue, 0.088000000000000009, -0.1, 2.9996000000000002E-05
DataValue, 0.1, -0.1, 3.5512E-05
DataValue, 0.1, -0.2, 6.2854E-05
DataValue, 0.088000000000000009, -0.2, 5.4284000000000004E-05
DataValue, 0.076, -0.2, 4.5886E-05
DataValue, 0.064, -0.2, 3.769E-05
DataValue, 0.052000000000000005, -0.2, 2.9900000000000002E-05
DataValue, 0.04, -0.2, 2.2448E-05
DataValue, 0.028, -0.2, 1.5226000000000001E-05
DataValue, 0.016, -0.2, 8.4897000000000011E-06
