
SetupTitle, (c2) Transfer curve in LGP
PrimitiveTest, I/V Sweep
TestParameter, Context.MainFrame, B1500A
TestParameter, Channel.UnitType, SMU, SMU
TestParameter, Channel.Unit, SMU1:HR/AS, SMU2:HR/AS
TestParameter, Channel.IName, Ig, Id
TestParameter, Channel.VName, Vg, Vd
TestParameter, Channel.Mode, V, V
TestParameter, Channel.Func, VAR1, VAR2
TestParameter, Channel.Index, 
TestParameter, Channel.Time, 
TestParameter, Measurement.Port.Unit, SMU1:HR/AS, SMU2:HR/AS
TestParameter, Measurement.Port.SeriesResistor, NONE, NONE
TestParameter, Measurement.Port.Filter, ON, ON
TestParameter, Measurement.Port.OutputVoltageComparison, 0, 0
TestParameter, Measurement.Primary.Locus, Double
TestParameter, Measurement.Primary.Scale, LINEAR
TestParameter, Measurement.Primary.Start, 0.1
TestParameter, Measurement.Primary.Stop, -0.4
TestParameter, Measurement.Primary.Step, -0.01
TestParameter, Measurement.Primary.Compliance, 0.1
TestParameter, Measurement.Primary.PowerCompliance, 1
TestParameter, Measurement.Aborting.Condition, SKIP AT ANY ABNORMAL
TestParameter, Measurement.PostOutput.Value, START
TestParameter, Measurement.PostOutput.Retention, OFF
TestParameter, Measurement.Secondary.Start, -0.25
TestParameter, Measurement.Secondary.Count, 5
TestParameter, Measurement.Secondary.Step, 0
TestParameter, Measurement.Secondary.Compliance, 0.1
TestParameter, Measurement.Secondary.PowerCompliance, 1
TestParameter, Measurement.Bias.Source, 0.1, -0.25
TestParameter, Measurement.Bias.Compliance, 0.1, 0.1
TestParameter, Measurement.Monitor.Unit, SMU1:HR/AS, SMU2:HR/AS
TestParameter, Measurement.Monitor.Adc, HR ADC, HR ADC
TestParameter, Measurement.Monitor.Measurement, Compliance Side, Compliance Side
TestParameter, Measurement.Monitor.RangingMode, LIMITED, LIMITED
TestParameter, Measurement.Monitor.RangeBoundary, 1nA, 1nA
TestParameter, Measurement.Monitor.RangeRating, BY FULL RANGE, BY FULL RANGE
TestParameter, Measurement.Monitor.RangeRatingCoeff, 50, 50
TestParameter, Measurement.Timing.Hold, 0
TestParameter, Measurement.Timing.Delay, 0
TestParameter, Measurement.Adc.HighSpeed.Mode, AUTO
TestParameter, Measurement.Adc.HighSpeed.Coeff, 1
TestParameter, Measurement.Adc.HighResolution.AutoZero, OFF
TestParameter, Measurement.Adc.HighResolution.Mode, AUTO
TestParameter, Measurement.Adc.HighResolution.Coeff, 6
TestParameter, Measurement.WaitTime.Source.Coeff, 1
TestParameter, Measurement.WaitTime.Source.Offset, 0
TestParameter, Measurement.WaitTime.Monitor.Coeff, 1
TestParameter, Measurement.WaitTime.Monitor.Offset, 0
TestParameter, Output.Graph.Enabled, true
TestParameter, Output.Graph.AutoScaling, false
TestParameter, Output.Graph.XAxis.Data, Vg
TestParameter, Output.Graph.XAxis.Scale, Linear
TestParameter, Output.Graph.XAxis.Left, 0.60000000000000009
TestParameter, Output.Graph.XAxis.Right, -0.60000000000000009
TestParameter, Output.Graph.XAxis.RunTimeAutoScale, true
TestParameter, Output.Graph.YAxis.Data, Id
TestParameter, Output.Graph.YAxis.Scale, Linear
TestParameter, Output.Graph.YAxis.Bottom, -0.1
TestParameter, Output.Graph.YAxis.Top, 0.1
TestParameter, Output.Graph.YAxis.Group, 
TestParameter, Output.Graph.YAxis.RunTimeAutoScale, true
TestParameter, Output.List.Data, Vd, Vg, Id
TestParameter, AutoAnalysis.Interpolation, false
TestParameter, AutoAnalysis.Var2StepCount, 1
TestParameter, AutoAnalysis.Var2StepScript, 
TestParameter, AutoAnalysis.Line1.Enabled, false
TestParameter, AutoAnalysis.Line1.Type, 1
TestParameter, AutoAnalysis.Line1.Fix, True
TestParameter, AutoAnalysis.Line1.YAxis, 0
TestParameter, AutoAnalysis.Line1.Point1.Type, 0
TestParameter, AutoAnalysis.Line1.Point1.XY.X, 
TestParameter, AutoAnalysis.Line1.Point1.XY.Y, 
TestParameter, AutoAnalysis.Line1.Point1.Data.Var, 
TestParameter, AutoAnalysis.Line1.Point1.Data.Condition, 
TestParameter, AutoAnalysis.Line1.Point1.Data.Start, false
TestParameter, AutoAnalysis.Line1.Point1.Data.StartVar, 
TestParameter, AutoAnalysis.Line1.Point1.Data.StartCondition, 
TestParameter, AutoAnalysis.Line1.Point2.Type, 0
TestParameter, AutoAnalysis.Line1.Point2.XY.X, 
TestParameter, AutoAnalysis.Line1.Point2.XY.Y, 
TestParameter, AutoAnalysis.Line1.Point2.Data.Var, 
TestParameter, AutoAnalysis.Line1.Point2.Data.Condition, 
TestParameter, AutoAnalysis.Line1.Point2.Data.Start, false
TestParameter, AutoAnalysis.Line1.Point2.Data.StartVar, 
TestParameter, AutoAnalysis.Line1.Point2.Data.StartCondition, 
TestParameter, AutoAnalysis.Line1.GradientExpr, 0
TestParameter, AutoAnalysis.Line2.Enabled, false
TestParameter, AutoAnalysis.Line2.Type, 1
TestParameter, AutoAnalysis.Line2.Fix, True
TestParameter, AutoAnalysis.Line2.YAxis, 0
TestParameter, AutoAnalysis.Line2.Point1.Type, 0
TestParameter, AutoAnalysis.Line2.Point1.XY.X, 
TestParameter, AutoAnalysis.Line2.Point1.XY.Y, 
TestParameter, AutoAnalysis.Line2.Point1.Data.Var, 
TestParameter, AutoAnalysis.Line2.Point1.Data.Condition, 
TestParameter, AutoAnalysis.Line2.Point1.Data.Start, false
TestParameter, AutoAnalysis.Line2.Point1.Data.StartVar, 
TestParameter, AutoAnalysis.Line2.Point1.Data.StartCondition, 
TestParameter, AutoAnalysis.Line2.Point2.Type, 0
TestParameter, AutoAnalysis.Line2.Point2.XY.X, 
TestParameter, AutoAnalysis.Line2.Point2.XY.Y, 
TestParameter, AutoAnalysis.Line2.Point2.Data.Var, 
TestParameter, AutoAnalysis.Line2.Point2.Data.Condition, 
TestParameter, AutoAnalysis.Line2.Point2.Data.Start, false
TestParameter, AutoAnalysis.Line2.Point2.Data.StartVar, 
TestParameter, AutoAnalysis.Line2.Point2.Data.StartCondition, 
TestParameter, AutoAnalysis.Line2.GradientExpr, 0
TestParameter, AutoAnalysis.Marker.Enabled, false
TestParameter, AutoAnalysis.Marker.Data.Var, 
TestParameter, AutoAnalysis.Marker.Data.Condition, 
TestParameter, AutoAnalysis.Marker.Data.Start, false
TestParameter, AutoAnalysis.Marker.Data.StartVar, 
TestParameter, AutoAnalysis.Marker.Data.StartCondition, 
MetaData, TestRecord.EntryPoint, true
MetaData, TestRecord.RecordTime, 12/22/2024 05:25:11
MetaData, TestRecord.TestTarget, 
MetaData, TestRecord.IterationIndex, 2
MetaData, TestRecord.Preservation, true
MetaData, TestRecord.Flag, 
MetaData, TestRecord.Remarks, 1.25wt-s21c3
MetaData, TestRecord.LinkKey, f7b05d00-f4f1-47fa-b296-9070fc4b17c4
MetaData, TestRecord.Parameters, 
Dimension1, 102, 102, 102
Dimension2, 5, 5, 5
DataName, Vg, Vd, Id
DataValue, 0.1, -0.25, -6.9112E-07
DataValue, 0.090000000000000011, -0.25, -8.3484E-07
DataValue, 0.08, -0.25, -1.0175E-06
DataValue, 0.07, -0.25, -1.2005000000000002E-06
DataValue, 0.060000000000000005, -0.25, -1.3613000000000002E-06
DataValue, 0.05, -0.25, -1.6239000000000002E-06
DataValue, 0.04, -0.25, -1.942E-06
DataValue, 0.030000000000000002, -0.25, -2.2310000000000003E-06
DataValue, 0.02, -0.25, -2.635E-06
DataValue, 0.01, -0.25, -3.1056000000000004E-06
DataValue, 0, -0.25, -3.5635000000000003E-06
DataValue, -0.01, -0.25, -4.1576000000000006E-06
DataValue, -0.02, -0.25, -4.8282000000000006E-06
DataValue, -0.030000000000000002, -0.25, -5.5065000000000006E-06
DataValue, -0.04, -0.25, -6.3419000000000011E-06
DataValue, -0.05, -0.25, -7.2745E-06
DataValue, -0.060000000000000005, -0.25, -8.2389E-06
DataValue, -0.07, -0.25, -9.388200000000001E-06
DataValue, -0.08, -0.25, -1.06441E-05
DataValue, -0.090000000000000011, -0.25, -1.2298E-05
DataValue, -0.1, -0.25, -1.379E-05
DataValue, -0.11, -0.25, -1.5380000000000002E-05
DataValue, -0.12000000000000001, -0.25, -1.7096E-05
DataValue, -0.13, -0.25, -1.908E-05
DataValue, -0.14, -0.25, -2.1178E-05
DataValue, -0.15, -0.25, -2.3396E-05
DataValue, -0.16, -0.25, -2.5834E-05
DataValue, -0.17, -0.25, -2.8502000000000003E-05
DataValue, -0.18000000000000002, -0.25, -3.1344000000000003E-05
DataValue, -0.19, -0.25, -3.4298E-05
DataValue, -0.2, -0.25, -3.7538E-05
DataValue, -0.21000000000000002, -0.25, -4.0988E-05
DataValue, -0.22, -0.25, -4.4552E-05
DataValue, -0.23, -0.25, -4.8374E-05
DataValue, -0.24000000000000002, -0.25, -5.2552E-05
DataValue, -0.25, -0.25, -5.677E-05
DataValue, -0.26, -0.25, -6.1168000000000008E-05
DataValue, -0.27, -0.25, -6.5922E-05
DataValue, -0.28, -0.25, -7.0804000000000009E-05
DataValue, -0.29000000000000004, -0.25, -7.5832E-05
DataValue, -0.3, -0.25, -8.1136E-05
DataValue, -0.31, -0.25, -8.6572E-05
DataValue, -0.32, -0.25, -9.2274E-05
DataValue, -0.33, -0.25, -9.7824E-05
DataValue, -0.34, -0.25, -0.000103644
DataValue, -0.35000000000000003, -0.25, -0.000109646
DataValue, -0.36000000000000004, -0.25, -0.00011898
DataValue, -0.37, -0.25, -0.00012484
DataValue, -0.38, -0.25, -0.0001306
DataValue, -0.39, -0.25, -0.00013634
DataValue, -0.4, -0.25, -0.00014212
DataValue, -0.4, -0.25, -0.0001426
DataValue, -0.39, -0.25, -0.00013800000000000002
DataValue, -0.38, -0.25, -0.00013294
DataValue, -0.37, -0.25, -0.00012784
DataValue, -0.36000000000000004, -0.25, -0.00012266
DataValue, -0.35000000000000003, -0.25, -0.00011728
DataValue, -0.34, -0.25, -0.00011186
DataValue, -0.33, -0.25, -0.00010654
DataValue, -0.32, -0.25, -0.00010118
DataValue, -0.31, -0.25, -9.556E-05
DataValue, -0.3, -0.25, -9.0434000000000009E-05
DataValue, -0.29000000000000004, -0.25, -8.5202E-05
DataValue, -0.28, -0.25, -8.0122E-05
DataValue, -0.27, -0.25, -7.5176E-05
DataValue, -0.26, -0.25, -7.0262E-05
DataValue, -0.25, -0.25, -6.5488000000000007E-05
DataValue, -0.24000000000000002, -0.25, -6.1002E-05
DataValue, -0.23, -0.25, -5.6606E-05
DataValue, -0.22, -0.25, -5.2268E-05
DataValue, -0.21000000000000002, -0.25, -4.8246E-05
DataValue, -0.2, -0.25, -4.4420000000000005E-05
DataValue, -0.19, -0.25, -4.0682E-05
DataValue, -0.18000000000000002, -0.25, -3.7178E-05
DataValue, -0.17, -0.25, -3.392E-05
DataValue, -0.16, -0.25, -3.0812E-05
DataValue, -0.15, -0.25, -2.79E-05
DataValue, -0.14, -0.25, -2.5176E-05
DataValue, -0.13, -0.25, -2.2732000000000002E-05
DataValue, -0.12000000000000001, -0.25, -2.0396E-05
DataValue, -0.11, -0.25, -1.8204E-05
DataValue, -0.1, -0.25, -1.6268E-05
DataValue, -0.090000000000000011, -0.25, -1.4482000000000001E-05
DataValue, -0.08, -0.25, -1.2774E-05
DataValue, -0.07, -0.25, -1.1266E-05
DataValue, -0.060000000000000005, -0.25, -9.8312000000000017E-06
DataValue, -0.05, -0.25, -8.6009000000000009E-06
DataValue, -0.04, -0.25, -7.5240000000000011E-06
DataValue, -0.030000000000000002, -0.25, -6.5699E-06
DataValue, -0.02, -0.25, -5.6508E-06
DataValue, -0.01, -0.25, -4.8811000000000006E-06
DataValue, 0, -0.25, -4.2227E-06
DataValue, 0.01, -0.25, -3.5807000000000003E-06
DataValue, 0.02, -0.25, -3.0297000000000004E-06
DataValue, 0.030000000000000002, -0.25, -2.5678000000000002E-06
DataValue, 0.04, -0.25, -2.1329000000000004E-06
DataValue, 0.05, -0.25, -1.8281000000000001E-06
DataValue, 0.060000000000000005, -0.25, -1.5167000000000002E-06
DataValue, 0.07, -0.25, -1.2256000000000002E-06
DataValue, 0.08, -0.25, -1.046E-06
DataValue, 0.090000000000000011, -0.25, -7.9577999999999994E-07
DataValue, 0.1, -0.25, -6.9081999999999994E-07
DataValue, 0.1, -0.25, -6.0366E-07
DataValue, 0.090000000000000011, -0.25, -6.7256E-07
DataValue, 0.08, -0.25, -8.2144E-07
DataValue, 0.07, -0.25, -1.02316E-06
DataValue, 0.060000000000000005, -0.25, -1.2659E-06
DataValue, 0.05, -0.25, -1.4503000000000001E-06
DataValue, 0.04, -0.25, -1.7194000000000002E-06
DataValue, 0.030000000000000002, -0.25, -2.0744000000000004E-06
DataValue, 0.02, -0.25, -2.4026E-06
DataValue, 0.01, -0.25, -2.8288000000000003E-06
DataValue, 0, -0.25, -3.3549000000000003E-06
DataValue, -0.01, -0.25, -3.872E-06
DataValue, -0.02, -0.25, -4.5072000000000007E-06
DataValue, -0.030000000000000002, -0.25, -5.2591E-06
DataValue, -0.04, -0.25, -6.0350000000000007E-06
DataValue, -0.05, -0.25, -6.9218E-06
DataValue, -0.060000000000000005, -0.25, -7.9896E-06
DataValue, -0.07, -0.25, -9.1043E-06
DataValue, -0.08, -0.25, -1.0334900000000002E-05
DataValue, -0.090000000000000011, -0.25, -1.2188000000000001E-05
DataValue, -0.1, -0.25, -1.362E-05
DataValue, -0.11, -0.25, -1.5328E-05
DataValue, -0.12000000000000001, -0.25, -1.7124E-05
DataValue, -0.13, -0.25, -1.9072E-05
DataValue, -0.14, -0.25, -2.1224000000000002E-05
DataValue, -0.15, -0.25, -2.3602000000000002E-05
DataValue, -0.16, -0.25, -2.6132E-05
DataValue, -0.17, -0.25, -2.8800000000000002E-05
DataValue, -0.18000000000000002, -0.25, -3.1740000000000004E-05
DataValue, -0.19, -0.25, -3.4928E-05
DataValue, -0.2, -0.25, -3.8196E-05
DataValue, -0.21000000000000002, -0.25, -4.172E-05
DataValue, -0.22, -0.25, -4.5644E-05
DataValue, -0.23, -0.25, -4.9572E-05
DataValue, -0.24000000000000002, -0.25, -5.3700000000000004E-05
DataValue, -0.25, -0.25, -5.8132000000000005E-05
DataValue, -0.26, -0.25, -6.2750000000000007E-05
DataValue, -0.27, -0.25, -6.7512E-05
DataValue, -0.28, -0.25, -7.2582E-05
DataValue, -0.29000000000000004, -0.25, -7.7774E-05
DataValue, -0.3, -0.25, -8.3106E-05
DataValue, -0.31, -0.25, -8.8616E-05
DataValue, -0.32, -0.25, -9.4256E-05
DataValue, -0.33, -0.25, -0.00010006400000000001
DataValue, -0.34, -0.25, -0.000106246
DataValue, -0.35000000000000003, -0.25, -0.00011217
DataValue, -0.36000000000000004, -0.25, -0.00012106000000000001
DataValue, -0.37, -0.25, -0.00012676
DataValue, -0.38, -0.25, -0.00013242
DataValue, -0.39, -0.25, -0.0001382
DataValue, -0.4, -0.25, -0.00014396
DataValue, -0.4, -0.25, -0.00014422
DataValue, -0.39, -0.25, -0.00013944
DataValue, -0.38, -0.25, -0.00013450000000000002
DataValue, -0.37, -0.25, -0.00012934
DataValue, -0.36000000000000004, -0.25, -0.00012396
DataValue, -0.35000000000000003, -0.25, -0.00011862000000000001
DataValue, -0.34, -0.25, -0.00011328000000000001
DataValue, -0.33, -0.25, -0.00010776000000000001
DataValue, -0.32, -0.25, -0.00010238
DataValue, -0.31, -0.25, -9.6774E-05
DataValue, -0.3, -0.25, -9.1526E-05
DataValue, -0.29000000000000004, -0.25, -8.6394E-05
DataValue, -0.28, -0.25, -8.1234E-05
DataValue, -0.27, -0.25, -7.6148E-05
DataValue, -0.26, -0.25, -7.1268E-05
DataValue, -0.25, -0.25, -6.6514000000000007E-05
DataValue, -0.24000000000000002, -0.25, -6.179E-05
DataValue, -0.23, -0.25, -5.7346E-05
DataValue, -0.22, -0.25, -5.3116000000000004E-05
DataValue, -0.21000000000000002, -0.25, -4.889E-05
DataValue, -0.2, -0.25, -4.4964E-05
DataValue, -0.19, -0.25, -4.1286000000000004E-05
DataValue, -0.18000000000000002, -0.25, -3.772E-05
DataValue, -0.17, -0.25, -3.4332E-05
DataValue, -0.16, -0.25, -3.1246E-05
DataValue, -0.15, -0.25, -2.8334E-05
DataValue, -0.14, -0.25, -2.5552000000000002E-05
DataValue, -0.13, -0.25, -2.2976E-05
DataValue, -0.12000000000000001, -0.25, -2.0628E-05
DataValue, -0.11, -0.25, -1.841E-05
DataValue, -0.1, -0.25, -1.6374E-05
DataValue, -0.090000000000000011, -0.25, -1.4576E-05
DataValue, -0.08, -0.25, -1.2882E-05
DataValue, -0.07, -0.25, -1.1318E-05
DataValue, -0.060000000000000005, -0.25, -9.8456000000000011E-06
DataValue, -0.05, -0.25, -8.5968E-06
DataValue, -0.04, -0.25, -7.541300000000001E-06
DataValue, -0.030000000000000002, -0.25, -6.5478000000000011E-06
DataValue, -0.02, -0.25, -5.6236000000000007E-06
DataValue, -0.01, -0.25, -4.8767E-06
DataValue, 0, -0.25, -4.1728E-06
DataValue, 0.01, -0.25, -3.5253000000000004E-06
DataValue, 0.02, -0.25, -3.0303000000000004E-06
DataValue, 0.030000000000000002, -0.25, -2.5579E-06
DataValue, 0.04, -0.25, -2.1108E-06
DataValue, 0.05, -0.25, -1.8004000000000002E-06
DataValue, 0.060000000000000005, -0.25, -1.5007E-06
DataValue, 0.07, -0.25, -1.2030000000000002E-06
DataValue, 0.08, -0.25, -1.0249000000000001E-06
DataValue, 0.090000000000000011, -0.25, -7.7887999999999994E-07
DataValue, 0.1, -0.25, -6.8124E-07
DataValue, 0.1, -0.25, -5.4566E-07
DataValue, 0.090000000000000011, -0.25, -6.078E-07
DataValue, 0.08, -0.25, -7.37E-07
DataValue, 0.07, -0.25, -9.3236E-07
DataValue, 0.060000000000000005, -0.25, -1.07836E-06
DataValue, 0.05, -0.25, -1.3682E-06
DataValue, 0.04, -0.25, -1.5955000000000002E-06
DataValue, 0.030000000000000002, -0.25, -1.9337000000000002E-06
DataValue, 0.02, -0.25, -2.2454E-06
DataValue, 0.01, -0.25, -2.6424000000000003E-06
DataValue, 0, -0.25, -3.1497000000000005E-06
DataValue, -0.01, -0.25, -3.6401000000000005E-06
DataValue, -0.02, -0.25, -4.2476000000000006E-06
DataValue, -0.030000000000000002, -0.25, -4.9763E-06
DataValue, -0.04, -0.25, -5.7171000000000007E-06
DataValue, -0.05, -0.25, -6.6109000000000005E-06
DataValue, -0.060000000000000005, -0.25, -7.6313000000000009E-06
DataValue, -0.07, -0.25, -8.6841E-06
DataValue, -0.08, -0.25, -9.9252000000000011E-06
DataValue, -0.090000000000000011, -0.25, -1.1326600000000001E-05
DataValue, -0.1, -0.25, -1.3326E-05
DataValue, -0.11, -0.25, -1.496E-05
DataValue, -0.12000000000000001, -0.25, -1.6734E-05
DataValue, -0.13, -0.25, -1.8642000000000002E-05
DataValue, -0.14, -0.25, -2.0776000000000002E-05
DataValue, -0.15, -0.25, -2.3174000000000002E-05
DataValue, -0.16, -0.25, -2.5676E-05
DataValue, -0.17, -0.25, -2.8372000000000002E-05
DataValue, -0.18000000000000002, -0.25, -3.1358E-05
DataValue, -0.19, -0.25, -3.448E-05
DataValue, -0.2, -0.25, -3.7784E-05
DataValue, -0.21000000000000002, -0.25, -4.1416000000000005E-05
DataValue, -0.22, -0.25, -4.5248000000000005E-05
DataValue, -0.23, -0.25, -4.9198E-05
DataValue, -0.24000000000000002, -0.25, -5.3486E-05
DataValue, -0.25, -0.25, -5.7988E-05
DataValue, -0.26, -0.25, -6.2626E-05
DataValue, -0.27, -0.25, -6.75E-05
DataValue, -0.28, -0.25, -7.2638E-05
DataValue, -0.29000000000000004, -0.25, -7.786E-05
DataValue, -0.3, -0.25, -8.3270000000000007E-05
DataValue, -0.31, -0.25, -8.8924E-05
DataValue, -0.32, -0.25, -9.4612000000000008E-05
DataValue, -0.33, -0.25, -0.000100374
DataValue, -0.34, -0.25, -0.00010639200000000001
DataValue, -0.35000000000000003, -0.25, -0.000112398
DataValue, -0.36000000000000004, -0.25, -0.00012152
DataValue, -0.37, -0.25, -0.00012706000000000002
DataValue, -0.38, -0.25, -0.00013278
DataValue, -0.39, -0.25, -0.00013852
DataValue, -0.4, -0.25, -0.00014432
DataValue, -0.4, -0.25, -0.00014460000000000002
DataValue, -0.39, -0.25, -0.00013992
DataValue, -0.38, -0.25, -0.00013492000000000002
DataValue, -0.37, -0.25, -0.00012966
DataValue, -0.36000000000000004, -0.25, -0.00012434000000000002
DataValue, -0.35000000000000003, -0.25, -0.00011898
DataValue, -0.34, -0.25, -0.00011356
DataValue, -0.33, -0.25, -0.00010810000000000001
DataValue, -0.32, -0.25, -0.0001027
DataValue, -0.31, -0.25, -9.7038E-05
DataValue, -0.3, -0.25, -9.181E-05
DataValue, -0.29000000000000004, -0.25, -8.6672E-05
DataValue, -0.28, -0.25, -8.143E-05
DataValue, -0.27, -0.25, -7.6378E-05
DataValue, -0.26, -0.25, -7.1486E-05
DataValue, -0.25, -0.25, -6.6714E-05
DataValue, -0.24000000000000002, -0.25, -6.2012E-05
DataValue, -0.23, -0.25, -5.7504000000000004E-05
DataValue, -0.22, -0.25, -5.322E-05
DataValue, -0.21000000000000002, -0.25, -4.9098E-05
DataValue, -0.2, -0.25, -4.5094E-05
DataValue, -0.19, -0.25, -4.1306E-05
DataValue, -0.18000000000000002, -0.25, -3.7792E-05
DataValue, -0.17, -0.25, -3.4428E-05
DataValue, -0.16, -0.25, -3.1216E-05
DataValue, -0.15, -0.25, -2.8262E-05
DataValue, -0.14, -0.25, -2.5544E-05
DataValue, -0.13, -0.25, -2.2878E-05
DataValue, -0.12000000000000001, -0.25, -2.0510000000000002E-05
DataValue, -0.11, -0.25, -1.8372E-05
DataValue, -0.1, -0.25, -1.6358E-05
DataValue, -0.090000000000000011, -0.25, -1.4472000000000001E-05
DataValue, -0.08, -0.25, -1.2786000000000001E-05
DataValue, -0.07, -0.25, -1.1288000000000001E-05
DataValue, -0.060000000000000005, -0.25, -9.7267000000000012E-06
DataValue, -0.05, -0.25, -8.5542E-06
DataValue, -0.04, -0.25, -7.4650000000000005E-06
DataValue, -0.030000000000000002, -0.25, -6.4216000000000005E-06
DataValue, -0.02, -0.25, -5.5639E-06
DataValue, -0.01, -0.25, -4.8162000000000006E-06
DataValue, 0, -0.25, -4.0644E-06
DataValue, 0.01, -0.25, -3.4672000000000004E-06
DataValue, 0.02, -0.25, -2.9698000000000003E-06
DataValue, 0.030000000000000002, -0.25, -2.4833000000000004E-06
DataValue, 0.04, -0.25, -2.0636E-06
DataValue, 0.05, -0.25, -1.7606000000000001E-06
DataValue, 0.060000000000000005, -0.25, -1.4529E-06
DataValue, 0.07, -0.25, -1.1630000000000001E-06
DataValue, 0.08, -0.25, -9.3676E-07
DataValue, 0.090000000000000011, -0.25, -7.615E-07
