
SetupTitle, (c1) Output curve in LGP
PrimitiveTest, I/V Sweep
TestParameter, Context.MainFrame, B1500A
TestParameter, Channel.UnitType, SMU, SMU
TestParameter, Channel.Unit, SMU1:HR/AS, SMU2:HR/AS
TestParameter, Channel.IName, Ig, Id
TestParameter, Channel.VName, Vg, Vd
TestParameter, Channel.Mode, V, V
TestParameter, Channel.Func, VAR2, VAR1
TestParameter, Channel.Index, 
TestParameter, Channel.Time, 
TestParameter, Measurement.Port.Unit, SMU1:HR/AS, SMU2:HR/AS
TestParameter, Measurement.Port.SeriesResistor, NONE, NONE
TestParameter, Measurement.Port.Filter, ON, ON
TestParameter, Measurement.Port.OutputVoltageComparison, 0, 0
TestParameter, Measurement.Primary.Locus, Double
TestParameter, Measurement.Primary.Scale, LINEAR
TestParameter, Measurement.Primary.Start, 0.1
TestParameter, Measurement.Primary.Stop, -0.5
TestParameter, Measurement.Primary.Step, -0.012
TestParameter, Measurement.Primary.Compliance, 0.1
TestParameter, Measurement.Primary.PowerCompliance, 0
TestParameter, Measurement.Aborting.Condition, CONTINUE AT ANY
TestParameter, Measurement.PostOutput.Value, START
TestParameter, Measurement.PostOutput.Retention, OFF
TestParameter, Measurement.Secondary.Start, 0.1
TestParameter, Measurement.Secondary.Count, 6
TestParameter, Measurement.Secondary.Step, -0.1
TestParameter, Measurement.Secondary.Compliance, 0.0001
TestParameter, Measurement.Secondary.PowerCompliance, 0
TestParameter, Measurement.Bias.Source, 0.1, 0.1
TestParameter, Measurement.Bias.Compliance, 0.0001, 0.1
TestParameter, Measurement.Monitor.Unit, SMU1:HR/AS, SMU2:HR/AS
TestParameter, Measurement.Monitor.Adc, HR ADC, HR ADC
TestParameter, Measurement.Monitor.Measurement, Compliance Side, Compliance Side
TestParameter, Measurement.Monitor.RangingMode, LIMITED, LIMITED
TestParameter, Measurement.Monitor.RangeBoundary, 1nA, 1nA
TestParameter, Measurement.Monitor.RangeRating, BY FULL RANGE, BY FULL RANGE
TestParameter, Measurement.Monitor.RangeRatingCoeff, 50, 50
TestParameter, Measurement.Timing.Hold, 0
TestParameter, Measurement.Timing.Delay, 0
TestParameter, Measurement.Adc.HighSpeed.Mode, AUTO
TestParameter, Measurement.Adc.HighSpeed.Coeff, 1
TestParameter, Measurement.Adc.HighResolution.AutoZero, OFF
TestParameter, Measurement.Adc.HighResolution.Mode, AUTO
TestParameter, Measurement.Adc.HighResolution.Coeff, 6
TestParameter, Measurement.WaitTime.Source.Coeff, 1
TestParameter, Measurement.WaitTime.Source.Offset, 0
TestParameter, Measurement.WaitTime.Monitor.Coeff, 1
TestParameter, Measurement.WaitTime.Monitor.Offset, 0
TestParameter, Output.Graph.Enabled, true
TestParameter, Output.Graph.AutoScaling, false
TestParameter, Output.Graph.XAxis.Data, Vd
TestParameter, Output.Graph.XAxis.Scale, Linear
TestParameter, Output.Graph.XAxis.Left, 0
TestParameter, Output.Graph.XAxis.Right, -0.5
TestParameter, Output.Graph.XAxis.RunTimeAutoScale, true
TestParameter, Output.Graph.YAxis.Data, Id
TestParameter, Output.Graph.YAxis.Scale, Linear
TestParameter, Output.Graph.YAxis.Bottom, -0.1
TestParameter, Output.Graph.YAxis.Top, 0.1
TestParameter, Output.Graph.YAxis.Group, 
TestParameter, Output.Graph.YAxis.RunTimeAutoScale, true
TestParameter, Output.List.Data, Vd, Vg, Id
TestParameter, AutoAnalysis.Interpolation, false
TestParameter, AutoAnalysis.Var2StepCount, 1
TestParameter, AutoAnalysis.Var2StepScript, 
TestParameter, AutoAnalysis.Line1.Enabled, false
TestParameter, AutoAnalysis.Line1.Type, 1
TestParameter, AutoAnalysis.Line1.Fix, True
TestParameter, AutoAnalysis.Line1.YAxis, 0
TestParameter, AutoAnalysis.Line1.Point1.Type, 0
TestParameter, AutoAnalysis.Line1.Point1.XY.X, 
TestParameter, AutoAnalysis.Line1.Point1.XY.Y, 
TestParameter, AutoAnalysis.Line1.Point1.Data.Var, 
TestParameter, AutoAnalysis.Line1.Point1.Data.Condition, 
TestParameter, AutoAnalysis.Line1.Point1.Data.Start, false
TestParameter, AutoAnalysis.Line1.Point1.Data.StartVar, 
TestParameter, AutoAnalysis.Line1.Point1.Data.StartCondition, 
TestParameter, AutoAnalysis.Line1.Point2.Type, 0
TestParameter, AutoAnalysis.Line1.Point2.XY.X, 
TestParameter, AutoAnalysis.Line1.Point2.XY.Y, 
TestParameter, AutoAnalysis.Line1.Point2.Data.Var, 
TestParameter, AutoAnalysis.Line1.Point2.Data.Condition, 
TestParameter, AutoAnalysis.Line1.Point2.Data.Start, false
TestParameter, AutoAnalysis.Line1.Point2.Data.StartVar, 
TestParameter, AutoAnalysis.Line1.Point2.Data.StartCondition, 
TestParameter, AutoAnalysis.Line1.GradientExpr, 0
TestParameter, AutoAnalysis.Line2.Enabled, false
TestParameter, AutoAnalysis.Line2.Type, 1
TestParameter, AutoAnalysis.Line2.Fix, True
TestParameter, AutoAnalysis.Line2.YAxis, 0
TestParameter, AutoAnalysis.Line2.Point1.Type, 0
TestParameter, AutoAnalysis.Line2.Point1.XY.X, 
TestParameter, AutoAnalysis.Line2.Point1.XY.Y, 
TestParameter, AutoAnalysis.Line2.Point1.Data.Var, 
TestParameter, AutoAnalysis.Line2.Point1.Data.Condition, 
TestParameter, AutoAnalysis.Line2.Point1.Data.Start, false
TestParameter, AutoAnalysis.Line2.Point1.Data.StartVar, 
TestParameter, AutoAnalysis.Line2.Point1.Data.StartCondition, 
TestParameter, AutoAnalysis.Line2.Point2.Type, 0
TestParameter, AutoAnalysis.Line2.Point2.XY.X, 
TestParameter, AutoAnalysis.Line2.Point2.XY.Y, 
TestParameter, AutoAnalysis.Line2.Point2.Data.Var, 
TestParameter, AutoAnalysis.Line2.Point2.Data.Condition, 
TestParameter, AutoAnalysis.Line2.Point2.Data.Start, false
TestParameter, AutoAnalysis.Line2.Point2.Data.StartVar, 
TestParameter, AutoAnalysis.Line2.Point2.Data.StartCondition, 
TestParameter, AutoAnalysis.Line2.GradientExpr, 0
TestParameter, AutoAnalysis.Marker.Enabled, false
TestParameter, AutoAnalysis.Marker.Data.Var, 
TestParameter, AutoAnalysis.Marker.Data.Condition, 
TestParameter, AutoAnalysis.Marker.Data.Start, false
TestParameter, AutoAnalysis.Marker.Data.StartVar, 
TestParameter, AutoAnalysis.Marker.Data.StartCondition, 
MetaData, TestRecord.EntryPoint, true
MetaData, TestRecord.RecordTime, 12/22/2024 05:32:34
MetaData, TestRecord.TestTarget, 
MetaData, TestRecord.IterationIndex, 1
MetaData, TestRecord.Preservation, true
MetaData, TestRecord.Flag, 
MetaData, TestRecord.Remarks, 1.25wt-s21c3
MetaData, TestRecord.LinkKey, 57641274-261b-48b1-b214-20253f2270c7
MetaData, TestRecord.Parameters, 
Dimension1, 102, 102, 102
Dimension2, 6, 6, 6
DataName, Vd, Vg, Id
DataValue, 0.1, 0.1, 1.0796E-05
DataValue, 0.088000000000000009, 0.1, 9.0035000000000011E-06
DataValue, 0.076, 0.1, 7.4071000000000006E-06
DataValue, 0.064, 0.1, 5.8683E-06
DataValue, 0.052000000000000005, 0.1, 4.5134000000000007E-06
DataValue, 0.04, 0.1, 3.3003000000000004E-06
DataValue, 0.028, 0.1, 2.1375000000000003E-06
DataValue, 0.016, 0.1, 1.1504E-06
DataValue, 0.004, 0.1, 2.3808E-07
DataValue, -0.008, 0.1, -5.0916E-07
DataValue, -0.02, 0.1, -1.1636000000000002E-06
DataValue, -0.032, 0.1, -1.7693000000000002E-06
DataValue, -0.044000000000000004, 0.1, -2.3027000000000004E-06
DataValue, -0.056, 0.1, -2.7010000000000005E-06
DataValue, -0.068, 0.1, -3.0948000000000004E-06
DataValue, -0.08, 0.1, -3.4115000000000003E-06
DataValue, -0.092, 0.1, -3.6238000000000004E-06
DataValue, -0.10400000000000001, 0.1, -3.8687000000000008E-06
DataValue, -0.116, 0.1, -4.0371000000000007E-06
DataValue, -0.128, 0.1, -4.1260000000000008E-06
DataValue, -0.14, 0.1, -4.2634000000000005E-06
DataValue, -0.152, 0.1, -4.3407000000000006E-06
DataValue, -0.164, 0.1, -4.3541E-06
DataValue, -0.17600000000000002, 0.1, -4.4333E-06
DataValue, -0.188, 0.1, -4.4606E-06
DataValue, -0.2, 0.1, -4.4381000000000008E-06
DataValue, -0.21200000000000002, 0.1, -4.4867000000000006E-06
DataValue, -0.224, 0.1, -4.4986000000000004E-06
DataValue, -0.23600000000000002, 0.1, -4.4551000000000008E-06
DataValue, -0.248, 0.1, -4.4793000000000005E-06
DataValue, -0.26, 0.1, -4.4940000000000005E-06
DataValue, -0.272, 0.1, -4.4558000000000006E-06
DataValue, -0.28400000000000003, 0.1, -4.4595E-06
DataValue, -0.29600000000000004, 0.1, -4.4925000000000006E-06
DataValue, -0.308, 0.1, -4.4547000000000007E-06
DataValue, -0.32, 0.1, -4.441E-06
DataValue, -0.332, 0.1, -4.4788E-06
DataValue, -0.34400000000000003, 0.1, -4.4547000000000007E-06
DataValue, -0.35600000000000004, 0.1, -4.4253000000000006E-06
DataValue, -0.368, 0.1, -4.4648000000000009E-06
DataValue, -0.38, 0.1, -4.4443000000000008E-06
DataValue, -0.392, 0.1, -4.4167E-06
DataValue, -0.404, 0.1, -4.4522E-06
DataValue, -0.41600000000000004, 0.1, -4.4516000000000007E-06
DataValue, -0.42800000000000005, 0.1, -4.4135E-06
DataValue, -0.44, 0.1, -4.4411000000000006E-06
DataValue, -0.452, 0.1, -4.4563000000000009E-06
DataValue, -0.464, 0.1, -4.4153000000000007E-06
DataValue, -0.47600000000000003, 0.1, -4.4273000000000008E-06
DataValue, -0.48800000000000004, 0.1, -4.4586000000000008E-06
DataValue, -0.5, 0.1, -4.4167E-06
DataValue, -0.5, 0.1, -4.4043E-06
DataValue, -0.48800000000000004, 0.1, -4.4260000000000005E-06
DataValue, -0.47600000000000003, 0.1, -4.4268000000000005E-06
DataValue, -0.464, 0.1, -4.3801000000000006E-06
DataValue, -0.452, 0.1, -4.3904E-06
DataValue, -0.44, 0.1, -4.4110000000000006E-06
DataValue, -0.42800000000000005, 0.1, -4.3649E-06
DataValue, -0.41600000000000004, 0.1, -4.366E-06
DataValue, -0.404, 0.1, -4.3874000000000005E-06
DataValue, -0.392, 0.1, -4.349E-06
DataValue, -0.38, 0.1, -4.3281E-06
DataValue, -0.368, 0.1, -4.3565000000000006E-06
DataValue, -0.35600000000000004, 0.1, -4.3226000000000008E-06
DataValue, -0.34400000000000003, 0.1, -4.2928000000000006E-06
DataValue, -0.332, 0.1, -4.3211E-06
DataValue, -0.32, 0.1, -4.2696000000000006E-06
DataValue, -0.308, 0.1, -4.2948000000000008E-06
DataValue, -0.29600000000000004, 0.1, -4.2791E-06
DataValue, -0.28400000000000003, 0.1, -4.2287000000000007E-06
DataValue, -0.272, 0.1, -4.2511000000000007E-06
DataValue, -0.26, 0.1, -4.2305E-06
DataValue, -0.248, 0.1, -4.1789000000000008E-06
DataValue, -0.23600000000000002, 0.1, -4.1989000000000006E-06
DataValue, -0.224, 0.1, -4.1704000000000008E-06
DataValue, -0.21200000000000002, 0.1, -4.1100000000000005E-06
DataValue, -0.2, 0.1, -4.1138E-06
DataValue, -0.188, 0.1, -4.0749000000000006E-06
DataValue, -0.17600000000000002, 0.1, -3.9948E-06
DataValue, -0.164, 0.1, -3.979E-06
DataValue, -0.152, 0.1, -3.8978E-06
DataValue, -0.14, 0.1, -3.7797000000000004E-06
DataValue, -0.128, 0.1, -3.7147E-06
DataValue, -0.116, 0.1, -3.5821000000000004E-06
DataValue, -0.10400000000000001, 0.1, -3.3890000000000005E-06
DataValue, -0.092, 0.1, -3.2342000000000003E-06
DataValue, -0.08, 0.1, -3.0134000000000002E-06
DataValue, -0.068, 0.1, -2.7001E-06
DataValue, -0.056, 0.1, -2.3861000000000003E-06
DataValue, -0.044000000000000004, 0.1, -2.0376E-06
DataValue, -0.032, 0.1, -1.5505000000000002E-06
DataValue, -0.02, 0.1, -1.0351E-06
DataValue, -0.008, 0.1, -4.2964E-07
DataValue, 0.004, 0.1, 2.5012E-07
DataValue, 0.016, 0.1, 1.00912E-06
DataValue, 0.028, 0.1, 1.9194E-06
DataValue, 0.04, 0.1, 2.9677000000000004E-06
DataValue, 0.052000000000000005, 0.1, 4.1001000000000008E-06
DataValue, 0.064, 0.1, 5.3156E-06
DataValue, 0.076, 0.1, 6.723900000000001E-06
DataValue, 0.088000000000000009, 0.1, 8.2739E-06
DataValue, 0.1, 0.1, 9.9069000000000017E-06
DataValue, 0.1, 0, 2.1134E-05
DataValue, 0.088000000000000009, 0, 1.8062E-05
DataValue, 0.076, 0, 1.5086000000000001E-05
DataValue, 0.064, 0, 1.2326E-05
DataValue, 0.052000000000000005, 0, 9.6541000000000013E-06
DataValue, 0.04, 0, 7.1788000000000006E-06
DataValue, 0.028, 0, 4.8658000000000009E-06
DataValue, 0.016, 0, 2.639E-06
DataValue, 0.004, 0, 6.4002E-07
DataValue, -0.008, 0, -1.2502000000000001E-06
DataValue, -0.02, 0, -3.0114000000000005E-06
DataValue, -0.032, 0, -4.5627E-06
DataValue, -0.044000000000000004, 0, -6.0411000000000005E-06
DataValue, -0.056, 0, -7.3903000000000011E-06
DataValue, -0.068, 0, -8.5416000000000014E-06
DataValue, -0.08, 0, -9.6363000000000012E-06
DataValue, -0.092, 0, -1.0618900000000001E-05
DataValue, -0.10400000000000001, 0, -1.1420200000000001E-05
DataValue, -0.116, 0, -1.2114000000000001E-05
DataValue, -0.128, 0, -1.2778E-05
DataValue, -0.14, 0, -1.3322E-05
DataValue, -0.152, 0, -1.3852E-05
DataValue, -0.164, 0, -1.4292E-05
DataValue, -0.17600000000000002, 0, -1.461E-05
DataValue, -0.188, 0, -1.4904E-05
DataValue, -0.2, 0, -1.5204E-05
DataValue, -0.21200000000000002, 0, -1.5406E-05
DataValue, -0.224, 0, -1.5522E-05
DataValue, -0.23600000000000002, 0, -1.5684E-05
DataValue, -0.248, 0, -1.5824E-05
DataValue, -0.26, 0, -1.5882E-05
DataValue, -0.272, 0, -1.5926E-05
DataValue, -0.28400000000000003, 0, -1.601E-05
DataValue, -0.29600000000000004, 0, -1.6086E-05
DataValue, -0.308, 0, -1.6076E-05
DataValue, -0.32, 0, -1.609E-05
DataValue, -0.332, 0, -1.6146E-05
DataValue, -0.34400000000000003, 0, -1.6176E-05
DataValue, -0.35600000000000004, 0, -1.6156E-05
DataValue, -0.368, 0, -1.6164E-05
DataValue, -0.38, 0, -1.6214E-05
DataValue, -0.392, 0, -1.6228E-05
DataValue, -0.404, 0, -1.6196000000000002E-05
DataValue, -0.41600000000000004, 0, -1.6208E-05
DataValue, -0.42800000000000005, 0, -1.626E-05
DataValue, -0.44, 0, -1.626E-05
DataValue, -0.452, 0, -1.6226E-05
DataValue, -0.464, 0, -1.6258E-05
DataValue, -0.47600000000000003, 0, -1.6294E-05
DataValue, -0.48800000000000004, 0, -1.6248E-05
DataValue, -0.5, 0, -1.6278E-05
DataValue, -0.5, 0, -1.6296E-05
DataValue, -0.48800000000000004, 0, -1.6266E-05
DataValue, -0.47600000000000003, 0, -1.6206E-05
DataValue, -0.464, 0, -1.6204E-05
DataValue, -0.452, 0, -1.6208E-05
DataValue, -0.44, 0, -1.615E-05
DataValue, -0.42800000000000005, 0, -1.6124E-05
DataValue, -0.41600000000000004, 0, -1.6142E-05
DataValue, -0.404, 0, -1.611E-05
DataValue, -0.392, 0, -1.6042E-05
DataValue, -0.38, 0, -1.6038E-05
DataValue, -0.368, 0, -1.6042E-05
DataValue, -0.35600000000000004, 0, -1.5982E-05
DataValue, -0.34400000000000003, 0, -1.5914E-05
DataValue, -0.332, 0, -1.5912E-05
DataValue, -0.32, 0, -1.5890000000000002E-05
DataValue, -0.308, 0, -1.5822000000000002E-05
DataValue, -0.29600000000000004, 0, -1.5736E-05
DataValue, -0.28400000000000003, 0, -1.5706000000000002E-05
DataValue, -0.272, 0, -1.5644E-05
DataValue, -0.26, 0, -1.5528E-05
DataValue, -0.248, 0, -1.5396E-05
DataValue, -0.23600000000000002, 0, -1.5314E-05
DataValue, -0.224, 0, -1.5182000000000001E-05
DataValue, -0.21200000000000002, 0, -1.496E-05
DataValue, -0.2, 0, -1.4736000000000001E-05
DataValue, -0.188, 0, -1.4536000000000001E-05
DataValue, -0.17600000000000002, 0, -1.4234000000000001E-05
DataValue, -0.164, 0, -1.3842E-05
DataValue, -0.152, 0, -1.3448E-05
DataValue, -0.14, 0, -1.3004000000000001E-05
DataValue, -0.128, 0, -1.2448E-05
DataValue, -0.116, 0, -1.1788E-05
DataValue, -0.10400000000000001, 0, -1.1074000000000001E-05
DataValue, -0.092, 0, -1.0294E-05
DataValue, -0.08, 0, -9.3686E-06
DataValue, -0.068, 0, -8.3688E-06
DataValue, -0.056, 0, -7.1637000000000005E-06
DataValue, -0.044000000000000004, 0, -5.9030000000000009E-06
DataValue, -0.032, 0, -4.5035E-06
DataValue, -0.02, 0, -2.9047000000000003E-06
DataValue, -0.008, 0, -1.2263000000000002E-06
DataValue, 0.004, 0, 6.5128E-07
DataValue, 0.016, 0, 2.6821E-06
DataValue, 0.028, 0, 4.8231000000000005E-06
DataValue, 0.04, 0, 7.1761000000000006E-06
DataValue, 0.052000000000000005, 0, 9.7039E-06
DataValue, 0.064, 0, 1.2398E-05
DataValue, 0.076, 0, 1.5254E-05
DataValue, 0.088000000000000009, 0, 1.825E-05
DataValue, 0.1, 0, 2.1374000000000002E-05
DataValue, 0.1, -0.1, 3.4758E-05
DataValue, 0.088000000000000009, -0.1, 3.0128E-05
DataValue, 0.076, -0.1, 2.5644E-05
DataValue, 0.064, -0.1, 2.1246E-05
DataValue, 0.052000000000000005, -0.1, 1.6930000000000002E-05
DataValue, 0.04, -0.1, 1.2782E-05
DataValue, 0.028, -0.1, 8.7552E-06
DataValue, 0.016, -0.1, 4.8861000000000005E-06
DataValue, 0.004, -0.1, 1.2028000000000002E-06
DataValue, -0.008, -0.1, -2.4118000000000004E-06
DataValue, -0.02, -0.1, -5.8249000000000008E-06
DataValue, -0.032, -0.1, -9.0665E-06
DataValue, -0.044000000000000004, -0.1, -1.2196E-05
DataValue, -0.056, -0.1, -1.5112E-05
DataValue, -0.068, -0.1, -1.7906E-05
DataValue, -0.08, -0.1, -2.0578000000000002E-05
DataValue, -0.092, -0.1, -2.3048E-05
DataValue, -0.10400000000000001, -0.1, -2.5312E-05
DataValue, -0.116, -0.1, -2.7466E-05
DataValue, -0.128, -0.1, -2.947E-05
DataValue, -0.14, -0.1, -3.1338000000000004E-05
DataValue, -0.152, -0.1, -3.2962E-05
DataValue, -0.164, -0.1, -3.452E-05
DataValue, -0.17600000000000002, -0.1, -3.596E-05
DataValue, -0.188, -0.1, -3.7178E-05
DataValue, -0.2, -0.1, -3.8294E-05
DataValue, -0.21200000000000002, -0.1, -3.9330000000000005E-05
DataValue, -0.224, -0.1, -4.0238E-05
DataValue, -0.23600000000000002, -0.1, -4.0998E-05
DataValue, -0.248, -0.1, -4.1652E-05
DataValue, -0.26, -0.1, -4.2258E-05
DataValue, -0.272, -0.1, -4.2786E-05
DataValue, -0.28400000000000003, -0.1, -4.3208000000000004E-05
DataValue, -0.29600000000000004, -0.1, -4.354E-05
DataValue, -0.308, -0.1, -4.3848000000000004E-05
DataValue, -0.32, -0.1, -4.4068E-05
DataValue, -0.332, -0.1, -4.4296000000000004E-05
DataValue, -0.34400000000000003, -0.1, -4.4500000000000004E-05
DataValue, -0.35600000000000004, -0.1, -4.464E-05
DataValue, -0.368, -0.1, -4.4726E-05
DataValue, -0.38, -0.1, -4.4854E-05
DataValue, -0.392, -0.1, -4.4974E-05
DataValue, -0.404, -0.1, -4.5016000000000004E-05
DataValue, -0.41600000000000004, -0.1, -4.5064E-05
DataValue, -0.42800000000000005, -0.1, -4.5152000000000004E-05
DataValue, -0.44, -0.1, -4.519E-05
DataValue, -0.452, -0.1, -4.5184E-05
DataValue, -0.464, -0.1, -4.525E-05
DataValue, -0.47600000000000003, -0.1, -4.5308E-05
DataValue, -0.48800000000000004, -0.1, -4.5296E-05
DataValue, -0.5, -0.1, -4.5334E-05
DataValue, -0.5, -0.1, -4.5334E-05
DataValue, -0.48800000000000004, -0.1, -4.525E-05
DataValue, -0.47600000000000003, -0.1, -4.5108E-05
DataValue, -0.464, -0.1, -4.5036E-05
DataValue, -0.452, -0.1, -4.5004000000000005E-05
DataValue, -0.44, -0.1, -4.4852000000000004E-05
DataValue, -0.42800000000000005, -0.1, -4.476E-05
DataValue, -0.41600000000000004, -0.1, -4.4710000000000004E-05
DataValue, -0.404, -0.1, -4.459E-05
DataValue, -0.392, -0.1, -4.4424E-05
DataValue, -0.38, -0.1, -4.4308E-05
DataValue, -0.368, -0.1, -4.4186E-05
DataValue, -0.35600000000000004, -0.1, -4.3964E-05
DataValue, -0.34400000000000003, -0.1, -4.3784E-05
DataValue, -0.332, -0.1, -4.3598E-05
DataValue, -0.32, -0.1, -4.3302E-05
DataValue, -0.308, -0.1, -4.298E-05
DataValue, -0.29600000000000004, -0.1, -4.2680000000000005E-05
DataValue, -0.28400000000000003, -0.1, -4.2272000000000005E-05
DataValue, -0.272, -0.1, -4.177E-05
DataValue, -0.26, -0.1, -4.1292000000000004E-05
DataValue, -0.248, -0.1, -4.0704E-05
DataValue, -0.23600000000000002, -0.1, -3.9972E-05
DataValue, -0.224, -0.1, -3.9182E-05
DataValue, -0.21200000000000002, -0.1, -3.8352E-05
DataValue, -0.2, -0.1, -3.7342E-05
DataValue, -0.188, -0.1, -3.622E-05
DataValue, -0.17600000000000002, -0.1, -3.5044E-05
DataValue, -0.164, -0.1, -3.3646E-05
DataValue, -0.152, -0.1, -3.2122E-05
DataValue, -0.14, -0.1, -3.0524E-05
DataValue, -0.128, -0.1, -2.879E-05
DataValue, -0.116, -0.1, -2.6822000000000002E-05
DataValue, -0.10400000000000001, -0.1, -2.4778000000000002E-05
DataValue, -0.092, -0.1, -2.2598E-05
DataValue, -0.08, -0.1, -2.019E-05
DataValue, -0.068, -0.1, -1.7598E-05
DataValue, -0.056, -0.1, -1.4884E-05
DataValue, -0.044000000000000004, -0.1, -1.2038E-05
DataValue, -0.032, -0.1, -8.957E-06
DataValue, -0.02, -0.1, -5.7708000000000007E-06
DataValue, -0.008, -0.1, -2.3872E-06
DataValue, 0.004, -0.1, 1.2016E-06
DataValue, 0.016, -0.1, 4.8747E-06
DataValue, 0.028, -0.1, 8.7213E-06
DataValue, 0.04, -0.1, 1.2856E-05
DataValue, 0.052000000000000005, -0.1, 1.6986E-05
DataValue, 0.064, -0.1, 2.1302E-05
DataValue, 0.076, -0.1, 2.5796000000000002E-05
DataValue, 0.088000000000000009, -0.1, 3.0390000000000002E-05
DataValue, 0.1, -0.1, 3.508E-05
DataValue, 0.1, -0.2, 4.6934E-05
DataValue, 0.088000000000000009, -0.2, 4.1008000000000004E-05
DataValue, 0.076, -0.2, 3.5204000000000004E-05
DataValue, 0.064, -0.2, 2.9444E-05
DataValue, 0.052000000000000005, -0.2, 2.3716E-05
DataValue, 0.04, -0.2, 1.798E-05
DataValue, 0.028, -0.2, 1.2564E-05
