
SetupTitle, (c2) Transfer curve in LGP
PrimitiveTest, I/V Sweep
TestParameter, Context.MainFrame, B1500A
TestParameter, Channel.UnitType, SMU, SMU
TestParameter, Channel.Unit, SMU1:HR/AS, SMU2:HR/AS
TestParameter, Channel.IName, Ig, Id
TestParameter, Channel.VName, Vg, Vd
TestParameter, Channel.Mode, V, V
TestParameter, Channel.Func, VAR1, VAR2
TestParameter, Channel.Index, 
TestParameter, Channel.Time, 
TestParameter, Measurement.Port.Unit, SMU1:HR/AS, SMU2:HR/AS
TestParameter, Measurement.Port.SeriesResistor, NONE, NONE
TestParameter, Measurement.Port.Filter, ON, ON
TestParameter, Measurement.Port.OutputVoltageComparison, 0, 0
TestParameter, Measurement.Primary.Locus, Double
TestParameter, Measurement.Primary.Scale, LINEAR
TestParameter, Measurement.Primary.Start, 0.1
TestParameter, Measurement.Primary.Stop, -0.4
TestParameter, Measurement.Primary.Step, -0.01
TestParameter, Measurement.Primary.Compliance, 0.1
TestParameter, Measurement.Primary.PowerCompliance, 1
TestParameter, Measurement.Aborting.Condition, SKIP AT ANY ABNORMAL
TestParameter, Measurement.PostOutput.Value, START
TestParameter, Measurement.PostOutput.Retention, OFF
TestParameter, Measurement.Secondary.Start, -0.25
TestParameter, Measurement.Secondary.Count, 5
TestParameter, Measurement.Secondary.Step, 0
TestParameter, Measurement.Secondary.Compliance, 0.1
TestParameter, Measurement.Secondary.PowerCompliance, 1
TestParameter, Measurement.Bias.Source, 0.1, -0.25
TestParameter, Measurement.Bias.Compliance, 0.1, 0.1
TestParameter, Measurement.Monitor.Unit, SMU1:HR/AS, SMU2:HR/AS
TestParameter, Measurement.Monitor.Adc, HR ADC, HR ADC
TestParameter, Measurement.Monitor.Measurement, Compliance Side, Compliance Side
TestParameter, Measurement.Monitor.RangingMode, LIMITED, LIMITED
TestParameter, Measurement.Monitor.RangeBoundary, 1nA, 1nA
TestParameter, Measurement.Monitor.RangeRating, BY FULL RANGE, BY FULL RANGE
TestParameter, Measurement.Monitor.RangeRatingCoeff, 50, 50
TestParameter, Measurement.Timing.Hold, 0
TestParameter, Measurement.Timing.Delay, 0
TestParameter, Measurement.Adc.HighSpeed.Mode, AUTO
TestParameter, Measurement.Adc.HighSpeed.Coeff, 1
TestParameter, Measurement.Adc.HighResolution.AutoZero, OFF
TestParameter, Measurement.Adc.HighResolution.Mode, AUTO
TestParameter, Measurement.Adc.HighResolution.Coeff, 6
TestParameter, Measurement.WaitTime.Source.Coeff, 1
TestParameter, Measurement.WaitTime.Source.Offset, 0
TestParameter, Measurement.WaitTime.Monitor.Coeff, 1
TestParameter, Measurement.WaitTime.Monitor.Offset, 0
TestParameter, Output.Graph.Enabled, true
TestParameter, Output.Graph.AutoScaling, false
TestParameter, Output.Graph.XAxis.Data, Vg
TestParameter, Output.Graph.XAxis.Scale, Linear
TestParameter, Output.Graph.XAxis.Left, 0.60000000000000009
TestParameter, Output.Graph.XAxis.Right, -0.60000000000000009
TestParameter, Output.Graph.XAxis.RunTimeAutoScale, true
TestParameter, Output.Graph.YAxis.Data, Id
TestParameter, Output.Graph.YAxis.Scale, Linear
TestParameter, Output.Graph.YAxis.Bottom, -0.1
TestParameter, Output.Graph.YAxis.Top, 0.1
TestParameter, Output.Graph.YAxis.Group, 
TestParameter, Output.Graph.YAxis.RunTimeAutoScale, true
TestParameter, Output.List.Data, Vd, Vg, Id
TestParameter, AutoAnalysis.Interpolation, false
TestParameter, AutoAnalysis.Var2StepCount, 1
TestParameter, AutoAnalysis.Var2StepScript, 
TestParameter, AutoAnalysis.Line1.Enabled, false
TestParameter, AutoAnalysis.Line1.Type, 1
TestParameter, AutoAnalysis.Line1.Fix, True
TestParameter, AutoAnalysis.Line1.YAxis, 0
TestParameter, AutoAnalysis.Line1.Point1.Type, 0
TestParameter, AutoAnalysis.Line1.Point1.XY.X, 
TestParameter, AutoAnalysis.Line1.Point1.XY.Y, 
TestParameter, AutoAnalysis.Line1.Point1.Data.Var, 
TestParameter, AutoAnalysis.Line1.Point1.Data.Condition, 
TestParameter, AutoAnalysis.Line1.Point1.Data.Start, false
TestParameter, AutoAnalysis.Line1.Point1.Data.StartVar, 
TestParameter, AutoAnalysis.Line1.Point1.Data.StartCondition, 
TestParameter, AutoAnalysis.Line1.Point2.Type, 0
TestParameter, AutoAnalysis.Line1.Point2.XY.X, 
TestParameter, AutoAnalysis.Line1.Point2.XY.Y, 
TestParameter, AutoAnalysis.Line1.Point2.Data.Var, 
TestParameter, AutoAnalysis.Line1.Point2.Data.Condition, 
TestParameter, AutoAnalysis.Line1.Point2.Data.Start, false
TestParameter, AutoAnalysis.Line1.Point2.Data.StartVar, 
TestParameter, AutoAnalysis.Line1.Point2.Data.StartCondition, 
TestParameter, AutoAnalysis.Line1.GradientExpr, 0
TestParameter, AutoAnalysis.Line2.Enabled, false
TestParameter, AutoAnalysis.Line2.Type, 1
TestParameter, AutoAnalysis.Line2.Fix, True
TestParameter, AutoAnalysis.Line2.YAxis, 0
TestParameter, AutoAnalysis.Line2.Point1.Type, 0
TestParameter, AutoAnalysis.Line2.Point1.XY.X, 
TestParameter, AutoAnalysis.Line2.Point1.XY.Y, 
TestParameter, AutoAnalysis.Line2.Point1.Data.Var, 
TestParameter, AutoAnalysis.Line2.Point1.Data.Condition, 
TestParameter, AutoAnalysis.Line2.Point1.Data.Start, false
TestParameter, AutoAnalysis.Line2.Point1.Data.StartVar, 
TestParameter, AutoAnalysis.Line2.Point1.Data.StartCondition, 
TestParameter, AutoAnalysis.Line2.Point2.Type, 0
TestParameter, AutoAnalysis.Line2.Point2.XY.X, 
TestParameter, AutoAnalysis.Line2.Point2.XY.Y, 
TestParameter, AutoAnalysis.Line2.Point2.Data.Var, 
TestParameter, AutoAnalysis.Line2.Point2.Data.Condition, 
TestParameter, AutoAnalysis.Line2.Point2.Data.Start, false
TestParameter, AutoAnalysis.Line2.Point2.Data.StartVar, 
TestParameter, AutoAnalysis.Line2.Point2.Data.StartCondition, 
TestParameter, AutoAnalysis.Line2.GradientExpr, 0
TestParameter, AutoAnalysis.Marker.Enabled, false
TestParameter, AutoAnalysis.Marker.Data.Var, 
TestParameter, AutoAnalysis.Marker.Data.Condition, 
TestParameter, AutoAnalysis.Marker.Data.Start, false
TestParameter, AutoAnalysis.Marker.Data.StartVar, 
TestParameter, AutoAnalysis.Marker.Data.StartCondition, 
MetaData, TestRecord.EntryPoint, true
MetaData, TestRecord.RecordTime, 12/22/2024 05:26:03
MetaData, TestRecord.TestTarget, 
MetaData, TestRecord.IterationIndex, 1
MetaData, TestRecord.Preservation, true
MetaData, TestRecord.Flag, 
MetaData, TestRecord.Remarks, 1.25wt-s21c2
MetaData, TestRecord.LinkKey, 1dbba03e-ef6c-4692-8aed-a4ae45e3456d
MetaData, TestRecord.Parameters, 
Dimension1, 102, 102, 102
Dimension2, 5, 5, 5
DataName, Vg, Vd, Id
DataValue, 0.1, -0.25, -1.2288E-05
DataValue, 0.090000000000000011, -0.25, -1.4902E-05
DataValue, 0.08, -0.25, -1.8012E-05
DataValue, 0.07, -0.25, -2.1742E-05
DataValue, 0.060000000000000005, -0.25, -2.6128E-05
DataValue, 0.05, -0.25, -3.1074E-05
DataValue, 0.04, -0.25, -3.6802000000000004E-05
DataValue, 0.030000000000000002, -0.25, -4.3342E-05
DataValue, 0.02, -0.25, -5.0600000000000003E-05
DataValue, 0.01, -0.25, -5.8750000000000005E-05
DataValue, 0, -0.25, -6.7948000000000007E-05
DataValue, -0.01, -0.25, -7.8044E-05
DataValue, -0.02, -0.25, -8.9154000000000007E-05
DataValue, -0.030000000000000002, -0.25, -0.000101482
DataValue, -0.04, -0.25, -0.00011486600000000001
DataValue, -0.05, -0.25, -0.00013192
DataValue, -0.060000000000000005, -0.25, -0.00014712000000000001
DataValue, -0.07, -0.25, -0.00016416
DataValue, -0.08, -0.25, -0.00018240000000000002
DataValue, -0.090000000000000011, -0.25, -0.00020174
DataValue, -0.1, -0.25, -0.0002231
DataValue, -0.11, -0.25, -0.00024522000000000004
DataValue, -0.12000000000000001, -0.25, -0.00026864
DataValue, -0.13, -0.25, -0.00029382000000000003
DataValue, -0.14, -0.25, -0.00032004
DataValue, -0.15, -0.25, -0.00034772000000000004
DataValue, -0.16, -0.25, -0.00037672000000000004
DataValue, -0.17, -0.25, -0.0004069
DataValue, -0.18000000000000002, -0.25, -0.00043838000000000004
DataValue, -0.19, -0.25, -0.00047136000000000004
DataValue, -0.2, -0.25, -0.00050482
DataValue, -0.21000000000000002, -0.25, -0.00053974
DataValue, -0.22, -0.25, -0.00057592000000000006
DataValue, -0.23, -0.25, -0.00061224
DataValue, -0.24000000000000002, -0.25, -0.00065064000000000007
DataValue, -0.25, -0.25, -0.00068856000000000006
DataValue, -0.26, -0.25, -0.0007270200000000001
DataValue, -0.27, -0.25, -0.00076614
DataValue, -0.28, -0.25, -0.00080578000000000008
DataValue, -0.29000000000000004, -0.25, -0.0008455
DataValue, -0.3, -0.25, -0.00088536000000000007
DataValue, -0.31, -0.25, -0.00092526
DataValue, -0.32, -0.25, -0.00096518
DataValue, -0.33, -0.25, -0.00100552
DataValue, -0.34, -0.25, -0.0010439400000000002
DataValue, -0.35000000000000003, -0.25, -0.00108236
DataValue, -0.36000000000000004, -0.25, -0.00112096
DataValue, -0.37, -0.25, -0.0011694000000000001
DataValue, -0.38, -0.25, -0.0012024
DataValue, -0.39, -0.25, -0.0012354
DataValue, -0.4, -0.25, -0.0012678000000000001
DataValue, -0.4, -0.25, -0.0012696
DataValue, -0.39, -0.25, -0.001242
DataValue, -0.38, -0.25, -0.0012118
DataValue, -0.37, -0.25, -0.00118
DataValue, -0.36000000000000004, -0.25, -0.001147
DataValue, -0.35000000000000003, -0.25, -0.0011122
DataValue, -0.34, -0.25, -0.0010768
DataValue, -0.33, -0.25, -0.0010404
DataValue, -0.32, -0.25, -0.0010026
DataValue, -0.31, -0.25, -0.00096306000000000007
DataValue, -0.3, -0.25, -0.00092514000000000008
DataValue, -0.29000000000000004, -0.25, -0.00088618000000000008
DataValue, -0.28, -0.25, -0.00084736
DataValue, -0.27, -0.25, -0.00080788000000000008
DataValue, -0.26, -0.25, -0.00076856000000000005
DataValue, -0.25, -0.25, -0.00072926
DataValue, -0.24000000000000002, -0.25, -0.00069074
DataValue, -0.23, -0.25, -0.00065204
DataValue, -0.22, -0.25, -0.00061392
DataValue, -0.21000000000000002, -0.25, -0.00057708
DataValue, -0.2, -0.25, -0.00054006000000000008
DataValue, -0.19, -0.25, -0.00050492000000000006
DataValue, -0.18000000000000002, -0.25, -0.00047066
DataValue, -0.17, -0.25, -0.00043744000000000004
DataValue, -0.16, -0.25, -0.00040544
DataValue, -0.15, -0.25, -0.00037458
DataValue, -0.14, -0.25, -0.00034496
DataValue, -0.13, -0.25, -0.00031688
DataValue, -0.12000000000000001, -0.25, -0.0002899
DataValue, -0.11, -0.25, -0.00026432
DataValue, -0.1, -0.25, -0.00024042
DataValue, -0.090000000000000011, -0.25, -0.00021758000000000001
DataValue, -0.08, -0.25, -0.00019614
DataValue, -0.07, -0.25, -0.00017642000000000002
DataValue, -0.060000000000000005, -0.25, -0.00015768000000000002
DataValue, -0.05, -0.25, -0.00014068000000000002
DataValue, -0.04, -0.25, -0.00012484
DataValue, -0.030000000000000002, -0.25, -0.00011034
DataValue, -0.02, -0.25, -9.622E-05
DataValue, -0.01, -0.25, -8.4374E-05
DataValue, 0, -0.25, -7.3524E-05
DataValue, 0.01, -0.25, -6.3564E-05
DataValue, 0.02, -0.25, -5.457E-05
DataValue, 0.030000000000000002, -0.25, -4.6672E-05
DataValue, 0.04, -0.25, -3.9428E-05
DataValue, 0.05, -0.25, -3.3172E-05
DataValue, 0.060000000000000005, -0.25, -2.7702E-05
DataValue, 0.07, -0.25, -2.2882000000000002E-05
DataValue, 0.08, -0.25, -1.8492000000000002E-05
DataValue, 0.090000000000000011, -0.25, -1.5026E-05
DataValue, 0.1, -0.25, -1.2012000000000001E-05
DataValue, 0.1, -0.25, -1.0706E-05
DataValue, 0.090000000000000011, -0.25, -1.3174000000000001E-05
DataValue, 0.08, -0.25, -1.6116E-05
DataValue, 0.07, -0.25, -1.9544E-05
DataValue, 0.060000000000000005, -0.25, -2.3622000000000002E-05
DataValue, 0.05, -0.25, -2.8342E-05
DataValue, 0.04, -0.25, -3.3692E-05
DataValue, 0.030000000000000002, -0.25, -3.985E-05
DataValue, 0.02, -0.25, -4.6878E-05
DataValue, 0.01, -0.25, -5.4646000000000005E-05
DataValue, 0, -0.25, -6.339E-05
DataValue, -0.01, -0.25, -7.3284E-05
DataValue, -0.02, -0.25, -8.4046E-05
DataValue, -0.030000000000000002, -0.25, -9.5928000000000007E-05
DataValue, -0.04, -0.25, -0.00010904
DataValue, -0.05, -0.25, -0.00012632
DataValue, -0.060000000000000005, -0.25, -0.00014134
DataValue, -0.07, -0.25, -0.00015786
DataValue, -0.08, -0.25, -0.00017588
DataValue, -0.090000000000000011, -0.25, -0.0001953
DataValue, -0.1, -0.25, -0.00021614
DataValue, -0.11, -0.25, -0.00023828
DataValue, -0.12000000000000001, -0.25, -0.00026194
DataValue, -0.13, -0.25, -0.00028702
DataValue, -0.14, -0.25, -0.00031336
DataValue, -0.15, -0.25, -0.00034176000000000003
DataValue, -0.16, -0.25, -0.00037062
DataValue, -0.17, -0.25, -0.00040082000000000003
DataValue, -0.18000000000000002, -0.25, -0.00043288
DataValue, -0.19, -0.25, -0.00046584
DataValue, -0.2, -0.25, -0.00049972
DataValue, -0.21000000000000002, -0.25, -0.00053516
DataValue, -0.22, -0.25, -0.00057130000000000006
DataValue, -0.23, -0.25, -0.00060852000000000009
DataValue, -0.24000000000000002, -0.25, -0.0006465
DataValue, -0.25, -0.25, -0.00068488
DataValue, -0.26, -0.25, -0.00072444
DataValue, -0.27, -0.25, -0.00076448
DataValue, -0.28, -0.25, -0.00080404
DataValue, -0.29000000000000004, -0.25, -0.00084538000000000007
DataValue, -0.3, -0.25, -0.00088526
DataValue, -0.31, -0.25, -0.00092526
DataValue, -0.32, -0.25, -0.00096586
DataValue, -0.33, -0.25, -0.00100686
DataValue, -0.34, -0.25, -0.00104564
DataValue, -0.35000000000000003, -0.25, -0.00108408
DataValue, -0.36000000000000004, -0.25, -0.0011220800000000001
DataValue, -0.37, -0.25, -0.0011692
DataValue, -0.38, -0.25, -0.0012028
DataValue, -0.39, -0.25, -0.001235
DataValue, -0.4, -0.25, -0.0012672
DataValue, -0.4, -0.25, -0.0012688
DataValue, -0.39, -0.25, -0.0012414
DataValue, -0.38, -0.25, -0.0012112
DataValue, -0.37, -0.25, -0.0011794
DataValue, -0.36000000000000004, -0.25, -0.0011468000000000001
DataValue, -0.35000000000000003, -0.25, -0.0011122
DataValue, -0.34, -0.25, -0.001076
DataValue, -0.33, -0.25, -0.0010392
DataValue, -0.32, -0.25, -0.0010024
DataValue, -0.31, -0.25, -0.00096222000000000007
DataValue, -0.3, -0.25, -0.00092456
DataValue, -0.29000000000000004, -0.25, -0.0008855200000000001
DataValue, -0.28, -0.25, -0.00084632
DataValue, -0.27, -0.25, -0.00080712
DataValue, -0.26, -0.25, -0.00076732
DataValue, -0.25, -0.25, -0.00072790000000000007
DataValue, -0.24000000000000002, -0.25, -0.00068898000000000006
DataValue, -0.23, -0.25, -0.00065024000000000006
DataValue, -0.22, -0.25, -0.00061198
DataValue, -0.21000000000000002, -0.25, -0.00057474
DataValue, -0.2, -0.25, -0.00053812
DataValue, -0.19, -0.25, -0.00050234
DataValue, -0.18000000000000002, -0.25, -0.00046780000000000004
DataValue, -0.17, -0.25, -0.00043470000000000005
DataValue, -0.16, -0.25, -0.00040238000000000003
DataValue, -0.15, -0.25, -0.00037142
DataValue, -0.14, -0.25, -0.00034186000000000004
DataValue, -0.13, -0.25, -0.0003131
DataValue, -0.12000000000000001, -0.25, -0.00028618000000000003
DataValue, -0.11, -0.25, -0.00026078
DataValue, -0.1, -0.25, -0.0002368
DataValue, -0.090000000000000011, -0.25, -0.00021422000000000002
DataValue, -0.08, -0.25, -0.00019282000000000001
DataValue, -0.07, -0.25, -0.000173
DataValue, -0.060000000000000005, -0.25, -0.00015472
DataValue, -0.05, -0.25, -0.00013762
DataValue, -0.04, -0.25, -0.00012168000000000001
DataValue, -0.030000000000000002, -0.25, -0.00010740000000000001
DataValue, -0.02, -0.25, -9.3466E-05
DataValue, -0.01, -0.25, -8.182E-05
DataValue, 0, -0.25, -7.1172E-05
DataValue, 0.01, -0.25, -6.1426E-05
DataValue, 0.02, -0.25, -5.2672E-05
DataValue, 0.030000000000000002, -0.25, -4.4924E-05
DataValue, 0.04, -0.25, -3.8062E-05
DataValue, 0.05, -0.25, -3.1938E-05
DataValue, 0.060000000000000005, -0.25, -2.6532E-05
DataValue, 0.07, -0.25, -2.1838E-05
DataValue, 0.08, -0.25, -1.7896E-05
DataValue, 0.090000000000000011, -0.25, -1.4444000000000001E-05
DataValue, 0.1, -0.25, -1.151E-05
DataValue, 0.1, -0.25, -1.0340000000000001E-05
DataValue, 0.090000000000000011, -0.25, -1.2632E-05
DataValue, 0.08, -0.25, -1.5516000000000002E-05
DataValue, 0.07, -0.25, -1.8924E-05
DataValue, 0.060000000000000005, -0.25, -2.2800000000000002E-05
DataValue, 0.05, -0.25, -2.7396E-05
DataValue, 0.04, -0.25, -3.2732000000000004E-05
DataValue, 0.030000000000000002, -0.25, -3.867E-05
DataValue, 0.02, -0.25, -4.5516E-05
DataValue, 0.01, -0.25, -5.33E-05
DataValue, 0, -0.25, -6.1858E-05
DataValue, -0.01, -0.25, -7.1604E-05
DataValue, -0.02, -0.25, -8.2296E-05
DataValue, -0.030000000000000002, -0.25, -9.3950000000000007E-05
DataValue, -0.04, -0.25, -0.000106812
DataValue, -0.05, -0.25, -0.00012402
DataValue, -0.060000000000000005, -0.25, -0.00013910000000000002
DataValue, -0.07, -0.25, -0.00015558
DataValue, -0.08, -0.25, -0.00017342
DataValue, -0.090000000000000011, -0.25, -0.0001929
DataValue, -0.1, -0.25, -0.00021352
DataValue, -0.11, -0.25, -0.0002357
DataValue, -0.12000000000000001, -0.25, -0.00025932
DataValue, -0.13, -0.25, -0.00028456
DataValue, -0.14, -0.25, -0.00031088000000000003
DataValue, -0.15, -0.25, -0.00033892000000000004
DataValue, -0.16, -0.25, -0.00036832
DataValue, -0.17, -0.25, -0.00039852
DataValue, -0.18000000000000002, -0.25, -0.00043014
DataValue, -0.19, -0.25, -0.00046362000000000004
DataValue, -0.2, -0.25, -0.00049776
DataValue, -0.21000000000000002, -0.25, -0.00053306
DataValue, -0.22, -0.25, -0.00056974
DataValue, -0.23, -0.25, -0.00060698
DataValue, -0.24000000000000002, -0.25, -0.00064572
DataValue, -0.25, -0.25, -0.00068406
DataValue, -0.26, -0.25, -0.00072334
DataValue, -0.27, -0.25, -0.0007634
DataValue, -0.28, -0.25, -0.0008032
DataValue, -0.29000000000000004, -0.25, -0.00084336
DataValue, -0.3, -0.25, -0.00088488000000000011
DataValue, -0.31, -0.25, -0.00092464
DataValue, -0.32, -0.25, -0.00096450000000000008
DataValue, -0.33, -0.25, -0.00100438
DataValue, -0.34, -0.25, -0.00104388
DataValue, -0.35000000000000003, -0.25, -0.0010823
DataValue, -0.36000000000000004, -0.25, -0.00112042
DataValue, -0.37, -0.25, -0.0011684
DataValue, -0.38, -0.25, -0.0012012
DataValue, -0.39, -0.25, -0.0012348
DataValue, -0.4, -0.25, -0.0012664
DataValue, -0.4, -0.25, -0.0012678000000000001
DataValue, -0.39, -0.25, -0.0012402000000000001
DataValue, -0.38, -0.25, -0.0012112
DataValue, -0.37, -0.25, -0.0011798
DataValue, -0.36000000000000004, -0.25, -0.0011464000000000001
DataValue, -0.35000000000000003, -0.25, -0.0011122
DataValue, -0.34, -0.25, -0.0010764
DataValue, -0.33, -0.25, -0.0010398
DataValue, -0.32, -0.25, -0.0010028
DataValue, -0.31, -0.25, -0.00096238000000000009
DataValue, -0.3, -0.25, -0.00092470000000000009
DataValue, -0.29000000000000004, -0.25, -0.0008859
DataValue, -0.28, -0.25, -0.0008461600000000001
DataValue, -0.27, -0.25, -0.00080674
DataValue, -0.26, -0.25, -0.00076738
DataValue, -0.25, -0.25, -0.00072754
DataValue, -0.24000000000000002, -0.25, -0.00068842
DataValue, -0.23, -0.25, -0.00064988
DataValue, -0.22, -0.25, -0.00061150000000000006
DataValue, -0.21000000000000002, -0.25, -0.0005739
DataValue, -0.2, -0.25, -0.00053724
DataValue, -0.19, -0.25, -0.00050176000000000007
DataValue, -0.18000000000000002, -0.25, -0.00046696000000000004
DataValue, -0.17, -0.25, -0.00043356000000000004
DataValue, -0.16, -0.25, -0.00040134000000000003
DataValue, -0.15, -0.25, -0.00037008
DataValue, -0.14, -0.25, -0.00033998000000000003
DataValue, -0.13, -0.25, -0.00031164
DataValue, -0.12000000000000001, -0.25, -0.00028458000000000004
DataValue, -0.11, -0.25, -0.0002589
DataValue, -0.1, -0.25, -0.00023484000000000002
DataValue, -0.090000000000000011, -0.25, -0.00021222000000000003
DataValue, -0.08, -0.25, -0.00019092000000000002
DataValue, -0.07, -0.25, -0.00017122
DataValue, -0.060000000000000005, -0.25, -0.00015296
DataValue, -0.05, -0.25, -0.000136
DataValue, -0.04, -0.25, -0.00012038000000000001
DataValue, -0.030000000000000002, -0.25, -0.00010604000000000001
DataValue, -0.02, -0.25, -9.2112E-05
DataValue, -0.01, -0.25, -8.0604E-05
DataValue, 0, -0.25, -7.006E-05
DataValue, 0.01, -0.25, -6.045E-05
DataValue, 0.02, -0.25, -5.1756000000000004E-05
DataValue, 0.030000000000000002, -0.25, -4.4074E-05
DataValue, 0.04, -0.25, -3.7290000000000004E-05
DataValue, 0.05, -0.25, -3.1230000000000004E-05
DataValue, 0.060000000000000005, -0.25, -2.5916E-05
DataValue, 0.07, -0.25, -2.1416E-05
DataValue, 0.08, -0.25, -1.7474E-05
DataValue, 0.090000000000000011, -0.25, -1.4048E-05
DataValue, 0.1, -0.25, -1.1266E-05
DataValue, 0.1, -0.25, -9.8015000000000009E-06
DataValue, 0.090000000000000011, -0.25, -1.2134000000000001E-05
DataValue, 0.08, -0.25, -1.4804000000000001E-05
DataValue, 0.07, -0.25, -1.8054E-05
