
SetupTitle, (c2) Transfer curve in LGP
PrimitiveTest, I/V Sweep
TestParameter, Context.MainFrame, B1500A
TestParameter, Channel.UnitType, SMU, SMU
TestParameter, Channel.Unit, SMU1:HR/AS, SMU2:HR/AS
TestParameter, Channel.IName, Ig, Id
TestParameter, Channel.VName, Vg, Vd
TestParameter, Channel.Mode, V, V
TestParameter, Channel.Func, VAR1, VAR2
TestParameter, Channel.Index, 
TestParameter, Channel.Time, 
TestParameter, Measurement.Port.Unit, SMU1:HR/AS, SMU2:HR/AS
TestParameter, Measurement.Port.SeriesResistor, NONE, NONE
TestParameter, Measurement.Port.Filter, ON, ON
TestParameter, Measurement.Port.OutputVoltageComparison, 0, 0
TestParameter, Measurement.Primary.Locus, Double
TestParameter, Measurement.Primary.Scale, LINEAR
TestParameter, Measurement.Primary.Start, 0.1
TestParameter, Measurement.Primary.Stop, -0.4
TestParameter, Measurement.Primary.Step, -0.01
TestParameter, Measurement.Primary.Compliance, 0.1
TestParameter, Measurement.Primary.PowerCompliance, 1
TestParameter, Measurement.Aborting.Condition, SKIP AT ANY ABNORMAL
TestParameter, Measurement.PostOutput.Value, START
TestParameter, Measurement.PostOutput.Retention, OFF
TestParameter, Measurement.Secondary.Start, -0.25
TestParameter, Measurement.Secondary.Count, 5
TestParameter, Measurement.Secondary.Step, 0
TestParameter, Measurement.Secondary.Compliance, 0.1
TestParameter, Measurement.Secondary.PowerCompliance, 1
TestParameter, Measurement.Bias.Source, 0.1, -0.25
TestParameter, Measurement.Bias.Compliance, 0.1, 0.1
TestParameter, Measurement.Monitor.Unit, SMU1:HR/AS, SMU2:HR/AS
TestParameter, Measurement.Monitor.Adc, HR ADC, HR ADC
TestParameter, Measurement.Monitor.Measurement, Compliance Side, Compliance Side
TestParameter, Measurement.Monitor.RangingMode, LIMITED, LIMITED
TestParameter, Measurement.Monitor.RangeBoundary, 1nA, 1nA
TestParameter, Measurement.Monitor.RangeRating, BY FULL RANGE, BY FULL RANGE
TestParameter, Measurement.Monitor.RangeRatingCoeff, 50, 50
TestParameter, Measurement.Timing.Hold, 0
TestParameter, Measurement.Timing.Delay, 0
TestParameter, Measurement.Adc.HighSpeed.Mode, AUTO
TestParameter, Measurement.Adc.HighSpeed.Coeff, 1
TestParameter, Measurement.Adc.HighResolution.AutoZero, OFF
TestParameter, Measurement.Adc.HighResolution.Mode, AUTO
TestParameter, Measurement.Adc.HighResolution.Coeff, 6
TestParameter, Measurement.WaitTime.Source.Coeff, 1
TestParameter, Measurement.WaitTime.Source.Offset, 0
TestParameter, Measurement.WaitTime.Monitor.Coeff, 1
TestParameter, Measurement.WaitTime.Monitor.Offset, 0
TestParameter, Output.Graph.Enabled, true
TestParameter, Output.Graph.AutoScaling, false
TestParameter, Output.Graph.XAxis.Data, Vg
TestParameter, Output.Graph.XAxis.Scale, Linear
TestParameter, Output.Graph.XAxis.Left, 0.60000000000000009
TestParameter, Output.Graph.XAxis.Right, -0.60000000000000009
TestParameter, Output.Graph.XAxis.RunTimeAutoScale, true
TestParameter, Output.Graph.YAxis.Data, Id
TestParameter, Output.Graph.YAxis.Scale, Linear
TestParameter, Output.Graph.YAxis.Bottom, -0.1
TestParameter, Output.Graph.YAxis.Top, 0.1
TestParameter, Output.Graph.YAxis.Group, 
TestParameter, Output.Graph.YAxis.RunTimeAutoScale, true
TestParameter, Output.List.Data, Vd, Vg, Id
TestParameter, AutoAnalysis.Interpolation, false
TestParameter, AutoAnalysis.Var2StepCount, 1
TestParameter, AutoAnalysis.Var2StepScript, 
TestParameter, AutoAnalysis.Line1.Enabled, false
TestParameter, AutoAnalysis.Line1.Type, 1
TestParameter, AutoAnalysis.Line1.Fix, True
TestParameter, AutoAnalysis.Line1.YAxis, 0
TestParameter, AutoAnalysis.Line1.Point1.Type, 0
TestParameter, AutoAnalysis.Line1.Point1.XY.X, 
TestParameter, AutoAnalysis.Line1.Point1.XY.Y, 
TestParameter, AutoAnalysis.Line1.Point1.Data.Var, 
TestParameter, AutoAnalysis.Line1.Point1.Data.Condition, 
TestParameter, AutoAnalysis.Line1.Point1.Data.Start, false
TestParameter, AutoAnalysis.Line1.Point1.Data.StartVar, 
TestParameter, AutoAnalysis.Line1.Point1.Data.StartCondition, 
TestParameter, AutoAnalysis.Line1.Point2.Type, 0
TestParameter, AutoAnalysis.Line1.Point2.XY.X, 
TestParameter, AutoAnalysis.Line1.Point2.XY.Y, 
TestParameter, AutoAnalysis.Line1.Point2.Data.Var, 
TestParameter, AutoAnalysis.Line1.Point2.Data.Condition, 
TestParameter, AutoAnalysis.Line1.Point2.Data.Start, false
TestParameter, AutoAnalysis.Line1.Point2.Data.StartVar, 
TestParameter, AutoAnalysis.Line1.Point2.Data.StartCondition, 
TestParameter, AutoAnalysis.Line1.GradientExpr, 0
TestParameter, AutoAnalysis.Line2.Enabled, false
TestParameter, AutoAnalysis.Line2.Type, 1
TestParameter, AutoAnalysis.Line2.Fix, True
TestParameter, AutoAnalysis.Line2.YAxis, 0
TestParameter, AutoAnalysis.Line2.Point1.Type, 0
TestParameter, AutoAnalysis.Line2.Point1.XY.X, 
TestParameter, AutoAnalysis.Line2.Point1.XY.Y, 
TestParameter, AutoAnalysis.Line2.Point1.Data.Var, 
TestParameter, AutoAnalysis.Line2.Point1.Data.Condition, 
TestParameter, AutoAnalysis.Line2.Point1.Data.Start, false
TestParameter, AutoAnalysis.Line2.Point1.Data.StartVar, 
TestParameter, AutoAnalysis.Line2.Point1.Data.StartCondition, 
TestParameter, AutoAnalysis.Line2.Point2.Type, 0
TestParameter, AutoAnalysis.Line2.Point2.XY.X, 
TestParameter, AutoAnalysis.Line2.Point2.XY.Y, 
TestParameter, AutoAnalysis.Line2.Point2.Data.Var, 
TestParameter, AutoAnalysis.Line2.Point2.Data.Condition, 
TestParameter, AutoAnalysis.Line2.Point2.Data.Start, false
TestParameter, AutoAnalysis.Line2.Point2.Data.StartVar, 
TestParameter, AutoAnalysis.Line2.Point2.Data.StartCondition, 
TestParameter, AutoAnalysis.Line2.GradientExpr, 0
TestParameter, AutoAnalysis.Marker.Enabled, false
TestParameter, AutoAnalysis.Marker.Data.Var, 
TestParameter, AutoAnalysis.Marker.Data.Condition, 
TestParameter, AutoAnalysis.Marker.Data.Start, false
TestParameter, AutoAnalysis.Marker.Data.StartVar, 
TestParameter, AutoAnalysis.Marker.Data.StartCondition, 
MetaData, TestRecord.EntryPoint, true
MetaData, TestRecord.RecordTime, 12/22/2024 05:28:49
MetaData, TestRecord.TestTarget, 
MetaData, TestRecord.IterationIndex, 1
MetaData, TestRecord.Preservation, true
MetaData, TestRecord.Flag, 
MetaData, TestRecord.Remarks, 1.25wt-s21c1
MetaData, TestRecord.LinkKey, f9a818ba-964c-44d9-8445-ad37a3bc57ae
MetaData, TestRecord.Parameters, 
Dimension1, 102, 102, 102
Dimension2, 5, 5, 5
DataName, Vg, Vd, Id
DataValue, 0.1, -0.25, -1.0716E-06
DataValue, 0.090000000000000011, -0.25, -1.2618000000000001E-06
DataValue, 0.08, -0.25, -1.5309000000000002E-06
DataValue, 0.07, -0.25, -1.7593000000000003E-06
DataValue, 0.060000000000000005, -0.25, -2.0818E-06
DataValue, 0.05, -0.25, -2.4867000000000003E-06
DataValue, 0.04, -0.25, -2.8699000000000003E-06
DataValue, 0.030000000000000002, -0.25, -3.3601000000000002E-06
DataValue, 0.02, -0.25, -3.9424000000000006E-06
DataValue, 0.01, -0.25, -4.5234000000000006E-06
DataValue, 0, -0.25, -5.2235000000000009E-06
DataValue, -0.01, -0.25, -6.0712E-06
DataValue, -0.02, -0.25, -6.9007000000000007E-06
DataValue, -0.030000000000000002, -0.25, -7.9229E-06
DataValue, -0.04, -0.25, -9.0354000000000016E-06
DataValue, -0.05, -0.25, -1.0188600000000001E-05
DataValue, -0.060000000000000005, -0.25, -1.1664E-05
DataValue, -0.07, -0.25, -1.3114E-05
DataValue, -0.08, -0.25, -1.4740000000000001E-05
DataValue, -0.090000000000000011, -0.25, -1.6454000000000002E-05
DataValue, -0.1, -0.25, -1.841E-05
DataValue, -0.11, -0.25, -2.0508E-05
DataValue, -0.12000000000000001, -0.25, -2.273E-05
DataValue, -0.13, -0.25, -2.5182E-05
DataValue, -0.14, -0.25, -2.7856000000000002E-05
DataValue, -0.15, -0.25, -3.066E-05
DataValue, -0.16, -0.25, -3.3682E-05
DataValue, -0.17, -0.25, -3.6934E-05
DataValue, -0.18000000000000002, -0.25, -4.0498000000000004E-05
DataValue, -0.19, -0.25, -4.4104E-05
DataValue, -0.2, -0.25, -4.7966E-05
DataValue, -0.21000000000000002, -0.25, -5.22E-05
DataValue, -0.22, -0.25, -5.6512000000000004E-05
DataValue, -0.23, -0.25, -6.1052E-05
DataValue, -0.24000000000000002, -0.25, -6.5922E-05
DataValue, -0.25, -0.25, -7.0922E-05
DataValue, -0.26, -0.25, -7.6118E-05
DataValue, -0.27, -0.25, -8.156E-05
DataValue, -0.28, -0.25, -8.719E-05
DataValue, -0.29000000000000004, -0.25, -9.3168E-05
DataValue, -0.3, -0.25, -9.903E-05
DataValue, -0.31, -0.25, -0.00010517
DataValue, -0.32, -0.25, -0.000111592
DataValue, -0.33, -0.25, -0.00012046000000000001
DataValue, -0.34, -0.25, -0.00012646
DataValue, -0.35000000000000003, -0.25, -0.00013276
DataValue, -0.36000000000000004, -0.25, -0.00013928
DataValue, -0.37, -0.25, -0.00014586000000000002
DataValue, -0.38, -0.25, -0.00015234000000000002
DataValue, -0.39, -0.25, -0.00015902
DataValue, -0.4, -0.25, -0.00016548000000000002
DataValue, -0.4, -0.25, -0.00016624
DataValue, -0.39, -0.25, -0.00016084
DataValue, -0.38, -0.25, -0.00015514
DataValue, -0.37, -0.25, -0.00014916000000000002
DataValue, -0.36000000000000004, -0.25, -0.00014314000000000002
DataValue, -0.35000000000000003, -0.25, -0.00013706000000000002
DataValue, -0.34, -0.25, -0.0001309
DataValue, -0.33, -0.25, -0.00012468
DataValue, -0.32, -0.25, -0.00011864
DataValue, -0.31, -0.25, -0.00011250000000000001
DataValue, -0.3, -0.25, -0.00010652
DataValue, -0.29000000000000004, -0.25, -0.00010066
DataValue, -0.28, -0.25, -9.451E-05
DataValue, -0.27, -0.25, -8.8986E-05
DataValue, -0.26, -0.25, -8.3534E-05
DataValue, -0.25, -0.25, -7.81E-05
DataValue, -0.24000000000000002, -0.25, -7.2908E-05
DataValue, -0.23, -0.25, -6.7914E-05
DataValue, -0.22, -0.25, -6.2982E-05
DataValue, -0.21000000000000002, -0.25, -5.8314000000000004E-05
DataValue, -0.2, -0.25, -5.392E-05
DataValue, -0.19, -0.25, -4.9576E-05
DataValue, -0.18000000000000002, -0.25, -4.5562E-05
DataValue, -0.17, -0.25, -4.1832E-05
DataValue, -0.16, -0.25, -3.819E-05
DataValue, -0.15, -0.25, -3.478E-05
DataValue, -0.14, -0.25, -3.1652E-05
DataValue, -0.13, -0.25, -2.8726000000000002E-05
DataValue, -0.12000000000000001, -0.25, -2.5946000000000002E-05
DataValue, -0.11, -0.25, -2.3382E-05
DataValue, -0.1, -0.25, -2.1062E-05
DataValue, -0.090000000000000011, -0.25, -1.8826000000000002E-05
DataValue, -0.08, -0.25, -1.6778E-05
DataValue, -0.07, -0.25, -1.4952E-05
DataValue, -0.060000000000000005, -0.25, -1.3304E-05
DataValue, -0.05, -0.25, -1.1744E-05
DataValue, -0.04, -0.25, -1.0320000000000001E-05
DataValue, -0.030000000000000002, -0.25, -9.012700000000001E-06
DataValue, -0.02, -0.25, -7.8548000000000014E-06
DataValue, -0.01, -0.25, -6.8860000000000006E-06
DataValue, 0, -0.25, -5.9681000000000005E-06
DataValue, 0.01, -0.25, -5.1313E-06
DataValue, 0.02, -0.25, -4.4333E-06
DataValue, 0.030000000000000002, -0.25, -3.8253000000000005E-06
DataValue, 0.04, -0.25, -3.2267000000000004E-06
DataValue, 0.05, -0.25, -2.7262000000000003E-06
DataValue, 0.060000000000000005, -0.25, -2.3409000000000003E-06
DataValue, 0.07, -0.25, -1.9347000000000003E-06
DataValue, 0.08, -0.25, -1.5869000000000002E-06
DataValue, 0.090000000000000011, -0.25, -1.3548000000000001E-06
DataValue, 0.1, -0.25, -1.0936000000000002E-06
DataValue, 0.1, -0.25, -9.013E-07
DataValue, 0.090000000000000011, -0.25, -1.09512E-06
DataValue, 0.08, -0.25, -1.3332000000000002E-06
DataValue, 0.07, -0.25, -1.5223000000000002E-06
DataValue, 0.060000000000000005, -0.25, -1.8166000000000001E-06
DataValue, 0.05, -0.25, -2.1798000000000003E-06
DataValue, 0.04, -0.25, -2.5166E-06
DataValue, 0.030000000000000002, -0.25, -2.9712000000000005E-06
DataValue, 0.02, -0.25, -3.5078000000000005E-06
DataValue, 0.01, -0.25, -4.0432000000000005E-06
DataValue, 0, -0.25, -4.7149E-06
DataValue, -0.01, -0.25, -5.4937000000000004E-06
DataValue, -0.02, -0.25, -6.2913E-06
DataValue, -0.030000000000000002, -0.25, -7.2523000000000009E-06
DataValue, -0.04, -0.25, -8.3326E-06
DataValue, -0.05, -0.25, -9.4513E-06
DataValue, -0.060000000000000005, -0.25, -1.0767500000000002E-05
DataValue, -0.07, -0.25, -1.2630000000000001E-05
DataValue, -0.08, -0.25, -1.4098000000000001E-05
DataValue, -0.090000000000000011, -0.25, -1.5868E-05
DataValue, -0.1, -0.25, -1.7764E-05
DataValue, -0.11, -0.25, -1.974E-05
DataValue, -0.12000000000000001, -0.25, -2.1992000000000002E-05
DataValue, -0.13, -0.25, -2.446E-05
DataValue, -0.14, -0.25, -2.7056E-05
DataValue, -0.15, -0.25, -2.9892E-05
DataValue, -0.16, -0.25, -3.2964E-05
DataValue, -0.17, -0.25, -3.6168E-05
DataValue, -0.18000000000000002, -0.25, -3.9608000000000004E-05
DataValue, -0.19, -0.25, -4.3358E-05
DataValue, -0.2, -0.25, -4.732E-05
DataValue, -0.21000000000000002, -0.25, -5.1436E-05
DataValue, -0.22, -0.25, -5.5898E-05
DataValue, -0.23, -0.25, -6.056E-05
DataValue, -0.24000000000000002, -0.25, -6.5406E-05
DataValue, -0.25, -0.25, -7.0492E-05
DataValue, -0.26, -0.25, -7.583E-05
DataValue, -0.27, -0.25, -8.1304E-05
DataValue, -0.28, -0.25, -8.7E-05
DataValue, -0.29000000000000004, -0.25, -9.2936E-05
DataValue, -0.3, -0.25, -9.896400000000001E-05
DataValue, -0.31, -0.25, -0.00010517
DataValue, -0.32, -0.25, -0.00011159000000000001
DataValue, -0.33, -0.25, -0.00012036
DataValue, -0.34, -0.25, -0.00012646
DataValue, -0.35000000000000003, -0.25, -0.00013274
DataValue, -0.36000000000000004, -0.25, -0.00013938
DataValue, -0.37, -0.25, -0.00014578
DataValue, -0.38, -0.25, -0.00015222
DataValue, -0.39, -0.25, -0.00015888
DataValue, -0.4, -0.25, -0.00016538000000000002
DataValue, -0.4, -0.25, -0.00016568
DataValue, -0.39, -0.25, -0.00016034
DataValue, -0.38, -0.25, -0.00015456
DataValue, -0.37, -0.25, -0.00014874000000000002
DataValue, -0.36000000000000004, -0.25, -0.00014268
DataValue, -0.35000000000000003, -0.25, -0.00013664000000000002
DataValue, -0.34, -0.25, -0.00013054
DataValue, -0.33, -0.25, -0.00012442
DataValue, -0.32, -0.25, -0.00011828000000000001
DataValue, -0.31, -0.25, -0.00011222
DataValue, -0.3, -0.25, -0.00010630000000000001
DataValue, -0.29000000000000004, -0.25, -0.00010034
DataValue, -0.28, -0.25, -9.4266000000000009E-05
DataValue, -0.27, -0.25, -8.8602E-05
DataValue, -0.26, -0.25, -8.3134000000000007E-05
DataValue, -0.25, -0.25, -7.7798E-05
DataValue, -0.24000000000000002, -0.25, -7.2526E-05
DataValue, -0.23, -0.25, -6.7512E-05
DataValue, -0.22, -0.25, -6.2636E-05
DataValue, -0.21000000000000002, -0.25, -5.7986000000000004E-05
DataValue, -0.2, -0.25, -5.3542E-05
DataValue, -0.19, -0.25, -4.926E-05
DataValue, -0.18000000000000002, -0.25, -4.5278E-05
DataValue, -0.17, -0.25, -4.1494E-05
DataValue, -0.16, -0.25, -3.7732000000000004E-05
DataValue, -0.15, -0.25, -3.4418E-05
DataValue, -0.14, -0.25, -3.1310000000000003E-05
DataValue, -0.13, -0.25, -2.8312000000000003E-05
DataValue, -0.12000000000000001, -0.25, -2.5544E-05
DataValue, -0.11, -0.25, -2.3E-05
DataValue, -0.1, -0.25, -2.067E-05
DataValue, -0.090000000000000011, -0.25, -1.8464E-05
DataValue, -0.08, -0.25, -1.6404E-05
DataValue, -0.07, -0.25, -1.4590000000000001E-05
DataValue, -0.060000000000000005, -0.25, -1.2934E-05
DataValue, -0.05, -0.25, -1.1372E-05
DataValue, -0.04, -0.25, -1.0008E-05
DataValue, -0.030000000000000002, -0.25, -8.6497000000000012E-06
DataValue, -0.02, -0.25, -7.5719000000000011E-06
DataValue, -0.01, -0.25, -6.6218000000000007E-06
DataValue, 0, -0.25, -5.6978000000000007E-06
DataValue, 0.01, -0.25, -4.8961000000000004E-06
DataValue, 0.02, -0.25, -4.2432E-06
DataValue, 0.030000000000000002, -0.25, -3.6267000000000004E-06
DataValue, 0.04, -0.25, -3.046E-06
DataValue, 0.05, -0.25, -2.6116E-06
DataValue, 0.060000000000000005, -0.25, -2.2080000000000003E-06
DataValue, 0.07, -0.25, -1.8005000000000002E-06
DataValue, 0.08, -0.25, -1.5189000000000002E-06
DataValue, 0.090000000000000011, -0.25, -1.2883000000000002E-06
DataValue, 0.1, -0.25, -1.0203E-06
DataValue, 0.1, -0.25, -8.494E-07
DataValue, 0.090000000000000011, -0.25, -1.05376E-06
DataValue, 0.08, -0.25, -1.2789000000000002E-06
DataValue, 0.07, -0.25, -1.5204E-06
DataValue, 0.060000000000000005, -0.25, -1.7490000000000001E-06
DataValue, 0.05, -0.25, -2.1070000000000003E-06
DataValue, 0.04, -0.25, -2.4979000000000003E-06
DataValue, 0.030000000000000002, -0.25, -2.8870000000000005E-06
DataValue, 0.02, -0.25, -3.4223000000000003E-06
DataValue, 0.01, -0.25, -4.0055E-06
DataValue, 0, -0.25, -4.6078E-06
DataValue, -0.01, -0.25, -5.3915000000000008E-06
DataValue, -0.02, -0.25, -6.2196000000000006E-06
DataValue, -0.030000000000000002, -0.25, -7.1032000000000009E-06
DataValue, -0.04, -0.25, -8.1909000000000015E-06
DataValue, -0.05, -0.25, -9.3574000000000012E-06
DataValue, -0.060000000000000005, -0.25, -1.0596000000000002E-05
DataValue, -0.07, -0.25, -1.2494000000000001E-05
DataValue, -0.08, -0.25, -1.3948000000000001E-05
DataValue, -0.090000000000000011, -0.25, -1.5652000000000002E-05
DataValue, -0.1, -0.25, -1.7558E-05
DataValue, -0.11, -0.25, -1.9586000000000002E-05
DataValue, -0.12000000000000001, -0.25, -2.1784E-05
DataValue, -0.13, -0.25, -2.426E-05
DataValue, -0.14, -0.25, -2.6894E-05
DataValue, -0.15, -0.25, -2.9678E-05
DataValue, -0.16, -0.25, -3.2776E-05
DataValue, -0.17, -0.25, -3.6060000000000004E-05
DataValue, -0.18000000000000002, -0.25, -3.9494E-05
DataValue, -0.19, -0.25, -4.3162000000000005E-05
DataValue, -0.2, -0.25, -4.7170000000000004E-05
DataValue, -0.21000000000000002, -0.25, -5.1328E-05
DataValue, -0.22, -0.25, -5.5622000000000004E-05
DataValue, -0.23, -0.25, -6.0288E-05
DataValue, -0.24000000000000002, -0.25, -6.5106E-05
DataValue, -0.25, -0.25, -7.0106E-05
DataValue, -0.26, -0.25, -7.5502E-05
DataValue, -0.27, -0.25, -8.1028E-05
DataValue, -0.28, -0.25, -8.6694000000000007E-05
DataValue, -0.29000000000000004, -0.25, -9.2512E-05
DataValue, -0.3, -0.25, -9.8474E-05
DataValue, -0.31, -0.25, -0.00010482
DataValue, -0.32, -0.25, -0.00011120800000000001
DataValue, -0.33, -0.25, -0.00012016
DataValue, -0.34, -0.25, -0.00012632
DataValue, -0.35000000000000003, -0.25, -0.00013286
DataValue, -0.36000000000000004, -0.25, -0.00013932000000000002
DataValue, -0.37, -0.25, -0.00014574
DataValue, -0.38, -0.25, -0.00015232
DataValue, -0.39, -0.25, -0.0001589
DataValue, -0.4, -0.25, -0.00016526
DataValue, -0.4, -0.25, -0.00016556
DataValue, -0.39, -0.25, -0.00016030000000000002
DataValue, -0.38, -0.25, -0.00015462
DataValue, -0.37, -0.25, -0.00014858000000000002
DataValue, -0.36000000000000004, -0.25, -0.00014258
DataValue, -0.35000000000000003, -0.25, -0.0001366
DataValue, -0.34, -0.25, -0.00013046000000000002
DataValue, -0.33, -0.25, -0.00012424000000000002
DataValue, -0.32, -0.25, -0.00011816000000000001
DataValue, -0.31, -0.25, -0.00011222
DataValue, -0.3, -0.25, -0.00010616
DataValue, -0.29000000000000004, -0.25, -0.00010024
DataValue, -0.28, -0.25, -9.4142000000000008E-05
DataValue, -0.27, -0.25, -8.8518000000000009E-05
DataValue, -0.26, -0.25, -8.2964E-05
DataValue, -0.25, -0.25, -7.7722E-05
DataValue, -0.24000000000000002, -0.25, -7.2516000000000008E-05
DataValue, -0.23, -0.25, -6.7334E-05
DataValue, -0.22, -0.25, -6.2536E-05
DataValue, -0.21000000000000002, -0.25, -5.7900000000000005E-05
DataValue, -0.2, -0.25, -5.3416000000000005E-05
DataValue, -0.19, -0.25, -4.9160000000000004E-05
DataValue, -0.18000000000000002, -0.25, -4.5184E-05
DataValue, -0.17, -0.25, -4.1356E-05
DataValue, -0.16, -0.25, -3.7704000000000004E-05
DataValue, -0.15, -0.25, -3.4334E-05
DataValue, -0.14, -0.25, -3.12E-05
DataValue, -0.13, -0.25, -2.824E-05
DataValue, -0.12000000000000001, -0.25, -2.5414E-05
DataValue, -0.11, -0.25, -2.2858E-05
DataValue, -0.1, -0.25, -2.0522E-05
DataValue, -0.090000000000000011, -0.25, -1.8246E-05
DataValue, -0.08, -0.25, -1.6192E-05
DataValue, -0.07, -0.25, -1.4376000000000001E-05
DataValue, -0.060000000000000005, -0.25, -1.2738E-05
DataValue, -0.05, -0.25, -1.127E-05
DataValue, -0.04, -0.25, -9.7538000000000014E-06
DataValue, -0.030000000000000002, -0.25, -8.6289000000000014E-06
DataValue, -0.02, -0.25, -7.5001E-06
DataValue, -0.01, -0.25, -6.5085000000000005E-06
DataValue, 0, -0.25, -5.6695000000000005E-06
DataValue, 0.01, -0.25, -4.8534000000000008E-06
DataValue, 0.02, -0.25, -4.1587000000000005E-06
DataValue, 0.030000000000000002, -0.25, -3.5854000000000004E-06
DataValue, 0.04, -0.25, -3.0343000000000003E-06
DataValue, 0.05, -0.25, -2.5298000000000003E-06
