
SetupTitle, (c2) Transfer curve in LGP
PrimitiveTest, I/V Sweep
TestParameter, Context.MainFrame, B1500A
TestParameter, Channel.UnitType, SMU, SMU
TestParameter, Channel.Unit, SMU1:HR/AS, SMU2:HR/AS
TestParameter, Channel.IName, Ig, Id
TestParameter, Channel.VName, Vg, Vd
TestParameter, Channel.Mode, V, V
TestParameter, Channel.Func, VAR1, VAR2
TestParameter, Channel.Index, 
TestParameter, Channel.Time, 
TestParameter, Measurement.Port.Unit, SMU1:HR/AS, SMU2:HR/AS
TestParameter, Measurement.Port.SeriesResistor, NONE, NONE
TestParameter, Measurement.Port.Filter, ON, ON
TestParameter, Measurement.Port.OutputVoltageComparison, 0, 0
TestParameter, Measurement.Primary.Locus, Double
TestParameter, Measurement.Primary.Scale, LINEAR
TestParameter, Measurement.Primary.Start, 0.1
TestParameter, Measurement.Primary.Stop, -0.4
TestParameter, Measurement.Primary.Step, -0.01
TestParameter, Measurement.Primary.Compliance, 0.1
TestParameter, Measurement.Primary.PowerCompliance, 1
TestParameter, Measurement.Aborting.Condition, SKIP AT ANY ABNORMAL
TestParameter, Measurement.PostOutput.Value, START
TestParameter, Measurement.PostOutput.Retention, OFF
TestParameter, Measurement.Secondary.Start, -0.25
TestParameter, Measurement.Secondary.Count, 5
TestParameter, Measurement.Secondary.Step, 0
TestParameter, Measurement.Secondary.Compliance, 0.1
TestParameter, Measurement.Secondary.PowerCompliance, 1
TestParameter, Measurement.Bias.Source, 0.1, -0.25
TestParameter, Measurement.Bias.Compliance, 0.1, 0.1
TestParameter, Measurement.Monitor.Unit, SMU1:HR/AS, SMU2:HR/AS
TestParameter, Measurement.Monitor.Adc, HR ADC, HR ADC
TestParameter, Measurement.Monitor.Measurement, Compliance Side, Compliance Side
TestParameter, Measurement.Monitor.RangingMode, LIMITED, LIMITED
TestParameter, Measurement.Monitor.RangeBoundary, 1nA, 1nA
TestParameter, Measurement.Monitor.RangeRating, BY FULL RANGE, BY FULL RANGE
TestParameter, Measurement.Monitor.RangeRatingCoeff, 50, 50
TestParameter, Measurement.Timing.Hold, 0
TestParameter, Measurement.Timing.Delay, 0
TestParameter, Measurement.Adc.HighSpeed.Mode, AUTO
TestParameter, Measurement.Adc.HighSpeed.Coeff, 1
TestParameter, Measurement.Adc.HighResolution.AutoZero, OFF
TestParameter, Measurement.Adc.HighResolution.Mode, AUTO
TestParameter, Measurement.Adc.HighResolution.Coeff, 6
TestParameter, Measurement.WaitTime.Source.Coeff, 1
TestParameter, Measurement.WaitTime.Source.Offset, 0
TestParameter, Measurement.WaitTime.Monitor.Coeff, 1
TestParameter, Measurement.WaitTime.Monitor.Offset, 0
TestParameter, Output.Graph.Enabled, true
TestParameter, Output.Graph.AutoScaling, false
TestParameter, Output.Graph.XAxis.Data, Vg
TestParameter, Output.Graph.XAxis.Scale, Linear
TestParameter, Output.Graph.XAxis.Left, 0.60000000000000009
TestParameter, Output.Graph.XAxis.Right, -0.60000000000000009
TestParameter, Output.Graph.XAxis.RunTimeAutoScale, true
TestParameter, Output.Graph.YAxis.Data, Id
TestParameter, Output.Graph.YAxis.Scale, Linear
TestParameter, Output.Graph.YAxis.Bottom, -0.1
TestParameter, Output.Graph.YAxis.Top, 0.1
TestParameter, Output.Graph.YAxis.Group, 
TestParameter, Output.Graph.YAxis.RunTimeAutoScale, true
TestParameter, Output.List.Data, Vd, Vg, Id
TestParameter, AutoAnalysis.Interpolation, false
TestParameter, AutoAnalysis.Var2StepCount, 1
TestParameter, AutoAnalysis.Var2StepScript, 
TestParameter, AutoAnalysis.Line1.Enabled, false
TestParameter, AutoAnalysis.Line1.Type, 1
TestParameter, AutoAnalysis.Line1.Fix, True
TestParameter, AutoAnalysis.Line1.YAxis, 0
TestParameter, AutoAnalysis.Line1.Point1.Type, 0
TestParameter, AutoAnalysis.Line1.Point1.XY.X, 
TestParameter, AutoAnalysis.Line1.Point1.XY.Y, 
TestParameter, AutoAnalysis.Line1.Point1.Data.Var, 
TestParameter, AutoAnalysis.Line1.Point1.Data.Condition, 
TestParameter, AutoAnalysis.Line1.Point1.Data.Start, false
TestParameter, AutoAnalysis.Line1.Point1.Data.StartVar, 
TestParameter, AutoAnalysis.Line1.Point1.Data.StartCondition, 
TestParameter, AutoAnalysis.Line1.Point2.Type, 0
TestParameter, AutoAnalysis.Line1.Point2.XY.X, 
TestParameter, AutoAnalysis.Line1.Point2.XY.Y, 
TestParameter, AutoAnalysis.Line1.Point2.Data.Var, 
TestParameter, AutoAnalysis.Line1.Point2.Data.Condition, 
TestParameter, AutoAnalysis.Line1.Point2.Data.Start, false
TestParameter, AutoAnalysis.Line1.Point2.Data.StartVar, 
TestParameter, AutoAnalysis.Line1.Point2.Data.StartCondition, 
TestParameter, AutoAnalysis.Line1.GradientExpr, 0
TestParameter, AutoAnalysis.Line2.Enabled, false
TestParameter, AutoAnalysis.Line2.Type, 1
TestParameter, AutoAnalysis.Line2.Fix, True
TestParameter, AutoAnalysis.Line2.YAxis, 0
TestParameter, AutoAnalysis.Line2.Point1.Type, 0
TestParameter, AutoAnalysis.Line2.Point1.XY.X, 
TestParameter, AutoAnalysis.Line2.Point1.XY.Y, 
TestParameter, AutoAnalysis.Line2.Point1.Data.Var, 
TestParameter, AutoAnalysis.Line2.Point1.Data.Condition, 
TestParameter, AutoAnalysis.Line2.Point1.Data.Start, false
TestParameter, AutoAnalysis.Line2.Point1.Data.StartVar, 
TestParameter, AutoAnalysis.Line2.Point1.Data.StartCondition, 
TestParameter, AutoAnalysis.Line2.Point2.Type, 0
TestParameter, AutoAnalysis.Line2.Point2.XY.X, 
TestParameter, AutoAnalysis.Line2.Point2.XY.Y, 
TestParameter, AutoAnalysis.Line2.Point2.Data.Var, 
TestParameter, AutoAnalysis.Line2.Point2.Data.Condition, 
TestParameter, AutoAnalysis.Line2.Point2.Data.Start, false
TestParameter, AutoAnalysis.Line2.Point2.Data.StartVar, 
TestParameter, AutoAnalysis.Line2.Point2.Data.StartCondition, 
TestParameter, AutoAnalysis.Line2.GradientExpr, 0
TestParameter, AutoAnalysis.Marker.Enabled, false
TestParameter, AutoAnalysis.Marker.Data.Var, 
TestParameter, AutoAnalysis.Marker.Data.Condition, 
TestParameter, AutoAnalysis.Marker.Data.Start, false
TestParameter, AutoAnalysis.Marker.Data.StartVar, 
TestParameter, AutoAnalysis.Marker.Data.StartCondition, 
MetaData, TestRecord.EntryPoint, true
MetaData, TestRecord.RecordTime, 12/22/2024 05:34:39
MetaData, TestRecord.TestTarget, 
MetaData, TestRecord.IterationIndex, 3
MetaData, TestRecord.Preservation, true
MetaData, TestRecord.Flag, 
MetaData, TestRecord.Remarks, 1.25wts21-c4
MetaData, TestRecord.LinkKey, 14ea3bf2-2da5-4772-9a02-7f7cc66d3f0d
MetaData, TestRecord.Parameters, 
Dimension1, 102, 102, 102
Dimension2, 5, 5, 5
DataName, Vg, Vd, Id
DataValue, 0.1, -0.25, -5.6227E-06
DataValue, 0.090000000000000011, -0.25, -6.4122000000000011E-06
DataValue, 0.08, -0.25, -7.4220000000000011E-06
DataValue, 0.07, -0.25, -8.505E-06
DataValue, 0.060000000000000005, -0.25, -9.7329000000000013E-06
DataValue, 0.05, -0.25, -1.1171000000000002E-05
DataValue, 0.04, -0.25, -1.2794E-05
DataValue, 0.030000000000000002, -0.25, -1.4452E-05
DataValue, 0.02, -0.25, -1.6336E-05
DataValue, 0.01, -0.25, -1.832E-05
DataValue, 0, -0.25, -2.0510000000000002E-05
DataValue, -0.01, -0.25, -2.2992E-05
DataValue, -0.02, -0.25, -2.5598E-05
DataValue, -0.030000000000000002, -0.25, -2.8474000000000002E-05
DataValue, -0.04, -0.25, -3.1626E-05
DataValue, -0.05, -0.25, -3.487E-05
DataValue, -0.060000000000000005, -0.25, -3.841E-05
DataValue, -0.07, -0.25, -4.2258E-05
DataValue, -0.08, -0.25, -4.6368E-05
DataValue, -0.090000000000000011, -0.25, -5.0632E-05
DataValue, -0.1, -0.25, -5.5308E-05
DataValue, -0.11, -0.25, -6.0146E-05
DataValue, -0.12000000000000001, -0.25, -6.5362E-05
DataValue, -0.13, -0.25, -7.0838E-05
DataValue, -0.14, -0.25, -7.6436E-05
DataValue, -0.15, -0.25, -8.228E-05
DataValue, -0.16, -0.25, -8.8368E-05
DataValue, -0.17, -0.25, -9.4964000000000008E-05
DataValue, -0.18000000000000002, -0.25, -0.00010159000000000001
DataValue, -0.19, -0.25, -0.00010821000000000001
DataValue, -0.2, -0.25, -0.00011618
DataValue, -0.21000000000000002, -0.25, -0.00012340000000000002
DataValue, -0.22, -0.25, -0.0001303
DataValue, -0.23, -0.25, -0.00013762
DataValue, -0.24000000000000002, -0.25, -0.00014528000000000002
DataValue, -0.25, -0.25, -0.00015274
DataValue, -0.26, -0.25, -0.00016044
DataValue, -0.27, -0.25, -0.00016786
DataValue, -0.28, -0.25, -0.0001755
DataValue, -0.29000000000000004, -0.25, -0.00018318000000000002
DataValue, -0.3, -0.25, -0.00019058
DataValue, -0.31, -0.25, -0.00019798000000000003
DataValue, -0.32, -0.25, -0.0002053
DataValue, -0.33, -0.25, -0.00021268
DataValue, -0.34, -0.25, -0.00021954
DataValue, -0.35000000000000003, -0.25, -0.00022632000000000002
DataValue, -0.36000000000000004, -0.25, -0.00023276000000000001
DataValue, -0.37, -0.25, -0.00023936
DataValue, -0.38, -0.25, -0.00024528
DataValue, -0.39, -0.25, -0.00025072
DataValue, -0.4, -0.25, -0.00025602000000000003
DataValue, -0.4, -0.25, -0.00025628
DataValue, -0.39, -0.25, -0.00025208
DataValue, -0.38, -0.25, -0.00024758
DataValue, -0.37, -0.25, -0.00024258000000000003
DataValue, -0.36000000000000004, -0.25, -0.00023730000000000002
DataValue, -0.35000000000000003, -0.25, -0.00023146
DataValue, -0.34, -0.25, -0.00022558000000000002
DataValue, -0.33, -0.25, -0.00021938
DataValue, -0.32, -0.25, -0.00021274000000000003
DataValue, -0.31, -0.25, -0.00020638
DataValue, -0.3, -0.25, -0.00019922
DataValue, -0.29000000000000004, -0.25, -0.00019214000000000001
DataValue, -0.28, -0.25, -0.00018500000000000002
DataValue, -0.27, -0.25, -0.00017774000000000002
DataValue, -0.26, -0.25, -0.00017032
DataValue, -0.25, -0.25, -0.00016298000000000002
DataValue, -0.24000000000000002, -0.25, -0.0001554
DataValue, -0.23, -0.25, -0.00014768000000000002
DataValue, -0.22, -0.25, -0.00014022
DataValue, -0.21000000000000002, -0.25, -0.00013254
DataValue, -0.2, -0.25, -0.00012528000000000002
DataValue, -0.19, -0.25, -0.00011800000000000001
DataValue, -0.18000000000000002, -0.25, -0.00011098000000000001
DataValue, -0.17, -0.25, -0.00010392000000000001
DataValue, -0.16, -0.25, -9.6644E-05
DataValue, -0.15, -0.25, -9.037E-05
DataValue, -0.14, -0.25, -8.4144E-05
DataValue, -0.13, -0.25, -7.794E-05
DataValue, -0.12000000000000001, -0.25, -7.2224E-05
DataValue, -0.11, -0.25, -6.6650000000000007E-05
DataValue, -0.1, -0.25, -6.0922000000000004E-05
DataValue, -0.090000000000000011, -0.25, -5.598E-05
DataValue, -0.08, -0.25, -5.1274000000000004E-05
DataValue, -0.07, -0.25, -4.6726E-05
DataValue, -0.060000000000000005, -0.25, -4.2598E-05
DataValue, -0.05, -0.25, -3.8642E-05
DataValue, -0.04, -0.25, -3.4878E-05
DataValue, -0.030000000000000002, -0.25, -3.1442E-05
DataValue, -0.02, -0.25, -2.8294E-05
DataValue, -0.01, -0.25, -2.5222E-05
DataValue, 0, -0.25, -2.2494000000000002E-05
DataValue, 0.01, -0.25, -1.9996E-05
DataValue, 0.02, -0.25, -1.7672E-05
DataValue, 0.030000000000000002, -0.25, -1.5554E-05
DataValue, 0.04, -0.25, -1.3670000000000001E-05
DataValue, 0.05, -0.25, -1.1934000000000001E-05
DataValue, 0.060000000000000005, -0.25, -1.0316E-05
DataValue, 0.07, -0.25, -8.8171E-06
DataValue, 0.08, -0.25, -7.5213000000000012E-06
DataValue, 0.090000000000000011, -0.25, -6.4577000000000009E-06
DataValue, 0.1, -0.25, -5.4993000000000009E-06
DataValue, 0.1, -0.25, -4.6833000000000005E-06
DataValue, 0.090000000000000011, -0.25, -5.3899000000000007E-06
DataValue, 0.08, -0.25, -6.2304000000000005E-06
DataValue, 0.07, -0.25, -7.2635000000000008E-06
DataValue, 0.060000000000000005, -0.25, -8.3356E-06
DataValue, 0.05, -0.25, -9.5951E-06
DataValue, 0.04, -0.25, -1.10429E-05
DataValue, 0.030000000000000002, -0.25, -1.2934E-05
DataValue, 0.02, -0.25, -1.4642E-05
DataValue, 0.01, -0.25, -1.6508000000000002E-05
DataValue, 0, -0.25, -1.8552E-05
DataValue, -0.01, -0.25, -2.0844000000000002E-05
DataValue, -0.02, -0.25, -2.3356E-05
DataValue, -0.030000000000000002, -0.25, -2.6034000000000002E-05
DataValue, -0.04, -0.25, -2.9032000000000003E-05
DataValue, -0.05, -0.25, -3.221E-05
DataValue, -0.060000000000000005, -0.25, -3.5556E-05
DataValue, -0.07, -0.25, -3.9286E-05
DataValue, -0.08, -0.25, -4.337E-05
DataValue, -0.090000000000000011, -0.25, -4.7510000000000004E-05
DataValue, -0.1, -0.25, -5.187E-05
DataValue, -0.11, -0.25, -5.668E-05
DataValue, -0.12000000000000001, -0.25, -6.1854000000000008E-05
DataValue, -0.13, -0.25, -6.7224E-05
DataValue, -0.14, -0.25, -7.3060000000000009E-05
DataValue, -0.15, -0.25, -7.9160000000000008E-05
DataValue, -0.16, -0.25, -8.5172E-05
DataValue, -0.17, -0.25, -9.1558E-05
DataValue, -0.18000000000000002, -0.25, -9.82E-05
DataValue, -0.19, -0.25, -0.00010518200000000001
DataValue, -0.2, -0.25, -0.00011215400000000001
DataValue, -0.21000000000000002, -0.25, -0.00012218
DataValue, -0.22, -0.25, -0.0001292
DataValue, -0.23, -0.25, -0.00013658
DataValue, -0.24000000000000002, -0.25, -0.00014416
DataValue, -0.25, -0.25, -0.0001516
DataValue, -0.26, -0.25, -0.00015918
DataValue, -0.27, -0.25, -0.00016684000000000002
DataValue, -0.28, -0.25, -0.00017464000000000002
DataValue, -0.29000000000000004, -0.25, -0.00018228000000000002
DataValue, -0.3, -0.25, -0.00018974
DataValue, -0.31, -0.25, -0.00019716000000000002
DataValue, -0.32, -0.25, -0.00020444000000000002
DataValue, -0.33, -0.25, -0.00021144000000000002
DataValue, -0.34, -0.25, -0.00021834000000000003
DataValue, -0.35000000000000003, -0.25, -0.0002254
DataValue, -0.36000000000000004, -0.25, -0.00023208000000000001
DataValue, -0.37, -0.25, -0.000238
DataValue, -0.38, -0.25, -0.0002442
DataValue, -0.39, -0.25, -0.00025
DataValue, -0.4, -0.25, -0.00025534
DataValue, -0.4, -0.25, -0.00025558
DataValue, -0.39, -0.25, -0.00025148
DataValue, -0.38, -0.25, -0.00024690000000000004
DataValue, -0.37, -0.25, -0.00024186000000000002
DataValue, -0.36000000000000004, -0.25, -0.00023638
DataValue, -0.35000000000000003, -0.25, -0.00023080000000000003
DataValue, -0.34, -0.25, -0.00022484000000000002
DataValue, -0.33, -0.25, -0.00021854
DataValue, -0.32, -0.25, -0.00021212000000000002
DataValue, -0.31, -0.25, -0.00020574000000000002
DataValue, -0.3, -0.25, -0.0001988
DataValue, -0.29000000000000004, -0.25, -0.00019164
DataValue, -0.28, -0.25, -0.00018448000000000002
DataValue, -0.27, -0.25, -0.00017732000000000002
DataValue, -0.26, -0.25, -0.0001696
DataValue, -0.25, -0.25, -0.00016214000000000002
DataValue, -0.24000000000000002, -0.25, -0.00015468
DataValue, -0.23, -0.25, -0.00014666
DataValue, -0.22, -0.25, -0.00013900000000000002
DataValue, -0.21000000000000002, -0.25, -0.0001317
DataValue, -0.2, -0.25, -0.00012412
DataValue, -0.19, -0.25, -0.00011708000000000001
DataValue, -0.18000000000000002, -0.25, -0.00010982
DataValue, -0.17, -0.25, -0.00010288
DataValue, -0.16, -0.25, -9.5512E-05
DataValue, -0.15, -0.25, -8.9058E-05
DataValue, -0.14, -0.25, -8.275E-05
DataValue, -0.13, -0.25, -7.6724E-05
DataValue, -0.12000000000000001, -0.25, -7.0882E-05
DataValue, -0.11, -0.25, -6.524E-05
DataValue, -0.1, -0.25, -5.9924000000000004E-05
DataValue, -0.090000000000000011, -0.25, -5.5020000000000005E-05
DataValue, -0.08, -0.25, -5.0068E-05
DataValue, -0.07, -0.25, -4.5548000000000005E-05
DataValue, -0.060000000000000005, -0.25, -4.1478E-05
DataValue, -0.05, -0.25, -3.743E-05
DataValue, -0.04, -0.25, -3.3668000000000004E-05
DataValue, -0.030000000000000002, -0.25, -3.0296000000000003E-05
DataValue, -0.02, -0.25, -2.7232E-05
DataValue, -0.01, -0.25, -2.4258E-05
DataValue, 0, -0.25, -2.1552E-05
DataValue, 0.01, -0.25, -1.9108E-05
DataValue, 0.02, -0.25, -1.6808E-05
DataValue, 0.030000000000000002, -0.25, -1.4708E-05
DataValue, 0.04, -0.25, -1.2882E-05
DataValue, 0.05, -0.25, -1.124E-05
DataValue, 0.060000000000000005, -0.25, -9.5534E-06
DataValue, 0.07, -0.25, -8.2913000000000014E-06
DataValue, 0.08, -0.25, -7.0833000000000004E-06
DataValue, 0.090000000000000011, -0.25, -6.058E-06
DataValue, 0.1, -0.25, -5.1736000000000007E-06
DataValue, 0.1, -0.25, -4.5601000000000006E-06
DataValue, 0.090000000000000011, -0.25, -5.2603E-06
DataValue, 0.08, -0.25, -6.1221E-06
DataValue, 0.07, -0.25, -7.1253000000000011E-06
DataValue, 0.060000000000000005, -0.25, -8.1679E-06
DataValue, 0.05, -0.25, -9.4247000000000014E-06
DataValue, 0.04, -0.25, -1.0873300000000001E-05
DataValue, 0.030000000000000002, -0.25, -1.2724E-05
DataValue, 0.02, -0.25, -1.4420000000000001E-05
DataValue, 0.01, -0.25, -1.6270000000000002E-05
DataValue, 0, -0.25, -1.8268000000000002E-05
DataValue, -0.01, -0.25, -2.0548E-05
DataValue, -0.02, -0.25, -2.3044E-05
DataValue, -0.030000000000000002, -0.25, -2.5702000000000002E-05
DataValue, -0.04, -0.25, -2.87E-05
DataValue, -0.05, -0.25, -3.1888000000000004E-05
DataValue, -0.060000000000000005, -0.25, -3.5356E-05
DataValue, -0.07, -0.25, -3.9056E-05
DataValue, -0.08, -0.25, -4.3036E-05
DataValue, -0.090000000000000011, -0.25, -4.7258E-05
DataValue, -0.1, -0.25, -5.1774E-05
DataValue, -0.11, -0.25, -5.6666E-05
DataValue, -0.12000000000000001, -0.25, -6.159E-05
DataValue, -0.13, -0.25, -6.6972000000000009E-05
DataValue, -0.14, -0.25, -7.2590000000000008E-05
DataValue, -0.15, -0.25, -7.857E-05
DataValue, -0.16, -0.25, -8.4832E-05
DataValue, -0.17, -0.25, -9.11E-05
DataValue, -0.18000000000000002, -0.25, -9.7948E-05
DataValue, -0.19, -0.25, -0.000104906
DataValue, -0.2, -0.25, -0.000111938
DataValue, -0.21000000000000002, -0.25, -0.00012184000000000001
DataValue, -0.22, -0.25, -0.00012894
DataValue, -0.23, -0.25, -0.00013616
DataValue, -0.24000000000000002, -0.25, -0.00014352
DataValue, -0.25, -0.25, -0.00015156000000000002
DataValue, -0.26, -0.25, -0.00015914
DataValue, -0.27, -0.25, -0.00016638000000000002
DataValue, -0.28, -0.25, -0.00017426
DataValue, -0.29000000000000004, -0.25, -0.0001819
DataValue, -0.3, -0.25, -0.0001896
DataValue, -0.31, -0.25, -0.00019716000000000002
DataValue, -0.32, -0.25, -0.00020472
DataValue, -0.33, -0.25, -0.00021178
DataValue, -0.34, -0.25, -0.0002188
DataValue, -0.35000000000000003, -0.25, -0.00022534
DataValue, -0.36000000000000004, -0.25, -0.00023208000000000001
DataValue, -0.37, -0.25, -0.00023832
DataValue, -0.38, -0.25, -0.00024408
DataValue, -0.39, -0.25, -0.00024998
DataValue, -0.4, -0.25, -0.00025532
DataValue, -0.4, -0.25, -0.00025566
DataValue, -0.39, -0.25, -0.00025124
DataValue, -0.38, -0.25, -0.00024676
DataValue, -0.37, -0.25, -0.00024216000000000003
DataValue, -0.36000000000000004, -0.25, -0.00023656000000000003
DataValue, -0.35000000000000003, -0.25, -0.0002309
DataValue, -0.34, -0.25, -0.00022480000000000002
DataValue, -0.33, -0.25, -0.00021862000000000002
DataValue, -0.32, -0.25, -0.00021206000000000003
DataValue, -0.31, -0.25, -0.0002056
DataValue, -0.3, -0.25, -0.00019874
DataValue, -0.29000000000000004, -0.25, -0.00019166000000000002
DataValue, -0.28, -0.25, -0.00018442
DataValue, -0.27, -0.25, -0.00017714
DataValue, -0.26, -0.25, -0.00016952000000000002
DataValue, -0.25, -0.25, -0.00016194
DataValue, -0.24000000000000002, -0.25, -0.00015446
DataValue, -0.23, -0.25, -0.00014694
DataValue, -0.22, -0.25, -0.00013904
DataValue, -0.21000000000000002, -0.25, -0.00013156000000000002
DataValue, -0.2, -0.25, -0.00012414000000000001
DataValue, -0.19, -0.25, -0.00011690000000000001
DataValue, -0.18000000000000002, -0.25, -0.00010960000000000001
DataValue, -0.17, -0.25, -0.00010272
DataValue, -0.16, -0.25, -9.4722E-05
DataValue, -0.15, -0.25, -8.8504E-05
DataValue, -0.14, -0.25, -8.2322E-05
DataValue, -0.13, -0.25, -7.6082000000000008E-05
DataValue, -0.12000000000000001, -0.25, -7.0324E-05
DataValue, -0.11, -0.25, -6.4828E-05
DataValue, -0.1, -0.25, -5.9398E-05
DataValue, -0.090000000000000011, -0.25, -5.4452E-05
DataValue, -0.08, -0.25, -4.9752E-05
DataValue, -0.07, -0.25, -4.5102E-05
DataValue, -0.060000000000000005, -0.25, -4.104E-05
DataValue, -0.05, -0.25, -3.7120000000000004E-05
DataValue, -0.04, -0.25, -3.3438E-05
DataValue, -0.030000000000000002, -0.25, -2.996E-05
DataValue, -0.02, -0.25, -2.6838E-05
DataValue, -0.01, -0.25, -2.3948000000000002E-05
DataValue, 0, -0.25, -2.1208E-05
DataValue, 0.01, -0.25, -1.8794E-05
DataValue, 0.02, -0.25, -1.6552E-05
DataValue, 0.030000000000000002, -0.25, -1.4494E-05
DataValue, 0.04, -0.25, -1.2722000000000001E-05
DataValue, 0.05, -0.25, -1.1074000000000001E-05
DataValue, 0.060000000000000005, -0.25, -9.4162000000000014E-06
DataValue, 0.07, -0.25, -8.1809000000000016E-06
DataValue, 0.08, -0.25, -6.9799000000000007E-06
