
SetupTitle, (c1) Output curve in LGP
PrimitiveTest, I/V Sweep
TestParameter, Context.MainFrame, B1500A
TestParameter, Channel.UnitType, SMU, SMU
TestParameter, Channel.Unit, SMU1:HR/AS, SMU2:HR/AS
TestParameter, Channel.IName, Ig, Id
TestParameter, Channel.VName, Vg, Vd
TestParameter, Channel.Mode, V, V
TestParameter, Channel.Func, VAR2, VAR1
TestParameter, Channel.Index, 
TestParameter, Channel.Time, 
TestParameter, Measurement.Port.Unit, SMU1:HR/AS, SMU2:HR/AS
TestParameter, Measurement.Port.SeriesResistor, NONE, NONE
TestParameter, Measurement.Port.Filter, ON, ON
TestParameter, Measurement.Port.OutputVoltageComparison, 0, 0
TestParameter, Measurement.Primary.Locus, Double
TestParameter, Measurement.Primary.Scale, LINEAR
TestParameter, Measurement.Primary.Start, 0.1
TestParameter, Measurement.Primary.Stop, -0.5
TestParameter, Measurement.Primary.Step, -0.012
TestParameter, Measurement.Primary.Compliance, 0.1
TestParameter, Measurement.Primary.PowerCompliance, 0
TestParameter, Measurement.Aborting.Condition, CONTINUE AT ANY
TestParameter, Measurement.PostOutput.Value, START
TestParameter, Measurement.PostOutput.Retention, OFF
TestParameter, Measurement.Secondary.Start, 0.1
TestParameter, Measurement.Secondary.Count, 6
TestParameter, Measurement.Secondary.Step, -0.1
TestParameter, Measurement.Secondary.Compliance, 0.0001
TestParameter, Measurement.Secondary.PowerCompliance, 0
TestParameter, Measurement.Bias.Source, 0.1, 0.1
TestParameter, Measurement.Bias.Compliance, 0.0001, 0.1
TestParameter, Measurement.Monitor.Unit, SMU1:HR/AS, SMU2:HR/AS
TestParameter, Measurement.Monitor.Adc, HR ADC, HR ADC
TestParameter, Measurement.Monitor.Measurement, Compliance Side, Compliance Side
TestParameter, Measurement.Monitor.RangingMode, LIMITED, LIMITED
TestParameter, Measurement.Monitor.RangeBoundary, 1nA, 1nA
TestParameter, Measurement.Monitor.RangeRating, BY FULL RANGE, BY FULL RANGE
TestParameter, Measurement.Monitor.RangeRatingCoeff, 50, 50
TestParameter, Measurement.Timing.Hold, 0
TestParameter, Measurement.Timing.Delay, 0
TestParameter, Measurement.Adc.HighSpeed.Mode, AUTO
TestParameter, Measurement.Adc.HighSpeed.Coeff, 1
TestParameter, Measurement.Adc.HighResolution.AutoZero, OFF
TestParameter, Measurement.Adc.HighResolution.Mode, AUTO
TestParameter, Measurement.Adc.HighResolution.Coeff, 6
TestParameter, Measurement.WaitTime.Source.Coeff, 1
TestParameter, Measurement.WaitTime.Source.Offset, 0
TestParameter, Measurement.WaitTime.Monitor.Coeff, 1
TestParameter, Measurement.WaitTime.Monitor.Offset, 0
TestParameter, Output.Graph.Enabled, true
TestParameter, Output.Graph.AutoScaling, false
TestParameter, Output.Graph.XAxis.Data, Vd
TestParameter, Output.Graph.XAxis.Scale, Linear
TestParameter, Output.Graph.XAxis.Left, 0
TestParameter, Output.Graph.XAxis.Right, -0.5
TestParameter, Output.Graph.XAxis.RunTimeAutoScale, true
TestParameter, Output.Graph.YAxis.Data, Id
TestParameter, Output.Graph.YAxis.Scale, Linear
TestParameter, Output.Graph.YAxis.Bottom, -0.1
TestParameter, Output.Graph.YAxis.Top, 0.1
TestParameter, Output.Graph.YAxis.Group, 
TestParameter, Output.Graph.YAxis.RunTimeAutoScale, true
TestParameter, Output.List.Data, Vd, Vg, Id
TestParameter, AutoAnalysis.Interpolation, false
TestParameter, AutoAnalysis.Var2StepCount, 1
TestParameter, AutoAnalysis.Var2StepScript, 
TestParameter, AutoAnalysis.Line1.Enabled, false
TestParameter, AutoAnalysis.Line1.Type, 1
TestParameter, AutoAnalysis.Line1.Fix, True
TestParameter, AutoAnalysis.Line1.YAxis, 0
TestParameter, AutoAnalysis.Line1.Point1.Type, 0
TestParameter, AutoAnalysis.Line1.Point1.XY.X, 
TestParameter, AutoAnalysis.Line1.Point1.XY.Y, 
TestParameter, AutoAnalysis.Line1.Point1.Data.Var, 
TestParameter, AutoAnalysis.Line1.Point1.Data.Condition, 
TestParameter, AutoAnalysis.Line1.Point1.Data.Start, false
TestParameter, AutoAnalysis.Line1.Point1.Data.StartVar, 
TestParameter, AutoAnalysis.Line1.Point1.Data.StartCondition, 
TestParameter, AutoAnalysis.Line1.Point2.Type, 0
TestParameter, AutoAnalysis.Line1.Point2.XY.X, 
TestParameter, AutoAnalysis.Line1.Point2.XY.Y, 
TestParameter, AutoAnalysis.Line1.Point2.Data.Var, 
TestParameter, AutoAnalysis.Line1.Point2.Data.Condition, 
TestParameter, AutoAnalysis.Line1.Point2.Data.Start, false
TestParameter, AutoAnalysis.Line1.Point2.Data.StartVar, 
TestParameter, AutoAnalysis.Line1.Point2.Data.StartCondition, 
TestParameter, AutoAnalysis.Line1.GradientExpr, 0
TestParameter, AutoAnalysis.Line2.Enabled, false
TestParameter, AutoAnalysis.Line2.Type, 1
TestParameter, AutoAnalysis.Line2.Fix, True
TestParameter, AutoAnalysis.Line2.YAxis, 0
TestParameter, AutoAnalysis.Line2.Point1.Type, 0
TestParameter, AutoAnalysis.Line2.Point1.XY.X, 
TestParameter, AutoAnalysis.Line2.Point1.XY.Y, 
TestParameter, AutoAnalysis.Line2.Point1.Data.Var, 
TestParameter, AutoAnalysis.Line2.Point1.Data.Condition, 
TestParameter, AutoAnalysis.Line2.Point1.Data.Start, false
TestParameter, AutoAnalysis.Line2.Point1.Data.StartVar, 
TestParameter, AutoAnalysis.Line2.Point1.Data.StartCondition, 
TestParameter, AutoAnalysis.Line2.Point2.Type, 0
TestParameter, AutoAnalysis.Line2.Point2.XY.X, 
TestParameter, AutoAnalysis.Line2.Point2.XY.Y, 
TestParameter, AutoAnalysis.Line2.Point2.Data.Var, 
TestParameter, AutoAnalysis.Line2.Point2.Data.Condition, 
TestParameter, AutoAnalysis.Line2.Point2.Data.Start, false
TestParameter, AutoAnalysis.Line2.Point2.Data.StartVar, 
TestParameter, AutoAnalysis.Line2.Point2.Data.StartCondition, 
TestParameter, AutoAnalysis.Line2.GradientExpr, 0
TestParameter, AutoAnalysis.Marker.Enabled, false
TestParameter, AutoAnalysis.Marker.Data.Var, 
TestParameter, AutoAnalysis.Marker.Data.Condition, 
TestParameter, AutoAnalysis.Marker.Data.Start, false
TestParameter, AutoAnalysis.Marker.Data.StartVar, 
TestParameter, AutoAnalysis.Marker.Data.StartCondition, 
MetaData, TestRecord.EntryPoint, true
MetaData, TestRecord.RecordTime, 12/22/2024 05:46:10
MetaData, TestRecord.TestTarget, 
MetaData, TestRecord.IterationIndex, 3
MetaData, TestRecord.Preservation, true
MetaData, TestRecord.Flag, 
MetaData, TestRecord.Remarks, 2.5wt-s21c4
MetaData, TestRecord.LinkKey, 68c88722-3efe-42b7-b065-9eca80515442
MetaData, TestRecord.Parameters, 
Dimension1, 102, 102, 102
Dimension2, 6, 6, 6
DataName, Vd, Vg, Id
DataValue, 0.1, 0.1, 7.0884000000000006E-06
DataValue, 0.088000000000000009, 0.1, 5.7337000000000007E-06
DataValue, 0.076, 0.1, 4.5181000000000008E-06
DataValue, 0.064, 0.1, 3.5164000000000003E-06
DataValue, 0.052000000000000005, 0.1, 2.5998E-06
DataValue, 0.04, 0.1, 1.8014000000000002E-06
DataValue, 0.028, 0.1, 1.1809000000000002E-06
DataValue, 0.016, 0.1, 5.8222E-07
DataValue, 0.004, 0.1, 1.5092E-07
DataValue, -0.008, 0.1, -2.573E-07
DataValue, -0.02, 0.1, -6.0014E-07
DataValue, -0.032, 0.1, -8.342E-07
DataValue, -0.044000000000000004, 0.1, -1.02386E-06
DataValue, -0.056, 0.1, -1.128E-06
DataValue, -0.068, 0.1, -1.3031E-06
DataValue, -0.08, 0.1, -1.3789E-06
DataValue, -0.092, 0.1, -1.4434000000000002E-06
DataValue, -0.10400000000000001, 0.1, -1.5412000000000002E-06
DataValue, -0.116, 0.1, -1.5578000000000002E-06
DataValue, -0.128, 0.1, -1.5854E-06
DataValue, -0.14, 0.1, -1.6479000000000001E-06
DataValue, -0.152, 0.1, -1.6312000000000002E-06
DataValue, -0.164, 0.1, -1.6421000000000001E-06
DataValue, -0.17600000000000002, 0.1, -1.6878000000000002E-06
DataValue, -0.188, 0.1, -1.6652000000000002E-06
DataValue, -0.2, 0.1, -1.6527E-06
DataValue, -0.21200000000000002, 0.1, -1.6985000000000001E-06
DataValue, -0.224, 0.1, -1.6963000000000002E-06
DataValue, -0.23600000000000002, 0.1, -1.6582E-06
DataValue, -0.248, 0.1, -1.6947000000000003E-06
DataValue, -0.26, 0.1, -1.6924E-06
DataValue, -0.272, 0.1, -1.6549000000000002E-06
DataValue, -0.28400000000000003, 0.1, -1.6736000000000002E-06
DataValue, -0.29600000000000004, 0.1, -1.6941000000000002E-06
DataValue, -0.308, 0.1, -1.6546000000000002E-06
DataValue, -0.32, 0.1, -1.6835000000000003E-06
DataValue, -0.332, 0.1, -1.6827000000000002E-06
DataValue, -0.34400000000000003, 0.1, -1.6436000000000002E-06
DataValue, -0.35600000000000004, 0.1, -1.681E-06
DataValue, -0.368, 0.1, -1.6707000000000002E-06
DataValue, -0.38, 0.1, -1.6414E-06
DataValue, -0.392, 0.1, -1.6817000000000001E-06
DataValue, -0.404, 0.1, -1.6759000000000001E-06
DataValue, -0.41600000000000004, 0.1, -1.6407000000000002E-06
DataValue, -0.42800000000000005, 0.1, -1.6741000000000002E-06
DataValue, -0.44, 0.1, -1.6707000000000002E-06
DataValue, -0.452, 0.1, -1.6298000000000003E-06
DataValue, -0.464, 0.1, -1.6673000000000001E-06
DataValue, -0.47600000000000003, 0.1, -1.6567000000000002E-06
DataValue, -0.48800000000000004, 0.1, -1.6269000000000003E-06
DataValue, -0.5, 0.1, -1.6683000000000002E-06
DataValue, -0.5, 0.1, -1.6712000000000002E-06
DataValue, -0.48800000000000004, 0.1, -1.6427000000000002E-06
DataValue, -0.47600000000000003, 0.1, -1.6167000000000001E-06
DataValue, -0.464, 0.1, -1.6463000000000002E-06
DataValue, -0.452, 0.1, -1.6376000000000002E-06
DataValue, -0.44, 0.1, -1.5982000000000002E-06
DataValue, -0.42800000000000005, 0.1, -1.6263000000000002E-06
DataValue, -0.41600000000000004, 0.1, -1.6342000000000002E-06
DataValue, -0.404, 0.1, -1.5981000000000002E-06
DataValue, -0.392, 0.1, -1.5953000000000002E-06
DataValue, -0.38, 0.1, -1.6174000000000002E-06
DataValue, -0.368, 0.1, -1.5744000000000001E-06
DataValue, -0.35600000000000004, 0.1, -1.5642000000000002E-06
DataValue, -0.34400000000000003, 0.1, -1.6035000000000002E-06
DataValue, -0.332, 0.1, -1.5726000000000002E-06
DataValue, -0.32, 0.1, -1.5409000000000002E-06
DataValue, -0.308, 0.1, -1.5787000000000002E-06
DataValue, -0.29600000000000004, 0.1, -1.5301000000000002E-06
DataValue, -0.28400000000000003, 0.1, -1.5404000000000001E-06
DataValue, -0.272, 0.1, -1.5576000000000001E-06
DataValue, -0.26, 0.1, -1.5115E-06
DataValue, -0.248, 0.1, -1.5142000000000003E-06
DataValue, -0.23600000000000002, 0.1, -1.5339000000000003E-06
DataValue, -0.224, 0.1, -1.4821000000000002E-06
DataValue, -0.21200000000000002, 0.1, -1.4812000000000001E-06
DataValue, -0.2, 0.1, -1.5027000000000002E-06
DataValue, -0.188, 0.1, -1.4472E-06
DataValue, -0.17600000000000002, 0.1, -1.4390000000000001E-06
DataValue, -0.164, 0.1, -1.4561000000000001E-06
DataValue, -0.152, 0.1, -1.3955000000000002E-06
DataValue, -0.14, 0.1, -1.3801000000000001E-06
DataValue, -0.128, 0.1, -1.382E-06
DataValue, -0.116, 0.1, -1.3100000000000002E-06
DataValue, -0.10400000000000001, 0.1, -1.2578E-06
DataValue, -0.092, 0.1, -1.2394000000000002E-06
DataValue, -0.08, 0.1, -1.1513E-06
DataValue, -0.068, 0.1, -1.0411E-06
DataValue, -0.056, 0.1, -9.5532E-07
DataValue, -0.044000000000000004, 0.1, -8.0193999999999994E-07
DataValue, -0.032, 0.1, -6.7508E-07
DataValue, -0.02, 0.1, -4.6487999999999996E-07
DataValue, -0.008, 0.1, -1.712E-07
DataValue, 0.004, 0.1, 1.1024E-07
DataValue, 0.016, 0.1, 4.6562E-07
DataValue, 0.028, 0.1, 9.5144E-07
DataValue, 0.04, 0.1, 1.5407000000000001E-06
DataValue, 0.052000000000000005, 0.1, 2.1744000000000003E-06
DataValue, 0.064, 0.1, 2.9198000000000004E-06
DataValue, 0.076, 0.1, 3.8668E-06
DataValue, 0.088000000000000009, 0.1, 4.9057E-06
DataValue, 0.1, 0.1, 6.1141000000000005E-06
DataValue, 0.1, 0, 1.9562E-05
DataValue, 0.088000000000000009, 0, 1.6328E-05
DataValue, 0.076, 0, 1.3330000000000001E-05
DataValue, 0.064, 0, 1.0532E-05
DataValue, 0.052000000000000005, 0, 8.0696000000000015E-06
DataValue, 0.04, 0, 5.8074000000000005E-06
DataValue, 0.028, 0, 3.8060000000000005E-06
DataValue, 0.016, 0, 2.0666000000000003E-06
DataValue, 0.004, 0, 4.69E-07
DataValue, -0.008, 0, -8.9175999999999993E-07
DataValue, -0.02, 0, -2.099E-06
DataValue, -0.032, 0, -3.1972000000000005E-06
DataValue, -0.044000000000000004, 0, -4.0745000000000005E-06
DataValue, -0.056, 0, -4.8568000000000007E-06
DataValue, -0.068, 0, -5.5686E-06
DataValue, -0.08, 0, -6.0898000000000005E-06
DataValue, -0.092, 0, -6.5791E-06
DataValue, -0.10400000000000001, 0, -7.0273000000000005E-06
DataValue, -0.116, 0, -7.3122000000000009E-06
DataValue, -0.128, 0, -7.6026000000000007E-06
DataValue, -0.14, 0, -7.8596E-06
DataValue, -0.152, 0, -8.0195E-06
DataValue, -0.164, 0, -8.195E-06
DataValue, -0.17600000000000002, 0, -8.3364E-06
DataValue, -0.188, 0, -8.3968E-06
DataValue, -0.2, 0, -8.4936000000000011E-06
DataValue, -0.21200000000000002, 0, -8.6042000000000014E-06
DataValue, -0.224, 0, -8.6403000000000009E-06
DataValue, -0.23600000000000002, 0, -8.7291E-06
DataValue, -0.248, 0, -8.7743000000000017E-06
DataValue, -0.26, 0, -8.7512E-06
DataValue, -0.272, 0, -8.8288000000000009E-06
DataValue, -0.28400000000000003, 0, -8.9068000000000008E-06
DataValue, -0.29600000000000004, 0, -8.8687E-06
DataValue, -0.308, 0, -8.9125000000000015E-06
DataValue, -0.32, 0, -8.9844000000000016E-06
DataValue, -0.332, 0, -8.9529E-06
DataValue, -0.34400000000000003, 0, -9.0034000000000009E-06
DataValue, -0.35600000000000004, 0, -9.0805E-06
DataValue, -0.368, 0, -9.0186E-06
DataValue, -0.38, 0, -9.0348E-06
DataValue, -0.392, 0, -9.0951E-06
DataValue, -0.404, 0, -9.0789E-06
DataValue, -0.41600000000000004, 0, -9.0702000000000017E-06
DataValue, -0.42800000000000005, 0, -9.1132000000000011E-06
DataValue, -0.44, 0, -9.0963000000000013E-06
DataValue, -0.452, 0, -9.1473000000000013E-06
DataValue, -0.464, 0, -9.1598000000000016E-06
DataValue, -0.47600000000000003, 0, -9.1544000000000017E-06
DataValue, -0.48800000000000004, 0, -9.160300000000001E-06
DataValue, -0.5, 0, -9.2059000000000011E-06
DataValue, -0.5, 0, -9.2099000000000014E-06
DataValue, -0.48800000000000004, 0, -9.1164000000000013E-06
DataValue, -0.47600000000000003, 0, -9.078400000000001E-06
DataValue, -0.464, 0, -9.0961000000000009E-06
DataValue, -0.452, 0, -9.0566E-06
DataValue, -0.44, 0, -9.0151000000000012E-06
DataValue, -0.42800000000000005, 0, -9.0549E-06
DataValue, -0.41600000000000004, 0, -8.984900000000001E-06
DataValue, -0.404, 0, -8.9111E-06
DataValue, -0.392, 0, -8.9463000000000011E-06
DataValue, -0.38, 0, -8.9203000000000017E-06
DataValue, -0.368, 0, -8.8711E-06
DataValue, -0.35600000000000004, 0, -8.8679E-06
DataValue, -0.34400000000000003, 0, -8.8368000000000015E-06
DataValue, -0.332, 0, -8.7412E-06
DataValue, -0.32, 0, -8.740000000000001E-06
DataValue, -0.308, 0, -8.7417000000000014E-06
DataValue, -0.29600000000000004, 0, -8.6251000000000015E-06
DataValue, -0.28400000000000003, 0, -8.6121E-06
DataValue, -0.272, 0, -8.6036E-06
DataValue, -0.26, 0, -8.4908E-06
DataValue, -0.248, 0, -8.4244E-06
DataValue, -0.23600000000000002, 0, -8.3921E-06
DataValue, -0.224, 0, -8.3025E-06
DataValue, -0.21200000000000002, 0, -8.1995E-06
DataValue, -0.2, 0, -8.1546000000000015E-06
DataValue, -0.188, 0, -8.0568E-06
DataValue, -0.17600000000000002, 0, -7.9099E-06
DataValue, -0.164, 0, -7.8116000000000016E-06
DataValue, -0.152, 0, -7.6714E-06
DataValue, -0.14, 0, -7.4339000000000009E-06
DataValue, -0.128, 0, -7.2138000000000011E-06
DataValue, -0.116, 0, -6.9961000000000007E-06
DataValue, -0.10400000000000001, 0, -6.6376000000000006E-06
DataValue, -0.092, 0, -6.234100000000001E-06
DataValue, -0.08, 0, -5.8274E-06
DataValue, -0.068, 0, -5.2577000000000005E-06
DataValue, -0.056, 0, -4.6062E-06
DataValue, -0.044000000000000004, 0, -3.9143000000000008E-06
DataValue, -0.032, 0, -3.0325E-06
DataValue, -0.02, 0, -2.0042000000000002E-06
DataValue, -0.008, 0, -8.7719999999999994E-07
DataValue, 0.004, 0, 4.8308E-07
DataValue, 0.016, 0, 2.0486E-06
DataValue, 0.028, 0, 3.7646000000000003E-06
DataValue, 0.04, 0, 5.7813000000000009E-06
DataValue, 0.052000000000000005, 0, 8.0221E-06
DataValue, 0.064, 0, 1.0567400000000002E-05
DataValue, 0.076, 0, 1.3598000000000001E-05
DataValue, 0.088000000000000009, 0, 1.6676E-05
DataValue, 0.1, 0, 2.0182E-05
DataValue, 0.1, -0.1, 4.5198E-05
DataValue, 0.088000000000000009, -0.1, 3.849E-05
DataValue, 0.076, -0.1, 3.209E-05
DataValue, 0.064, -0.1, 2.6068000000000002E-05
DataValue, 0.052000000000000005, -0.1, 2.0316E-05
DataValue, 0.04, -0.1, 1.4984000000000001E-05
DataValue, 0.028, -0.1, 1.008E-05
DataValue, 0.016, -0.1, 5.4716E-06
DataValue, 0.004, -0.1, 1.3084E-06
DataValue, -0.008, -0.1, -2.5497000000000003E-06
DataValue, -0.02, -0.1, -6.1111000000000007E-06
DataValue, -0.032, -0.1, -9.2724000000000012E-06
DataValue, -0.044000000000000004, -0.1, -1.2090000000000001E-05
DataValue, -0.056, -0.1, -1.4724E-05
DataValue, -0.068, -0.1, -1.7008E-05
DataValue, -0.08, -0.1, -1.9128E-05
DataValue, -0.092, -0.1, -2.1028E-05
DataValue, -0.10400000000000001, -0.1, -2.2632E-05
DataValue, -0.116, -0.1, -2.4052E-05
DataValue, -0.128, -0.1, -2.5342000000000002E-05
DataValue, -0.14, -0.1, -2.6496000000000002E-05
DataValue, -0.152, -0.1, -2.7418E-05
DataValue, -0.164, -0.1, -2.8228E-05
DataValue, -0.17600000000000002, -0.1, -2.8994E-05
DataValue, -0.188, -0.1, -2.957E-05
DataValue, -0.2, -0.1, -3.0164E-05
DataValue, -0.21200000000000002, -0.1, -3.0592E-05
DataValue, -0.224, -0.1, -3.0898E-05
DataValue, -0.23600000000000002, -0.1, -3.1342E-05
DataValue, -0.248, -0.1, -3.1714E-05
DataValue, -0.26, -0.1, -3.1932E-05
DataValue, -0.272, -0.1, -3.2102E-05
DataValue, -0.28400000000000003, -0.1, -3.2356E-05
DataValue, -0.29600000000000004, -0.1, -3.2562000000000004E-05
DataValue, -0.308, -0.1, -3.2604E-05
DataValue, -0.32, -0.1, -3.2766000000000004E-05
DataValue, -0.332, -0.1, -3.2908000000000004E-05
DataValue, -0.34400000000000003, -0.1, -3.3092E-05
DataValue, -0.35600000000000004, -0.1, -3.3158000000000003E-05
DataValue, -0.368, -0.1, -3.3218E-05
DataValue, -0.38, -0.1, -3.3252E-05
DataValue, -0.392, -0.1, -3.3422E-05
DataValue, -0.404, -0.1, -3.3464000000000004E-05
DataValue, -0.41600000000000004, -0.1, -3.3516E-05
DataValue, -0.42800000000000005, -0.1, -3.3684E-05
DataValue, -0.44, -0.1, -3.37E-05
DataValue, -0.452, -0.1, -3.3658E-05
DataValue, -0.464, -0.1, -3.3688E-05
DataValue, -0.47600000000000003, -0.1, -3.3796E-05
DataValue, -0.48800000000000004, -0.1, -3.3892E-05
DataValue, -0.5, -0.1, -3.3844E-05
DataValue, -0.5, -0.1, -3.385E-05
DataValue, -0.48800000000000004, -0.1, -3.3756E-05
DataValue, -0.47600000000000003, -0.1, -3.3600000000000004E-05
DataValue, -0.464, -0.1, -3.3446E-05
DataValue, -0.452, -0.1, -3.333E-05
DataValue, -0.44, -0.1, -3.3216E-05
DataValue, -0.42800000000000005, -0.1, -3.3220000000000004E-05
DataValue, -0.41600000000000004, -0.1, -3.3002E-05
DataValue, -0.404, -0.1, -3.2922E-05
DataValue, -0.392, -0.1, -3.2874000000000004E-05
DataValue, -0.38, -0.1, -3.2674E-05
DataValue, -0.368, -0.1, -3.2488E-05
DataValue, -0.35600000000000004, -0.1, -3.236E-05
DataValue, -0.34400000000000003, -0.1, -3.227E-05
DataValue, -0.332, -0.1, -3.2018000000000004E-05
DataValue, -0.32, -0.1, -3.1952E-05
DataValue, -0.308, -0.1, -3.1806E-05
DataValue, -0.29600000000000004, -0.1, -3.1512E-05
DataValue, -0.28400000000000003, -0.1, -3.1392E-05
DataValue, -0.272, -0.1, -3.1060000000000004E-05
DataValue, -0.26, -0.1, -3.0756E-05
DataValue, -0.248, -0.1, -3.0456E-05
DataValue, -0.23600000000000002, -0.1, -3.0214000000000002E-05
DataValue, -0.224, -0.1, -2.9824E-05
DataValue, -0.21200000000000002, -0.1, -2.9378000000000002E-05
DataValue, -0.2, -0.1, -2.8848000000000002E-05
DataValue, -0.188, -0.1, -2.841E-05
DataValue, -0.17600000000000002, -0.1, -2.771E-05
DataValue, -0.164, -0.1, -2.6932000000000002E-05
DataValue, -0.152, -0.1, -2.6222E-05
DataValue, -0.14, -0.1, -2.5300000000000002E-05
DataValue, -0.128, -0.1, -2.421E-05
DataValue, -0.116, -0.1, -2.305E-05
DataValue, -0.10400000000000001, -0.1, -2.1704E-05
DataValue, -0.092, -0.1, -2.0142E-05
DataValue, -0.08, -0.1, -1.836E-05
DataValue, -0.068, -0.1, -1.641E-05
DataValue, -0.056, -0.1, -1.4194E-05
DataValue, -0.044000000000000004, -0.1, -1.1684E-05
DataValue, -0.032, -0.1, -9.0122000000000016E-06
DataValue, -0.02, -0.1, -5.9060000000000007E-06
DataValue, -0.008, -0.1, -2.4621E-06
DataValue, 0.004, -0.1, 1.2495E-06
DataValue, 0.016, -0.1, 5.3741000000000008E-06
DataValue, 0.028, -0.1, 9.9351E-06
DataValue, 0.04, -0.1, 1.5008000000000001E-05
DataValue, 0.052000000000000005, -0.1, 2.0386E-05
