
SetupTitle, (c1) Output curve in LGP
PrimitiveTest, I/V Sweep
TestParameter, Context.MainFrame, B1500A
TestParameter, Channel.UnitType, SMU, SMU
TestParameter, Channel.Unit, SMU1:HR/AS, SMU2:HR/AS
TestParameter, Channel.IName, Ig, Id
TestParameter, Channel.VName, Vg, Vd
TestParameter, Channel.Mode, V, V
TestParameter, Channel.Func, VAR2, VAR1
TestParameter, Channel.Index, 
TestParameter, Channel.Time, 
TestParameter, Measurement.Port.Unit, SMU1:HR/AS, SMU2:HR/AS
TestParameter, Measurement.Port.SeriesResistor, NONE, NONE
TestParameter, Measurement.Port.Filter, ON, ON
TestParameter, Measurement.Port.OutputVoltageComparison, 0, 0
TestParameter, Measurement.Primary.Locus, Double
TestParameter, Measurement.Primary.Scale, LINEAR
TestParameter, Measurement.Primary.Start, 0.1
TestParameter, Measurement.Primary.Stop, -0.5
TestParameter, Measurement.Primary.Step, -0.012
TestParameter, Measurement.Primary.Compliance, 0.1
TestParameter, Measurement.Primary.PowerCompliance, 0
TestParameter, Measurement.Aborting.Condition, CONTINUE AT ANY
TestParameter, Measurement.PostOutput.Value, START
TestParameter, Measurement.PostOutput.Retention, OFF
TestParameter, Measurement.Secondary.Start, 0.1
TestParameter, Measurement.Secondary.Count, 6
TestParameter, Measurement.Secondary.Step, -0.1
TestParameter, Measurement.Secondary.Compliance, 0.0001
TestParameter, Measurement.Secondary.PowerCompliance, 0
TestParameter, Measurement.Bias.Source, 0.1, 0.1
TestParameter, Measurement.Bias.Compliance, 0.0001, 0.1
TestParameter, Measurement.Monitor.Unit, SMU1:HR/AS, SMU2:HR/AS
TestParameter, Measurement.Monitor.Adc, HR ADC, HR ADC
TestParameter, Measurement.Monitor.Measurement, Compliance Side, Compliance Side
TestParameter, Measurement.Monitor.RangingMode, LIMITED, LIMITED
TestParameter, Measurement.Monitor.RangeBoundary, 1nA, 1nA
TestParameter, Measurement.Monitor.RangeRating, BY FULL RANGE, BY FULL RANGE
TestParameter, Measurement.Monitor.RangeRatingCoeff, 50, 50
TestParameter, Measurement.Timing.Hold, 0
TestParameter, Measurement.Timing.Delay, 0
TestParameter, Measurement.Adc.HighSpeed.Mode, AUTO
TestParameter, Measurement.Adc.HighSpeed.Coeff, 1
TestParameter, Measurement.Adc.HighResolution.AutoZero, OFF
TestParameter, Measurement.Adc.HighResolution.Mode, AUTO
TestParameter, Measurement.Adc.HighResolution.Coeff, 6
TestParameter, Measurement.WaitTime.Source.Coeff, 1
TestParameter, Measurement.WaitTime.Source.Offset, 0
TestParameter, Measurement.WaitTime.Monitor.Coeff, 1
TestParameter, Measurement.WaitTime.Monitor.Offset, 0
TestParameter, Output.Graph.Enabled, true
TestParameter, Output.Graph.AutoScaling, false
TestParameter, Output.Graph.XAxis.Data, Vd
TestParameter, Output.Graph.XAxis.Scale, Linear
TestParameter, Output.Graph.XAxis.Left, 0
TestParameter, Output.Graph.XAxis.Right, -0.5
TestParameter, Output.Graph.XAxis.RunTimeAutoScale, true
TestParameter, Output.Graph.YAxis.Data, Id
TestParameter, Output.Graph.YAxis.Scale, Linear
TestParameter, Output.Graph.YAxis.Bottom, -0.1
TestParameter, Output.Graph.YAxis.Top, 0.1
TestParameter, Output.Graph.YAxis.Group, 
TestParameter, Output.Graph.YAxis.RunTimeAutoScale, true
TestParameter, Output.List.Data, Vd, Vg, Id
TestParameter, AutoAnalysis.Interpolation, false
TestParameter, AutoAnalysis.Var2StepCount, 1
TestParameter, AutoAnalysis.Var2StepScript, 
TestParameter, AutoAnalysis.Line1.Enabled, false
TestParameter, AutoAnalysis.Line1.Type, 1
TestParameter, AutoAnalysis.Line1.Fix, True
TestParameter, AutoAnalysis.Line1.YAxis, 0
TestParameter, AutoAnalysis.Line1.Point1.Type, 0
TestParameter, AutoAnalysis.Line1.Point1.XY.X, 
TestParameter, AutoAnalysis.Line1.Point1.XY.Y, 
TestParameter, AutoAnalysis.Line1.Point1.Data.Var, 
TestParameter, AutoAnalysis.Line1.Point1.Data.Condition, 
TestParameter, AutoAnalysis.Line1.Point1.Data.Start, false
TestParameter, AutoAnalysis.Line1.Point1.Data.StartVar, 
TestParameter, AutoAnalysis.Line1.Point1.Data.StartCondition, 
TestParameter, AutoAnalysis.Line1.Point2.Type, 0
TestParameter, AutoAnalysis.Line1.Point2.XY.X, 
TestParameter, AutoAnalysis.Line1.Point2.XY.Y, 
TestParameter, AutoAnalysis.Line1.Point2.Data.Var, 
TestParameter, AutoAnalysis.Line1.Point2.Data.Condition, 
TestParameter, AutoAnalysis.Line1.Point2.Data.Start, false
TestParameter, AutoAnalysis.Line1.Point2.Data.StartVar, 
TestParameter, AutoAnalysis.Line1.Point2.Data.StartCondition, 
TestParameter, AutoAnalysis.Line1.GradientExpr, 0
TestParameter, AutoAnalysis.Line2.Enabled, false
TestParameter, AutoAnalysis.Line2.Type, 1
TestParameter, AutoAnalysis.Line2.Fix, True
TestParameter, AutoAnalysis.Line2.YAxis, 0
TestParameter, AutoAnalysis.Line2.Point1.Type, 0
TestParameter, AutoAnalysis.Line2.Point1.XY.X, 
TestParameter, AutoAnalysis.Line2.Point1.XY.Y, 
TestParameter, AutoAnalysis.Line2.Point1.Data.Var, 
TestParameter, AutoAnalysis.Line2.Point1.Data.Condition, 
TestParameter, AutoAnalysis.Line2.Point1.Data.Start, false
TestParameter, AutoAnalysis.Line2.Point1.Data.StartVar, 
TestParameter, AutoAnalysis.Line2.Point1.Data.StartCondition, 
TestParameter, AutoAnalysis.Line2.Point2.Type, 0
TestParameter, AutoAnalysis.Line2.Point2.XY.X, 
TestParameter, AutoAnalysis.Line2.Point2.XY.Y, 
TestParameter, AutoAnalysis.Line2.Point2.Data.Var, 
TestParameter, AutoAnalysis.Line2.Point2.Data.Condition, 
TestParameter, AutoAnalysis.Line2.Point2.Data.Start, false
TestParameter, AutoAnalysis.Line2.Point2.Data.StartVar, 
TestParameter, AutoAnalysis.Line2.Point2.Data.StartCondition, 
TestParameter, AutoAnalysis.Line2.GradientExpr, 0
TestParameter, AutoAnalysis.Marker.Enabled, false
TestParameter, AutoAnalysis.Marker.Data.Var, 
TestParameter, AutoAnalysis.Marker.Data.Condition, 
TestParameter, AutoAnalysis.Marker.Data.Start, false
TestParameter, AutoAnalysis.Marker.Data.StartVar, 
TestParameter, AutoAnalysis.Marker.Data.StartCondition, 
MetaData, TestRecord.EntryPoint, true
MetaData, TestRecord.RecordTime, 12/22/2024 05:45:07
MetaData, TestRecord.TestTarget, 
MetaData, TestRecord.IterationIndex, 1
MetaData, TestRecord.Preservation, true
MetaData, TestRecord.Flag, 
MetaData, TestRecord.Remarks, 2.5wt-s21c3
MetaData, TestRecord.LinkKey, cd8e24a2-9c5f-4cb6-b80f-a20ced936a9a
MetaData, TestRecord.Parameters, 
Dimension1, 102, 102, 102
Dimension2, 6, 6, 6
DataName, Vd, Vg, Id
DataValue, 0.1, 0.1, 6.307100000000001E-06
DataValue, 0.088000000000000009, 0.1, 5.1147E-06
DataValue, 0.076, 0.1, 4.0916000000000008E-06
DataValue, 0.064, 0.1, 3.2083000000000003E-06
DataValue, 0.052000000000000005, 0.1, 2.3683000000000003E-06
DataValue, 0.04, 0.1, 1.6804000000000003E-06
DataValue, 0.028, 0.1, 1.1053E-06
DataValue, 0.016, 0.1, 5.6926E-07
DataValue, 0.004, 0.1, 1.4221999999999999E-07
DataValue, -0.008, 0.1, -2.7368E-07
DataValue, -0.02, 0.1, -5.6054E-07
DataValue, -0.032, 0.1, -7.936E-07
DataValue, -0.044000000000000004, 0.1, -1.04452E-06
DataValue, -0.056, 0.1, -1.1476E-06
DataValue, -0.068, 0.1, -1.2745E-06
DataValue, -0.08, 0.1, -1.3485E-06
DataValue, -0.092, 0.1, -1.4646000000000001E-06
DataValue, -0.10400000000000001, 0.1, -1.5335000000000002E-06
DataValue, -0.116, 0.1, -1.5334000000000002E-06
DataValue, -0.128, 0.1, -1.5996000000000001E-06
DataValue, -0.14, 0.1, -1.6273E-06
DataValue, -0.152, 0.1, -1.6068000000000002E-06
DataValue, -0.164, 0.1, -1.6353000000000003E-06
DataValue, -0.17600000000000002, 0.1, -1.6581000000000003E-06
DataValue, -0.188, 0.1, -1.6184000000000003E-06
DataValue, -0.2, 0.1, -1.6416E-06
DataValue, -0.21200000000000002, 0.1, -1.6589000000000001E-06
DataValue, -0.224, 0.1, -1.6143000000000002E-06
DataValue, -0.23600000000000002, 0.1, -1.6353000000000003E-06
DataValue, -0.248, 0.1, -1.6493000000000002E-06
DataValue, -0.26, 0.1, -1.6088000000000002E-06
DataValue, -0.272, 0.1, -1.6131E-06
DataValue, -0.28400000000000003, 0.1, -1.6430000000000002E-06
DataValue, -0.29600000000000004, 0.1, -1.6110000000000001E-06
DataValue, -0.308, 0.1, -1.5921000000000002E-06
DataValue, -0.32, 0.1, -1.6268000000000003E-06
DataValue, -0.332, 0.1, -1.6213000000000003E-06
DataValue, -0.34400000000000003, 0.1, -1.5804000000000002E-06
DataValue, -0.35600000000000004, 0.1, -1.6127000000000003E-06
DataValue, -0.368, 0.1, -1.6081000000000001E-06
DataValue, -0.38, 0.1, -1.5713E-06
DataValue, -0.392, 0.1, -1.5938E-06
DataValue, -0.404, 0.1, -1.608E-06
DataValue, -0.41600000000000004, 0.1, -1.5708E-06
DataValue, -0.42800000000000005, 0.1, -1.5856000000000001E-06
DataValue, -0.44, 0.1, -1.6095000000000002E-06
DataValue, -0.452, 0.1, -1.5734000000000003E-06
DataValue, -0.464, 0.1, -1.5763000000000003E-06
DataValue, -0.47600000000000003, 0.1, -1.6072000000000003E-06
DataValue, -0.48800000000000004, 0.1, -1.5706000000000003E-06
DataValue, -0.5, 0.1, -1.5617000000000002E-06
DataValue, -0.5, 0.1, -1.5757000000000002E-06
DataValue, -0.48800000000000004, 0.1, -1.5937E-06
DataValue, -0.47600000000000003, 0.1, -1.5504000000000002E-06
DataValue, -0.464, 0.1, -1.5480000000000003E-06
DataValue, -0.452, 0.1, -1.5802000000000001E-06
DataValue, -0.44, 0.1, -1.5476000000000002E-06
DataValue, -0.42800000000000005, 0.1, -1.5334000000000002E-06
DataValue, -0.41600000000000004, 0.1, -1.5651E-06
DataValue, -0.404, 0.1, -1.5453E-06
DataValue, -0.392, 0.1, -1.5351000000000001E-06
DataValue, -0.38, 0.1, -1.5505000000000002E-06
DataValue, -0.368, 0.1, -1.5040000000000001E-06
DataValue, -0.35600000000000004, 0.1, -1.5257E-06
DataValue, -0.34400000000000003, 0.1, -1.5345E-06
DataValue, -0.332, 0.1, -1.4878000000000002E-06
DataValue, -0.32, 0.1, -1.5163000000000002E-06
DataValue, -0.308, 0.1, -1.5186000000000002E-06
DataValue, -0.29600000000000004, 0.1, -1.4746000000000003E-06
DataValue, -0.28400000000000003, 0.1, -1.5073000000000002E-06
DataValue, -0.272, 0.1, -1.5008E-06
DataValue, -0.26, 0.1, -1.4582E-06
DataValue, -0.248, 0.1, -1.486E-06
DataValue, -0.23600000000000002, 0.1, -1.4823000000000002E-06
DataValue, -0.224, 0.1, -1.4364000000000001E-06
DataValue, -0.21200000000000002, 0.1, -1.4646000000000001E-06
DataValue, -0.2, 0.1, -1.4565000000000002E-06
DataValue, -0.188, 0.1, -1.4098E-06
DataValue, -0.17600000000000002, 0.1, -1.4345000000000002E-06
DataValue, -0.164, 0.1, -1.4177000000000002E-06
DataValue, -0.152, 0.1, -1.3654E-06
DataValue, -0.14, 0.1, -1.3813000000000002E-06
DataValue, -0.128, 0.1, -1.3420000000000002E-06
DataValue, -0.116, 0.1, -1.2820000000000002E-06
DataValue, -0.10400000000000001, 0.1, -1.2772E-06
DataValue, -0.092, 0.1, -1.2090000000000002E-06
DataValue, -0.08, 0.1, -1.1109E-06
DataValue, -0.068, 0.1, -1.0652000000000002E-06
DataValue, -0.056, 0.1, -9.3198E-07
DataValue, -0.044000000000000004, 0.1, -8.3038E-07
DataValue, -0.032, 0.1, -6.2788E-07
DataValue, -0.02, 0.1, -4.1566E-07
DataValue, -0.008, 0.1, -2.0488E-07
DataValue, 0.004, 0.1, 1.2402E-07
DataValue, 0.016, 0.1, 4.9296E-07
DataValue, 0.028, 0.1, 8.7948E-07
DataValue, 0.04, 0.1, 1.4068000000000002E-06
DataValue, 0.052000000000000005, 0.1, 2.0357000000000003E-06
DataValue, 0.064, 0.1, 2.7357000000000003E-06
DataValue, 0.076, 0.1, 3.4937000000000005E-06
DataValue, 0.088000000000000009, 0.1, 4.4350000000000007E-06
DataValue, 0.1, 0.1, 5.5132000000000008E-06
DataValue, 0.1, 0, 1.604E-05
DataValue, 0.088000000000000009, 0, 1.3366E-05
DataValue, 0.076, 0, 1.0962000000000001E-05
DataValue, 0.064, 0, 8.6942E-06
DataValue, 0.052000000000000005, 0, 6.6898000000000007E-06
DataValue, 0.04, 0, 4.8773000000000007E-06
DataValue, 0.028, 0, 3.1769000000000004E-06
DataValue, 0.016, 0, 1.7143000000000003E-06
DataValue, 0.004, 0, 3.6974E-07
DataValue, -0.008, 0, -7.5785999999999993E-07
DataValue, -0.02, 0, -1.7737000000000003E-06
DataValue, -0.032, 0, -2.7077000000000004E-06
DataValue, -0.044000000000000004, 0, -3.5150000000000002E-06
DataValue, -0.056, 0, -4.1604E-06
DataValue, -0.068, 0, -4.7896000000000007E-06
DataValue, -0.08, 0, -5.2971000000000005E-06
DataValue, -0.092, 0, -5.6853000000000004E-06
DataValue, -0.10400000000000001, 0, -6.079200000000001E-06
DataValue, -0.116, 0, -6.3783E-06
DataValue, -0.128, 0, -6.5878000000000007E-06
DataValue, -0.14, 0, -6.8249000000000005E-06
DataValue, -0.152, 0, -6.9816000000000011E-06
DataValue, -0.164, 0, -7.0757000000000007E-06
DataValue, -0.17600000000000002, 0, -7.2139000000000005E-06
DataValue, -0.188, 0, -7.2792000000000005E-06
DataValue, -0.2, 0, -7.3070000000000005E-06
DataValue, -0.21200000000000002, 0, -7.3941000000000009E-06
DataValue, -0.224, 0, -7.4107000000000009E-06
DataValue, -0.23600000000000002, 0, -7.412E-06
DataValue, -0.248, 0, -7.4746E-06
DataValue, -0.26, 0, -7.4658000000000006E-06
DataValue, -0.272, 0, -7.4545E-06
DataValue, -0.28400000000000003, 0, -7.5006000000000007E-06
DataValue, -0.29600000000000004, 0, -7.4868000000000009E-06
DataValue, -0.308, 0, -7.4651000000000007E-06
DataValue, -0.32, 0, -7.5172000000000006E-06
DataValue, -0.332, 0, -7.4949000000000009E-06
DataValue, -0.34400000000000003, 0, -7.4818000000000009E-06
DataValue, -0.35600000000000004, 0, -7.5223000000000008E-06
DataValue, -0.368, 0, -7.4978000000000004E-06
DataValue, -0.38, 0, -7.4839000000000005E-06
DataValue, -0.392, 0, -7.5326000000000005E-06
DataValue, -0.404, 0, -7.4963000000000005E-06
DataValue, -0.41600000000000004, 0, -7.4928000000000005E-06
DataValue, -0.42800000000000005, 0, -7.5354000000000007E-06
DataValue, -0.44, 0, -7.4959000000000005E-06
DataValue, -0.452, 0, -7.5099000000000007E-06
DataValue, -0.464, 0, -7.5411000000000005E-06
DataValue, -0.47600000000000003, 0, -7.497300000000001E-06
DataValue, -0.48800000000000004, 0, -7.5211000000000007E-06
DataValue, -0.5, 0, -7.5387E-06
DataValue, -0.5, 0, -7.5218000000000006E-06
DataValue, -0.48800000000000004, 0, -7.4875000000000007E-06
DataValue, -0.47600000000000003, 0, -7.5099000000000007E-06
DataValue, -0.464, 0, -7.5082E-06
DataValue, -0.452, 0, -7.4608000000000006E-06
DataValue, -0.44, 0, -7.4706000000000009E-06
DataValue, -0.42800000000000005, 0, -7.4908E-06
DataValue, -0.41600000000000004, 0, -7.4461000000000006E-06
DataValue, -0.404, 0, -7.4353000000000006E-06
DataValue, -0.392, 0, -7.4638000000000004E-06
DataValue, -0.38, 0, -7.4163000000000005E-06
DataValue, -0.368, 0, -7.3923E-06
DataValue, -0.35600000000000004, 0, -7.4245000000000007E-06
DataValue, -0.34400000000000003, 0, -7.3937000000000009E-06
DataValue, -0.332, 0, -7.355900000000001E-06
DataValue, -0.32, 0, -7.3792000000000004E-06
DataValue, -0.308, 0, -7.3650000000000006E-06
DataValue, -0.29600000000000004, 0, -7.3075000000000008E-06
DataValue, -0.28400000000000003, 0, -7.3296000000000009E-06
DataValue, -0.272, 0, -7.3145000000000009E-06
DataValue, -0.26, 0, -7.2505000000000011E-06
DataValue, -0.248, 0, -7.2337000000000007E-06
DataValue, -0.23600000000000002, 0, -7.2297E-06
DataValue, -0.224, 0, -7.1491000000000007E-06
DataValue, -0.21200000000000002, 0, -7.1029000000000011E-06
DataValue, -0.2, 0, -7.085100000000001E-06
DataValue, -0.188, 0, -6.9769000000000009E-06
DataValue, -0.17600000000000002, 0, -6.8720000000000004E-06
DataValue, -0.164, 0, -6.814E-06
DataValue, -0.152, 0, -6.6637E-06
DataValue, -0.14, 0, -6.4708000000000008E-06
DataValue, -0.128, 0, -6.3159000000000008E-06
DataValue, -0.116, 0, -6.0751000000000005E-06
DataValue, -0.10400000000000001, 0, -5.7566000000000009E-06
DataValue, -0.092, 0, -5.4451000000000006E-06
DataValue, -0.08, 0, -5.0559E-06
DataValue, -0.068, 0, -4.536E-06
DataValue, -0.056, 0, -3.9924E-06
DataValue, -0.044000000000000004, 0, -3.3772000000000005E-06
DataValue, -0.032, 0, -2.5827000000000003E-06
DataValue, -0.02, 0, -1.7129000000000002E-06
DataValue, -0.008, 0, -7.2334E-07
DataValue, 0.004, 0, 3.9836E-07
DataValue, 0.016, 0, 1.7040000000000001E-06
DataValue, 0.028, 0, 3.1429000000000004E-06
DataValue, 0.04, 0, 4.8213000000000007E-06
DataValue, 0.052000000000000005, 0, 6.6500000000000007E-06
DataValue, 0.064, 0, 8.6502E-06
DataValue, 0.076, 0, 1.0946600000000001E-05
DataValue, 0.088000000000000009, 0, 1.3586E-05
DataValue, 0.1, 0, 1.6278E-05
DataValue, 0.1, -0.1, 3.4648000000000004E-05
DataValue, 0.088000000000000009, -0.1, 2.9458E-05
DataValue, 0.076, -0.1, 2.4598E-05
DataValue, 0.064, -0.1, 1.9968E-05
DataValue, 0.052000000000000005, -0.1, 1.5574E-05
DataValue, 0.04, -0.1, 1.1526000000000001E-05
DataValue, 0.028, -0.1, 7.7278E-06
DataValue, 0.016, -0.1, 4.2227E-06
DataValue, 0.004, -0.1, 1.0214E-06
DataValue, -0.008, -0.1, -2.0028E-06
DataValue, -0.02, -0.1, -4.7299E-06
DataValue, -0.032, -0.1, -7.1783E-06
DataValue, -0.044000000000000004, -0.1, -9.4723E-06
DataValue, -0.056, -0.1, -1.1484E-05
DataValue, -0.068, -0.1, -1.3350000000000001E-05
DataValue, -0.08, -0.1, -1.4968000000000001E-05
DataValue, -0.092, -0.1, -1.6440000000000002E-05
DataValue, -0.10400000000000001, -0.1, -1.7792000000000002E-05
DataValue, -0.116, -0.1, -1.8936E-05
DataValue, -0.128, -0.1, -1.9888E-05
DataValue, -0.14, -0.1, -2.0802000000000002E-05
DataValue, -0.152, -0.1, -2.1564000000000002E-05
DataValue, -0.164, -0.1, -2.217E-05
DataValue, -0.17600000000000002, -0.1, -2.2738E-05
DataValue, -0.188, -0.1, -2.3246E-05
DataValue, -0.2, -0.1, -2.3598E-05
DataValue, -0.21200000000000002, -0.1, -2.3906E-05
DataValue, -0.224, -0.1, -2.4214000000000002E-05
DataValue, -0.23600000000000002, -0.1, -2.4432000000000003E-05
DataValue, -0.248, -0.1, -2.4558E-05
DataValue, -0.26, -0.1, -2.4728E-05
DataValue, -0.272, -0.1, -2.4866000000000002E-05
DataValue, -0.28400000000000003, -0.1, -2.4916E-05
DataValue, -0.29600000000000004, -0.1, -2.4988000000000002E-05
DataValue, -0.308, -0.1, -2.5086E-05
DataValue, -0.32, -0.1, -2.5108E-05
DataValue, -0.332, -0.1, -2.5122E-05
DataValue, -0.34400000000000003, -0.1, -2.5194E-05
DataValue, -0.35600000000000004, -0.1, -2.5214E-05
DataValue, -0.368, -0.1, -2.5192000000000002E-05
DataValue, -0.38, -0.1, -2.5234E-05
DataValue, -0.392, -0.1, -2.5286E-05
DataValue, -0.404, -0.1, -2.5260000000000002E-05
DataValue, -0.41600000000000004, -0.1, -2.5260000000000002E-05
DataValue, -0.42800000000000005, -0.1, -2.5334000000000002E-05
DataValue, -0.44, -0.1, -2.5316E-05
DataValue, -0.452, -0.1, -2.5304E-05
DataValue, -0.464, -0.1, -2.536E-05
DataValue, -0.47600000000000003, -0.1, -2.5378E-05
DataValue, -0.48800000000000004, -0.1, -2.5344E-05
DataValue, -0.5, -0.1, -2.5366E-05
DataValue, -0.5, -0.1, -2.5378E-05
DataValue, -0.48800000000000004, -0.1, -2.5334000000000002E-05
DataValue, -0.47600000000000003, -0.1, -2.5266000000000002E-05
DataValue, -0.464, -0.1, -2.5254000000000002E-05
DataValue, -0.452, -0.1, -2.5252E-05
DataValue, -0.44, -0.1, -2.5172000000000002E-05
DataValue, -0.42800000000000005, -0.1, -2.513E-05
DataValue, -0.41600000000000004, -0.1, -2.5148E-05
DataValue, -0.404, -0.1, -2.5094E-05
DataValue, -0.392, -0.1, -2.502E-05
DataValue, -0.38, -0.1, -2.5018E-05
DataValue, -0.368, -0.1, -2.4994E-05
DataValue, -0.35600000000000004, -0.1, -2.4892E-05
DataValue, -0.34400000000000003, -0.1, -2.484E-05
DataValue, -0.332, -0.1, -2.4836E-05
DataValue, -0.32, -0.1, -2.4738E-05
DataValue, -0.308, -0.1, -2.4636E-05
DataValue, -0.29600000000000004, -0.1, -2.4572E-05
DataValue, -0.28400000000000003, -0.1, -2.449E-05
DataValue, -0.272, -0.1, -2.4326E-05
DataValue, -0.26, -0.1, -2.4180000000000002E-05
DataValue, -0.248, -0.1, -2.4056E-05
DataValue, -0.23600000000000002, -0.1, -2.3814E-05
DataValue, -0.224, -0.1, -2.3544E-05
DataValue, -0.21200000000000002, -0.1, -2.3306E-05
DataValue, -0.2, -0.1, -2.298E-05
DataValue, -0.188, -0.1, -2.253E-05
DataValue, -0.17600000000000002, -0.1, -2.2078E-05
DataValue, -0.164, -0.1, -2.1566E-05
DataValue, -0.152, -0.1, -2.0904000000000002E-05
DataValue, -0.14, -0.1, -2.0144000000000002E-05
DataValue, -0.128, -0.1, -1.9332E-05
DataValue, -0.116, -0.1, -1.836E-05
DataValue, -0.10400000000000001, -0.1, -1.7214E-05
DataValue, -0.092, -0.1, -1.5972000000000002E-05
DataValue, -0.08, -0.1, -1.4584000000000001E-05
DataValue, -0.068, -0.1, -1.2966000000000001E-05
DataValue, -0.056, -0.1, -1.1184E-05
DataValue, -0.044000000000000004, -0.1, -9.2546000000000011E-06
DataValue, -0.032, -0.1, -7.0111000000000005E-06
DataValue, -0.02, -0.1, -4.6304000000000006E-06
DataValue, -0.008, -0.1, -1.9484000000000003E-06
