
SetupTitle, (c2) Transfer curve in LGP
PrimitiveTest, I/V Sweep
TestParameter, Context.MainFrame, B1500A
TestParameter, Channel.UnitType, SMU, SMU
TestParameter, Channel.Unit, SMU1:HR/AS, SMU2:HR/AS
TestParameter, Channel.IName, Ig, Id
TestParameter, Channel.VName, Vg, Vd
TestParameter, Channel.Mode, V, V
TestParameter, Channel.Func, VAR1, VAR2
TestParameter, Channel.Index, 
TestParameter, Channel.Time, 
TestParameter, Measurement.Port.Unit, SMU1:HR/AS, SMU2:HR/AS
TestParameter, Measurement.Port.SeriesResistor, NONE, NONE
TestParameter, Measurement.Port.Filter, ON, ON
TestParameter, Measurement.Port.OutputVoltageComparison, 0, 0
TestParameter, Measurement.Primary.Locus, Double
TestParameter, Measurement.Primary.Scale, LINEAR
TestParameter, Measurement.Primary.Start, 0.1
TestParameter, Measurement.Primary.Stop, -0.4
TestParameter, Measurement.Primary.Step, -0.01
TestParameter, Measurement.Primary.Compliance, 0.1
TestParameter, Measurement.Primary.PowerCompliance, 1
TestParameter, Measurement.Aborting.Condition, SKIP AT ANY ABNORMAL
TestParameter, Measurement.PostOutput.Value, START
TestParameter, Measurement.PostOutput.Retention, OFF
TestParameter, Measurement.Secondary.Start, -0.25
TestParameter, Measurement.Secondary.Count, 5
TestParameter, Measurement.Secondary.Step, 0
TestParameter, Measurement.Secondary.Compliance, 0.1
TestParameter, Measurement.Secondary.PowerCompliance, 1
TestParameter, Measurement.Bias.Source, 0.1, -0.25
TestParameter, Measurement.Bias.Compliance, 0.1, 0.1
TestParameter, Measurement.Monitor.Unit, SMU1:HR/AS, SMU2:HR/AS
TestParameter, Measurement.Monitor.Adc, HR ADC, HR ADC
TestParameter, Measurement.Monitor.Measurement, Compliance Side, Compliance Side
TestParameter, Measurement.Monitor.RangingMode, LIMITED, LIMITED
TestParameter, Measurement.Monitor.RangeBoundary, 1nA, 1nA
TestParameter, Measurement.Monitor.RangeRating, BY FULL RANGE, BY FULL RANGE
TestParameter, Measurement.Monitor.RangeRatingCoeff, 50, 50
TestParameter, Measurement.Timing.Hold, 0
TestParameter, Measurement.Timing.Delay, 0
TestParameter, Measurement.Adc.HighSpeed.Mode, AUTO
TestParameter, Measurement.Adc.HighSpeed.Coeff, 1
TestParameter, Measurement.Adc.HighResolution.AutoZero, OFF
TestParameter, Measurement.Adc.HighResolution.Mode, AUTO
TestParameter, Measurement.Adc.HighResolution.Coeff, 6
TestParameter, Measurement.WaitTime.Source.Coeff, 1
TestParameter, Measurement.WaitTime.Source.Offset, 0
TestParameter, Measurement.WaitTime.Monitor.Coeff, 1
TestParameter, Measurement.WaitTime.Monitor.Offset, 0
TestParameter, Output.Graph.Enabled, true
TestParameter, Output.Graph.AutoScaling, false
TestParameter, Output.Graph.XAxis.Data, Vg
TestParameter, Output.Graph.XAxis.Scale, Linear
TestParameter, Output.Graph.XAxis.Left, 0.60000000000000009
TestParameter, Output.Graph.XAxis.Right, -0.60000000000000009
TestParameter, Output.Graph.XAxis.RunTimeAutoScale, true
TestParameter, Output.Graph.YAxis.Data, Id
TestParameter, Output.Graph.YAxis.Scale, Linear
TestParameter, Output.Graph.YAxis.Bottom, -0.1
TestParameter, Output.Graph.YAxis.Top, 0.1
TestParameter, Output.Graph.YAxis.Group, 
TestParameter, Output.Graph.YAxis.RunTimeAutoScale, true
TestParameter, Output.List.Data, Vd, Vg, Id
TestParameter, AutoAnalysis.Interpolation, false
TestParameter, AutoAnalysis.Var2StepCount, 1
TestParameter, AutoAnalysis.Var2StepScript, 
TestParameter, AutoAnalysis.Line1.Enabled, false
TestParameter, AutoAnalysis.Line1.Type, 1
TestParameter, AutoAnalysis.Line1.Fix, True
TestParameter, AutoAnalysis.Line1.YAxis, 0
TestParameter, AutoAnalysis.Line1.Point1.Type, 0
TestParameter, AutoAnalysis.Line1.Point1.XY.X, 
TestParameter, AutoAnalysis.Line1.Point1.XY.Y, 
TestParameter, AutoAnalysis.Line1.Point1.Data.Var, 
TestParameter, AutoAnalysis.Line1.Point1.Data.Condition, 
TestParameter, AutoAnalysis.Line1.Point1.Data.Start, false
TestParameter, AutoAnalysis.Line1.Point1.Data.StartVar, 
TestParameter, AutoAnalysis.Line1.Point1.Data.StartCondition, 
TestParameter, AutoAnalysis.Line1.Point2.Type, 0
TestParameter, AutoAnalysis.Line1.Point2.XY.X, 
TestParameter, AutoAnalysis.Line1.Point2.XY.Y, 
TestParameter, AutoAnalysis.Line1.Point2.Data.Var, 
TestParameter, AutoAnalysis.Line1.Point2.Data.Condition, 
TestParameter, AutoAnalysis.Line1.Point2.Data.Start, false
TestParameter, AutoAnalysis.Line1.Point2.Data.StartVar, 
TestParameter, AutoAnalysis.Line1.Point2.Data.StartCondition, 
TestParameter, AutoAnalysis.Line1.GradientExpr, 0
TestParameter, AutoAnalysis.Line2.Enabled, false
TestParameter, AutoAnalysis.Line2.Type, 1
TestParameter, AutoAnalysis.Line2.Fix, True
TestParameter, AutoAnalysis.Line2.YAxis, 0
TestParameter, AutoAnalysis.Line2.Point1.Type, 0
TestParameter, AutoAnalysis.Line2.Point1.XY.X, 
TestParameter, AutoAnalysis.Line2.Point1.XY.Y, 
TestParameter, AutoAnalysis.Line2.Point1.Data.Var, 
TestParameter, AutoAnalysis.Line2.Point1.Data.Condition, 
TestParameter, AutoAnalysis.Line2.Point1.Data.Start, false
TestParameter, AutoAnalysis.Line2.Point1.Data.StartVar, 
TestParameter, AutoAnalysis.Line2.Point1.Data.StartCondition, 
TestParameter, AutoAnalysis.Line2.Point2.Type, 0
TestParameter, AutoAnalysis.Line2.Point2.XY.X, 
TestParameter, AutoAnalysis.Line2.Point2.XY.Y, 
TestParameter, AutoAnalysis.Line2.Point2.Data.Var, 
TestParameter, AutoAnalysis.Line2.Point2.Data.Condition, 
TestParameter, AutoAnalysis.Line2.Point2.Data.Start, false
TestParameter, AutoAnalysis.Line2.Point2.Data.StartVar, 
TestParameter, AutoAnalysis.Line2.Point2.Data.StartCondition, 
TestParameter, AutoAnalysis.Line2.GradientExpr, 0
TestParameter, AutoAnalysis.Marker.Enabled, false
TestParameter, AutoAnalysis.Marker.Data.Var, 
TestParameter, AutoAnalysis.Marker.Data.Condition, 
TestParameter, AutoAnalysis.Marker.Data.Start, false
TestParameter, AutoAnalysis.Marker.Data.StartVar, 
TestParameter, AutoAnalysis.Marker.Data.StartCondition, 
MetaData, TestRecord.EntryPoint, true
MetaData, TestRecord.RecordTime, 12/22/2024 05:44:20
MetaData, TestRecord.TestTarget, 
MetaData, TestRecord.IterationIndex, 2
MetaData, TestRecord.Preservation, true
MetaData, TestRecord.Flag, 
MetaData, TestRecord.Remarks, 2.5wt-s21c3
MetaData, TestRecord.LinkKey, 94137533-6fe1-42ec-a89e-8d95f6f93779
MetaData, TestRecord.Parameters, 
Dimension1, 102, 102, 102
Dimension2, 5, 5, 5
DataName, Vg, Vd, Id
DataValue, 0.1, -0.25, -1.3278000000000002E-06
DataValue, 0.090000000000000011, -0.25, -1.5508000000000003E-06
DataValue, 0.08, -0.25, -1.8415000000000003E-06
DataValue, 0.07, -0.25, -2.1074000000000004E-06
DataValue, 0.060000000000000005, -0.25, -2.4748000000000004E-06
DataValue, 0.05, -0.25, -2.9144000000000004E-06
DataValue, 0.04, -0.25, -3.3429000000000002E-06
DataValue, 0.030000000000000002, -0.25, -3.8882E-06
DataValue, 0.02, -0.25, -4.5246000000000007E-06
DataValue, 0.01, -0.25, -5.1648000000000009E-06
DataValue, 0, -0.25, -5.944E-06
DataValue, -0.01, -0.25, -6.8311000000000005E-06
DataValue, -0.02, -0.25, -7.7498000000000016E-06
DataValue, -0.030000000000000002, -0.25, -8.810300000000001E-06
DataValue, -0.04, -0.25, -1.00246E-05
DataValue, -0.05, -0.25, -1.12792E-05
DataValue, -0.060000000000000005, -0.25, -1.3096E-05
DataValue, -0.07, -0.25, -1.4586E-05
DataValue, -0.08, -0.25, -1.6206E-05
DataValue, -0.090000000000000011, -0.25, -1.8054E-05
DataValue, -0.1, -0.25, -2.0072E-05
DataValue, -0.11, -0.25, -2.2168000000000002E-05
DataValue, -0.12000000000000001, -0.25, -2.4504E-05
DataValue, -0.13, -0.25, -2.7048000000000003E-05
DataValue, -0.14, -0.25, -2.97E-05
DataValue, -0.15, -0.25, -3.2586E-05
DataValue, -0.16, -0.25, -3.5706E-05
DataValue, -0.17, -0.25, -3.8942E-05
DataValue, -0.18000000000000002, -0.25, -4.2380000000000004E-05
DataValue, -0.19, -0.25, -4.6102E-05
DataValue, -0.2, -0.25, -4.9970000000000004E-05
DataValue, -0.21000000000000002, -0.25, -5.3986E-05
DataValue, -0.22, -0.25, -5.8314000000000004E-05
DataValue, -0.23, -0.25, -6.2778E-05
DataValue, -0.24000000000000002, -0.25, -6.7384E-05
DataValue, -0.25, -0.25, -7.2246E-05
DataValue, -0.26, -0.25, -7.7248E-05
DataValue, -0.27, -0.25, -8.2336E-05
DataValue, -0.28, -0.25, -8.7640000000000008E-05
DataValue, -0.29000000000000004, -0.25, -9.3082E-05
DataValue, -0.3, -0.25, -9.8596E-05
DataValue, -0.31, -0.25, -0.00010407
DataValue, -0.32, -0.25, -0.00010986000000000001
DataValue, -0.33, -0.25, -0.00011894000000000001
DataValue, -0.34, -0.25, -0.00012406
DataValue, -0.35000000000000003, -0.25, -0.00012936
DataValue, -0.36000000000000004, -0.25, -0.00013472
DataValue, -0.37, -0.25, -0.00014002
DataValue, -0.38, -0.25, -0.00014524
DataValue, -0.39, -0.25, -0.0001505
DataValue, -0.4, -0.25, -0.00015556
DataValue, -0.4, -0.25, -0.00015598
DataValue, -0.39, -0.25, -0.00015228
DataValue, -0.38, -0.25, -0.00014832000000000002
DataValue, -0.37, -0.25, -0.00014394
DataValue, -0.36000000000000004, -0.25, -0.0001394
DataValue, -0.35000000000000003, -0.25, -0.00013478
DataValue, -0.34, -0.25, -0.00012992
DataValue, -0.33, -0.25, -0.00012494
DataValue, -0.32, -0.25, -0.00011996000000000001
DataValue, -0.31, -0.25, -0.00011486000000000001
DataValue, -0.3, -0.25, -0.00010970000000000001
DataValue, -0.29000000000000004, -0.25, -0.00010452000000000001
DataValue, -0.28, -0.25, -9.9102E-05
DataValue, -0.27, -0.25, -9.404E-05
DataValue, -0.26, -0.25, -8.8962E-05
DataValue, -0.25, -0.25, -8.3992E-05
DataValue, -0.24000000000000002, -0.25, -7.8994E-05
DataValue, -0.23, -0.25, -7.406E-05
DataValue, -0.22, -0.25, -6.9346E-05
DataValue, -0.21000000000000002, -0.25, -6.4584E-05
DataValue, -0.2, -0.25, -6.0092E-05
DataValue, -0.19, -0.25, -5.5764000000000003E-05
DataValue, -0.18000000000000002, -0.25, -5.1596E-05
DataValue, -0.17, -0.25, -4.7572000000000005E-05
DataValue, -0.16, -0.25, -4.3684000000000004E-05
DataValue, -0.15, -0.25, -4.006E-05
DataValue, -0.14, -0.25, -3.6646E-05
DataValue, -0.13, -0.25, -3.334E-05
DataValue, -0.12000000000000001, -0.25, -3.0178E-05
DataValue, -0.11, -0.25, -2.7382E-05
DataValue, -0.1, -0.25, -2.4704E-05
DataValue, -0.090000000000000011, -0.25, -2.2136E-05
DataValue, -0.08, -0.25, -1.9844000000000002E-05
DataValue, -0.07, -0.25, -1.7746E-05
DataValue, -0.060000000000000005, -0.25, -1.5736E-05
DataValue, -0.05, -0.25, -1.3932E-05
DataValue, -0.04, -0.25, -1.23E-05
DataValue, -0.030000000000000002, -0.25, -1.0848E-05
DataValue, -0.02, -0.25, -9.3337E-06
DataValue, -0.01, -0.25, -8.2067E-06
DataValue, 0, -0.25, -7.1077000000000006E-06
DataValue, 0.01, -0.25, -6.1429000000000009E-06
DataValue, 0.02, -0.25, -5.3333E-06
DataValue, 0.030000000000000002, -0.25, -4.5628000000000006E-06
DataValue, 0.04, -0.25, -3.8635E-06
DataValue, 0.05, -0.25, -3.3047000000000003E-06
DataValue, 0.060000000000000005, -0.25, -2.7956000000000004E-06
DataValue, 0.07, -0.25, -2.3191000000000004E-06
DataValue, 0.08, -0.25, -1.9443E-06
DataValue, 0.090000000000000011, -0.25, -1.6440000000000003E-06
DataValue, 0.1, -0.25, -1.3294000000000001E-06
DataValue, 0.1, -0.25, -1.1031E-06
DataValue, 0.090000000000000011, -0.25, -1.2839000000000001E-06
DataValue, 0.08, -0.25, -1.4946E-06
DataValue, 0.07, -0.25, -1.8208000000000002E-06
DataValue, 0.060000000000000005, -0.25, -2.1318E-06
DataValue, 0.05, -0.25, -2.4884E-06
DataValue, 0.04, -0.25, -2.9731000000000004E-06
DataValue, 0.030000000000000002, -0.25, -3.4607E-06
DataValue, 0.02, -0.25, -4.0106E-06
DataValue, 0.01, -0.25, -4.7155000000000008E-06
DataValue, 0, -0.25, -5.4409000000000007E-06
DataValue, -0.01, -0.25, -6.2753000000000007E-06
DataValue, -0.02, -0.25, -7.2468000000000006E-06
DataValue, -0.030000000000000002, -0.25, -8.2763E-06
DataValue, -0.04, -0.25, -9.4119E-06
DataValue, -0.05, -0.25, -1.0737300000000001E-05
DataValue, -0.060000000000000005, -0.25, -1.2704E-05
DataValue, -0.07, -0.25, -1.4230000000000001E-05
DataValue, -0.08, -0.25, -1.5962E-05
DataValue, -0.090000000000000011, -0.25, -1.7822E-05
DataValue, -0.1, -0.25, -1.9824000000000002E-05
DataValue, -0.11, -0.25, -2.2084E-05
DataValue, -0.12000000000000001, -0.25, -2.4560000000000002E-05
DataValue, -0.13, -0.25, -2.7122000000000002E-05
DataValue, -0.14, -0.25, -2.9968000000000002E-05
DataValue, -0.15, -0.25, -3.3010000000000004E-05
DataValue, -0.16, -0.25, -3.6178E-05
DataValue, -0.17, -0.25, -3.9632E-05
DataValue, -0.18000000000000002, -0.25, -4.3304000000000004E-05
DataValue, -0.19, -0.25, -4.7108000000000004E-05
DataValue, -0.2, -0.25, -5.1178000000000004E-05
DataValue, -0.21000000000000002, -0.25, -5.549E-05
DataValue, -0.22, -0.25, -5.9964000000000004E-05
DataValue, -0.23, -0.25, -6.4580000000000008E-05
DataValue, -0.24000000000000002, -0.25, -6.9492E-05
DataValue, -0.25, -0.25, -7.4484E-05
DataValue, -0.26, -0.25, -7.9634E-05
DataValue, -0.27, -0.25, -8.5086E-05
DataValue, -0.28, -0.25, -9.0426E-05
DataValue, -0.29000000000000004, -0.25, -9.5806E-05
DataValue, -0.3, -0.25, -0.00010142400000000001
DataValue, -0.31, -0.25, -0.000107114
DataValue, -0.32, -0.25, -0.000112756
DataValue, -0.33, -0.25, -0.00012150000000000001
DataValue, -0.34, -0.25, -0.00012672
DataValue, -0.35000000000000003, -0.25, -0.00013202
DataValue, -0.36000000000000004, -0.25, -0.00013724
DataValue, -0.37, -0.25, -0.00014250000000000002
DataValue, -0.38, -0.25, -0.00014776
DataValue, -0.39, -0.25, -0.0001528
DataValue, -0.4, -0.25, -0.00015778
DataValue, -0.4, -0.25, -0.00015824
DataValue, -0.39, -0.25, -0.00015446
DataValue, -0.38, -0.25, -0.00015024
DataValue, -0.37, -0.25, -0.0001459
DataValue, -0.36000000000000004, -0.25, -0.00014140000000000002
DataValue, -0.35000000000000003, -0.25, -0.00013654000000000002
DataValue, -0.34, -0.25, -0.00013172000000000002
DataValue, -0.33, -0.25, -0.00012682
DataValue, -0.32, -0.25, -0.00012166000000000001
DataValue, -0.31, -0.25, -0.00011650000000000001
DataValue, -0.3, -0.25, -0.00011136
DataValue, -0.29000000000000004, -0.25, -0.0001061
DataValue, -0.28, -0.25, -0.00010084
DataValue, -0.27, -0.25, -9.5346E-05
DataValue, -0.26, -0.25, -9.0276E-05
DataValue, -0.25, -0.25, -8.524E-05
DataValue, -0.24000000000000002, -0.25, -8.0222E-05
DataValue, -0.23, -0.25, -7.5228E-05
DataValue, -0.22, -0.25, -7.0420000000000007E-05
DataValue, -0.21000000000000002, -0.25, -6.5736000000000009E-05
DataValue, -0.2, -0.25, -6.1142E-05
DataValue, -0.19, -0.25, -5.6706E-05
DataValue, -0.18000000000000002, -0.25, -5.2506E-05
DataValue, -0.17, -0.25, -4.8348E-05
DataValue, -0.16, -0.25, -4.4386000000000005E-05
DataValue, -0.15, -0.25, -4.0628000000000005E-05
DataValue, -0.14, -0.25, -3.7142000000000005E-05
DataValue, -0.13, -0.25, -3.3708E-05
DataValue, -0.12000000000000001, -0.25, -3.0642E-05
DataValue, -0.11, -0.25, -2.7772E-05
DataValue, -0.1, -0.25, -2.4998E-05
DataValue, -0.090000000000000011, -0.25, -2.2442E-05
DataValue, -0.08, -0.25, -2.0126E-05
DataValue, -0.07, -0.25, -1.7948E-05
DataValue, -0.060000000000000005, -0.25, -1.5926E-05
DataValue, -0.05, -0.25, -1.4104E-05
DataValue, -0.04, -0.25, -1.2466E-05
DataValue, -0.030000000000000002, -0.25, -1.0956E-05
DataValue, -0.02, -0.25, -9.4436E-06
DataValue, -0.01, -0.25, -8.2887E-06
DataValue, 0, -0.25, -7.1370000000000004E-06
DataValue, 0.01, -0.25, -6.1829000000000006E-06
DataValue, 0.02, -0.25, -5.3618000000000009E-06
DataValue, 0.030000000000000002, -0.25, -4.5656000000000008E-06
DataValue, 0.04, -0.25, -3.8778E-06
DataValue, 0.05, -0.25, -3.3143E-06
DataValue, 0.060000000000000005, -0.25, -2.8041000000000004E-06
DataValue, 0.07, -0.25, -2.323E-06
DataValue, 0.08, -0.25, -1.9598000000000003E-06
DataValue, 0.090000000000000011, -0.25, -1.6441E-06
DataValue, 0.1, -0.25, -1.3263000000000001E-06
DataValue, 0.1, -0.25, -1.0875000000000002E-06
DataValue, 0.090000000000000011, -0.25, -1.3279000000000002E-06
DataValue, 0.08, -0.25, -1.5421000000000002E-06
DataValue, 0.07, -0.25, -1.8200000000000002E-06
DataValue, 0.060000000000000005, -0.25, -2.1956E-06
DataValue, 0.05, -0.25, -2.5524000000000003E-06
DataValue, 0.04, -0.25, -2.9961000000000004E-06
DataValue, 0.030000000000000002, -0.25, -3.5515000000000002E-06
DataValue, 0.02, -0.25, -4.1076E-06
DataValue, 0.01, -0.25, -4.7751E-06
DataValue, 0, -0.25, -5.5760000000000005E-06
DataValue, -0.01, -0.25, -6.3991E-06
DataValue, -0.02, -0.25, -7.3658000000000007E-06
DataValue, -0.030000000000000002, -0.25, -8.4809E-06
DataValue, -0.04, -0.25, -9.6409000000000012E-06
DataValue, -0.05, -0.25, -1.09387E-05
DataValue, -0.060000000000000005, -0.25, -1.3014000000000001E-05
DataValue, -0.07, -0.25, -1.453E-05
DataValue, -0.08, -0.25, -1.6264000000000002E-05
DataValue, -0.090000000000000011, -0.25, -1.8232E-05
DataValue, -0.1, -0.25, -2.0272000000000002E-05
DataValue, -0.11, -0.25, -2.2528000000000002E-05
DataValue, -0.12000000000000001, -0.25, -2.5038E-05
DataValue, -0.13, -0.25, -2.7684E-05
DataValue, -0.14, -0.25, -3.0526E-05
DataValue, -0.15, -0.25, -3.3568E-05
DataValue, -0.16, -0.25, -3.6868E-05
DataValue, -0.17, -0.25, -4.0318E-05
DataValue, -0.18000000000000002, -0.25, -4.397E-05
DataValue, -0.19, -0.25, -4.7872E-05
DataValue, -0.2, -0.25, -5.206E-05
DataValue, -0.21000000000000002, -0.25, -5.6428E-05
DataValue, -0.22, -0.25, -6.0992E-05
DataValue, -0.23, -0.25, -6.5736000000000009E-05
DataValue, -0.24000000000000002, -0.25, -7.0576E-05
DataValue, -0.25, -0.25, -7.5658E-05
DataValue, -0.26, -0.25, -8.0894E-05
DataValue, -0.27, -0.25, -8.617600000000001E-05
DataValue, -0.28, -0.25, -9.1642E-05
DataValue, -0.29000000000000004, -0.25, -9.7256E-05
DataValue, -0.3, -0.25, -0.000102822
DataValue, -0.31, -0.25, -0.000108462
DataValue, -0.32, -0.25, -0.000114226
DataValue, -0.33, -0.25, -0.00012296
DataValue, -0.34, -0.25, -0.0001281
DataValue, -0.35000000000000003, -0.25, -0.00013332
DataValue, -0.36000000000000004, -0.25, -0.00013862
DataValue, -0.37, -0.25, -0.00014392000000000002
DataValue, -0.38, -0.25, -0.00014896
DataValue, -0.39, -0.25, -0.000154
DataValue, -0.4, -0.25, -0.00015906
DataValue, -0.4, -0.25, -0.00015936000000000002
DataValue, -0.39, -0.25, -0.00015544000000000002
DataValue, -0.38, -0.25, -0.00015126
DataValue, -0.37, -0.25, -0.00014692
DataValue, -0.36000000000000004, -0.25, -0.00014230000000000002
DataValue, -0.35000000000000003, -0.25, -0.00013744
DataValue, -0.34, -0.25, -0.00013256000000000002
DataValue, -0.33, -0.25, -0.0001276
DataValue, -0.32, -0.25, -0.00012246000000000002
DataValue, -0.31, -0.25, -0.0001173
DataValue, -0.3, -0.25, -0.00011208000000000001
DataValue, -0.29000000000000004, -0.25, -0.00010686
DataValue, -0.28, -0.25, -0.00010158
DataValue, -0.27, -0.25, -9.6058000000000008E-05
DataValue, -0.26, -0.25, -9.0940000000000007E-05
DataValue, -0.25, -0.25, -8.5838E-05
DataValue, -0.24000000000000002, -0.25, -8.084E-05
DataValue, -0.23, -0.25, -7.5874E-05
DataValue, -0.22, -0.25, -7.0908E-05
DataValue, -0.21000000000000002, -0.25, -6.6212000000000009E-05
DataValue, -0.2, -0.25, -6.1564000000000009E-05
DataValue, -0.19, -0.25, -5.7108E-05
DataValue, -0.18000000000000002, -0.25, -5.2822000000000004E-05
DataValue, -0.17, -0.25, -4.8712000000000004E-05
DataValue, -0.16, -0.25, -4.4584E-05
DataValue, -0.15, -0.25, -4.0902E-05
DataValue, -0.14, -0.25, -3.7406E-05
DataValue, -0.13, -0.25, -3.402E-05
DataValue, -0.12000000000000001, -0.25, -3.0874E-05
DataValue, -0.11, -0.25, -2.7982E-05
DataValue, -0.1, -0.25, -2.5208E-05
DataValue, -0.090000000000000011, -0.25, -2.2632E-05
DataValue, -0.08, -0.25, -2.0304E-05
DataValue, -0.07, -0.25, -1.811E-05
DataValue, -0.060000000000000005, -0.25, -1.6060000000000002E-05
DataValue, -0.05, -0.25, -1.426E-05
DataValue, -0.04, -0.25, -1.259E-05
DataValue, -0.030000000000000002, -0.25, -1.1026E-05
DataValue, -0.02, -0.25, -9.578E-06
DataValue, -0.01, -0.25, -8.3357E-06
DataValue, 0, -0.25, -7.2488000000000008E-06
DataValue, 0.01, -0.25, -6.2769000000000008E-06
DataValue, 0.02, -0.25, -5.3762E-06
DataValue, 0.030000000000000002, -0.25, -4.6241E-06
DataValue, 0.04, -0.25, -3.9707000000000008E-06
DataValue, 0.05, -0.25, -3.3417000000000005E-06
DataValue, 0.060000000000000005, -0.25, -2.8226000000000003E-06
DataValue, 0.07, -0.25, -2.4113E-06
DataValue, 0.08, -0.25, -2.0009E-06
