
SetupTitle, (c1) Output curve in LGP
PrimitiveTest, I/V Sweep
TestParameter, Context.MainFrame, B1500A
TestParameter, Channel.UnitType, SMU, SMU
TestParameter, Channel.Unit, SMU1:HR/AS, SMU2:HR/AS
TestParameter, Channel.IName, Ig, Id
TestParameter, Channel.VName, Vg, Vd
TestParameter, Channel.Mode, V, V
TestParameter, Channel.Func, VAR2, VAR1
TestParameter, Channel.Index, 
TestParameter, Channel.Time, 
TestParameter, Measurement.Port.Unit, SMU1:HR/AS, SMU2:HR/AS
TestParameter, Measurement.Port.SeriesResistor, NONE, NONE
TestParameter, Measurement.Port.Filter, ON, ON
TestParameter, Measurement.Port.OutputVoltageComparison, 0, 0
TestParameter, Measurement.Primary.Locus, Double
TestParameter, Measurement.Primary.Scale, LINEAR
TestParameter, Measurement.Primary.Start, 0.1
TestParameter, Measurement.Primary.Stop, -0.5
TestParameter, Measurement.Primary.Step, -0.012
TestParameter, Measurement.Primary.Compliance, 0.1
TestParameter, Measurement.Primary.PowerCompliance, 0
TestParameter, Measurement.Aborting.Condition, CONTINUE AT ANY
TestParameter, Measurement.PostOutput.Value, START
TestParameter, Measurement.PostOutput.Retention, OFF
TestParameter, Measurement.Secondary.Start, 0.1
TestParameter, Measurement.Secondary.Count, 6
TestParameter, Measurement.Secondary.Step, -0.1
TestParameter, Measurement.Secondary.Compliance, 0.0001
TestParameter, Measurement.Secondary.PowerCompliance, 0
TestParameter, Measurement.Bias.Source, 0.1, 0.1
TestParameter, Measurement.Bias.Compliance, 0.0001, 0.1
TestParameter, Measurement.Monitor.Unit, SMU1:HR/AS, SMU2:HR/AS
TestParameter, Measurement.Monitor.Adc, HR ADC, HR ADC
TestParameter, Measurement.Monitor.Measurement, Compliance Side, Compliance Side
TestParameter, Measurement.Monitor.RangingMode, LIMITED, LIMITED
TestParameter, Measurement.Monitor.RangeBoundary, 1nA, 1nA
TestParameter, Measurement.Monitor.RangeRating, BY FULL RANGE, BY FULL RANGE
TestParameter, Measurement.Monitor.RangeRatingCoeff, 50, 50
TestParameter, Measurement.Timing.Hold, 0
TestParameter, Measurement.Timing.Delay, 0
TestParameter, Measurement.Adc.HighSpeed.Mode, AUTO
TestParameter, Measurement.Adc.HighSpeed.Coeff, 1
TestParameter, Measurement.Adc.HighResolution.AutoZero, OFF
TestParameter, Measurement.Adc.HighResolution.Mode, AUTO
TestParameter, Measurement.Adc.HighResolution.Coeff, 6
TestParameter, Measurement.WaitTime.Source.Coeff, 1
TestParameter, Measurement.WaitTime.Source.Offset, 0
TestParameter, Measurement.WaitTime.Monitor.Coeff, 1
TestParameter, Measurement.WaitTime.Monitor.Offset, 0
TestParameter, Output.Graph.Enabled, true
TestParameter, Output.Graph.AutoScaling, false
TestParameter, Output.Graph.XAxis.Data, Vd
TestParameter, Output.Graph.XAxis.Scale, Linear
TestParameter, Output.Graph.XAxis.Left, 0
TestParameter, Output.Graph.XAxis.Right, -0.5
TestParameter, Output.Graph.XAxis.RunTimeAutoScale, true
TestParameter, Output.Graph.YAxis.Data, Id
TestParameter, Output.Graph.YAxis.Scale, Linear
TestParameter, Output.Graph.YAxis.Bottom, -0.1
TestParameter, Output.Graph.YAxis.Top, 0.1
TestParameter, Output.Graph.YAxis.Group, 
TestParameter, Output.Graph.YAxis.RunTimeAutoScale, true
TestParameter, Output.List.Data, Vd, Vg, Id
TestParameter, AutoAnalysis.Interpolation, false
TestParameter, AutoAnalysis.Var2StepCount, 1
TestParameter, AutoAnalysis.Var2StepScript, 
TestParameter, AutoAnalysis.Line1.Enabled, false
TestParameter, AutoAnalysis.Line1.Type, 1
TestParameter, AutoAnalysis.Line1.Fix, True
TestParameter, AutoAnalysis.Line1.YAxis, 0
TestParameter, AutoAnalysis.Line1.Point1.Type, 0
TestParameter, AutoAnalysis.Line1.Point1.XY.X, 
TestParameter, AutoAnalysis.Line1.Point1.XY.Y, 
TestParameter, AutoAnalysis.Line1.Point1.Data.Var, 
TestParameter, AutoAnalysis.Line1.Point1.Data.Condition, 
TestParameter, AutoAnalysis.Line1.Point1.Data.Start, false
TestParameter, AutoAnalysis.Line1.Point1.Data.StartVar, 
TestParameter, AutoAnalysis.Line1.Point1.Data.StartCondition, 
TestParameter, AutoAnalysis.Line1.Point2.Type, 0
TestParameter, AutoAnalysis.Line1.Point2.XY.X, 
TestParameter, AutoAnalysis.Line1.Point2.XY.Y, 
TestParameter, AutoAnalysis.Line1.Point2.Data.Var, 
TestParameter, AutoAnalysis.Line1.Point2.Data.Condition, 
TestParameter, AutoAnalysis.Line1.Point2.Data.Start, false
TestParameter, AutoAnalysis.Line1.Point2.Data.StartVar, 
TestParameter, AutoAnalysis.Line1.Point2.Data.StartCondition, 
TestParameter, AutoAnalysis.Line1.GradientExpr, 0
TestParameter, AutoAnalysis.Line2.Enabled, false
TestParameter, AutoAnalysis.Line2.Type, 1
TestParameter, AutoAnalysis.Line2.Fix, True
TestParameter, AutoAnalysis.Line2.YAxis, 0
TestParameter, AutoAnalysis.Line2.Point1.Type, 0
TestParameter, AutoAnalysis.Line2.Point1.XY.X, 
TestParameter, AutoAnalysis.Line2.Point1.XY.Y, 
TestParameter, AutoAnalysis.Line2.Point1.Data.Var, 
TestParameter, AutoAnalysis.Line2.Point1.Data.Condition, 
TestParameter, AutoAnalysis.Line2.Point1.Data.Start, false
TestParameter, AutoAnalysis.Line2.Point1.Data.StartVar, 
TestParameter, AutoAnalysis.Line2.Point1.Data.StartCondition, 
TestParameter, AutoAnalysis.Line2.Point2.Type, 0
TestParameter, AutoAnalysis.Line2.Point2.XY.X, 
TestParameter, AutoAnalysis.Line2.Point2.XY.Y, 
TestParameter, AutoAnalysis.Line2.Point2.Data.Var, 
TestParameter, AutoAnalysis.Line2.Point2.Data.Condition, 
TestParameter, AutoAnalysis.Line2.Point2.Data.Start, false
TestParameter, AutoAnalysis.Line2.Point2.Data.StartVar, 
TestParameter, AutoAnalysis.Line2.Point2.Data.StartCondition, 
TestParameter, AutoAnalysis.Line2.GradientExpr, 0
TestParameter, AutoAnalysis.Marker.Enabled, false
TestParameter, AutoAnalysis.Marker.Data.Var, 
TestParameter, AutoAnalysis.Marker.Data.Condition, 
TestParameter, AutoAnalysis.Marker.Data.Start, false
TestParameter, AutoAnalysis.Marker.Data.StartVar, 
TestParameter, AutoAnalysis.Marker.Data.StartCondition, 
MetaData, TestRecord.EntryPoint, true
MetaData, TestRecord.RecordTime, 12/22/2024 05:47:38
MetaData, TestRecord.TestTarget, 
MetaData, TestRecord.IterationIndex, 1
MetaData, TestRecord.Preservation, true
MetaData, TestRecord.Flag, 
MetaData, TestRecord.Remarks, 2.5wt-s21c5
MetaData, TestRecord.LinkKey, 798acb5f-d55d-4ae0-b659-65dee38a435c
MetaData, TestRecord.Parameters, 
Dimension1, 102, 102, 102
Dimension2, 6, 6, 6
DataName, Vd, Vg, Id
DataValue, 0.1, 0.1, 0.00015642
DataValue, 0.088000000000000009, 0.1, 0.00013072
DataValue, 0.076, 0.1, 0.00010678
DataValue, 0.064, 0.1, 8.4532E-05
DataValue, 0.052000000000000005, 0.1, 6.464E-05
DataValue, 0.04, 0.1, 4.6596E-05
DataValue, 0.028, 0.1, 3.0394E-05
DataValue, 0.016, 0.1, 1.605E-05
DataValue, 0.004, 0.1, 3.6649000000000003E-06
DataValue, -0.008, 0.1, -6.9896000000000008E-06
DataValue, -0.02, 0.1, -1.5294E-05
DataValue, -0.032, 0.1, -2.254E-05
DataValue, -0.044000000000000004, 0.1, -2.8414E-05
DataValue, -0.056, 0.1, -3.2938E-05
DataValue, -0.068, 0.1, -3.6382E-05
DataValue, -0.08, 0.1, -3.9012E-05
DataValue, -0.092, 0.1, -4.0824E-05
DataValue, -0.10400000000000001, 0.1, -4.2056E-05
DataValue, -0.116, 0.1, -4.29E-05
DataValue, -0.128, 0.1, -4.3306E-05
DataValue, -0.14, 0.1, -4.3534E-05
DataValue, -0.152, 0.1, -4.3664E-05
DataValue, -0.164, 0.1, -4.377E-05
DataValue, -0.17600000000000002, 0.1, -4.3756E-05
DataValue, -0.188, 0.1, -4.3642E-05
DataValue, -0.2, 0.1, -4.3626E-05
DataValue, -0.21200000000000002, 0.1, -4.3606E-05
DataValue, -0.224, 0.1, -4.3442E-05
DataValue, -0.23600000000000002, 0.1, -4.3374E-05
DataValue, -0.248, 0.1, -4.3372000000000004E-05
DataValue, -0.26, 0.1, -4.3274E-05
DataValue, -0.272, 0.1, -4.3148E-05
DataValue, -0.28400000000000003, 0.1, -4.3106000000000004E-05
DataValue, -0.29600000000000004, 0.1, -4.3102E-05
DataValue, -0.308, 0.1, -4.3024E-05
DataValue, -0.32, 0.1, -4.2908E-05
DataValue, -0.332, 0.1, -4.2822000000000004E-05
DataValue, -0.34400000000000003, 0.1, -4.2800000000000004E-05
DataValue, -0.35600000000000004, 0.1, -4.2714000000000005E-05
DataValue, -0.368, 0.1, -4.257E-05
DataValue, -0.38, 0.1, -4.2534E-05
DataValue, -0.392, 0.1, -4.2544000000000005E-05
DataValue, -0.404, 0.1, -4.2434E-05
DataValue, -0.41600000000000004, 0.1, -4.2322E-05
DataValue, -0.42800000000000005, 0.1, -4.2304E-05
DataValue, -0.44, 0.1, -4.2284000000000004E-05
DataValue, -0.452, 0.1, -4.2204000000000005E-05
DataValue, -0.464, 0.1, -4.2108000000000004E-05
DataValue, -0.47600000000000003, 0.1, -4.2092E-05
DataValue, -0.48800000000000004, 0.1, -4.2102000000000004E-05
DataValue, -0.5, 0.1, -4.201E-05
DataValue, -0.5, 0.1, -4.1938000000000004E-05
DataValue, -0.48800000000000004, 0.1, -4.185E-05
DataValue, -0.47600000000000003, 0.1, -4.1826E-05
DataValue, -0.464, 0.1, -4.1704E-05
DataValue, -0.452, 0.1, -4.1562E-05
DataValue, -0.44, 0.1, -4.1526E-05
DataValue, -0.42800000000000005, 0.1, -4.15E-05
DataValue, -0.41600000000000004, 0.1, -4.137E-05
DataValue, -0.404, 0.1, -4.126E-05
DataValue, -0.392, 0.1, -4.124E-05
DataValue, -0.38, 0.1, -4.117E-05
DataValue, -0.368, 0.1, -4.1034E-05
DataValue, -0.35600000000000004, 0.1, -4.0966E-05
DataValue, -0.34400000000000003, 0.1, -4.0918000000000004E-05
DataValue, -0.332, 0.1, -4.083E-05
DataValue, -0.32, 0.1, -4.0678E-05
DataValue, -0.308, 0.1, -4.0602E-05
DataValue, -0.29600000000000004, 0.1, -4.0446E-05
DataValue, -0.28400000000000003, 0.1, -4.0314E-05
DataValue, -0.272, 0.1, -4.0242E-05
DataValue, -0.26, 0.1, -4.0064E-05
DataValue, -0.248, 0.1, -3.9868E-05
DataValue, -0.23600000000000002, 0.1, -3.9744000000000004E-05
DataValue, -0.224, 0.1, -3.961E-05
DataValue, -0.21200000000000002, 0.1, -3.934E-05
DataValue, -0.2, 0.1, -3.9186E-05
DataValue, -0.188, 0.1, -3.898E-05
DataValue, -0.17600000000000002, 0.1, -3.8692E-05
DataValue, -0.164, 0.1, -3.837E-05
DataValue, -0.152, 0.1, -3.7956E-05
DataValue, -0.14, 0.1, -3.7532E-05
DataValue, -0.128, 0.1, -3.697E-05
DataValue, -0.116, 0.1, -3.6102E-05
DataValue, -0.10400000000000001, 0.1, -3.5132E-05
DataValue, -0.092, 0.1, -3.3936E-05
DataValue, -0.08, 0.1, -3.2154000000000004E-05
DataValue, -0.068, 0.1, -2.9860000000000002E-05
DataValue, -0.056, 0.1, -2.7164E-05
DataValue, -0.044000000000000004, 0.1, -2.3368E-05
DataValue, -0.032, 0.1, -1.8598E-05
DataValue, -0.02, 0.1, -1.2788E-05
DataValue, -0.008, 0.1, -5.678200000000001E-06
DataValue, 0.004, 0.1, 3.0283000000000003E-06
DataValue, 0.016, 0.1, 1.3546E-05
DataValue, 0.028, 0.1, 2.5696E-05
DataValue, 0.04, 0.1, 3.9608000000000004E-05
DataValue, 0.052000000000000005, 0.1, 5.5400000000000005E-05
DataValue, 0.064, 0.1, 7.3396E-05
DataValue, 0.076, 0.1, 9.321E-05
DataValue, 0.088000000000000009, 0.1, 0.000115004
DataValue, 0.1, 0.1, 0.00014110000000000001
DataValue, 0.1, 0, 0.00029458
DataValue, 0.088000000000000009, 0, 0.00025342
DataValue, 0.076, 0, 0.00021348000000000002
DataValue, 0.064, 0, 0.00017518
DataValue, 0.052000000000000005, 0, 0.00013854
DataValue, 0.04, 0, 0.0001033
DataValue, 0.028, 0, 7.0224E-05
DataValue, 0.016, 0, 3.8748E-05
DataValue, 0.004, 0, 9.331800000000001E-06
DataValue, -0.008, 0, -1.853E-05
DataValue, -0.02, 0, -4.4228000000000004E-05
DataValue, -0.032, 0, -6.8026E-05
DataValue, -0.044000000000000004, 0, -9.0074E-05
DataValue, -0.056, 0, -0.00010987200000000001
DataValue, -0.068, 0, -0.00012714
DataValue, -0.08, 0, -0.00014342
DataValue, -0.092, 0, -0.00015778
DataValue, -0.10400000000000001, 0, -0.00017006
DataValue, -0.116, 0, -0.00018066000000000002
DataValue, -0.128, 0, -0.0001899
DataValue, -0.14, 0, -0.0001975
DataValue, -0.152, 0, -0.0002035
DataValue, -0.164, 0, -0.00020872000000000002
DataValue, -0.17600000000000002, 0, -0.00021280000000000002
DataValue, -0.188, 0, -0.00021580000000000001
DataValue, -0.2, 0, -0.00021840000000000002
DataValue, -0.21200000000000002, 0, -0.00022050000000000002
DataValue, -0.224, 0, -0.00022190000000000003
DataValue, -0.23600000000000002, 0, -0.00022304
DataValue, -0.248, 0, -0.00022410000000000003
DataValue, -0.26, 0, -0.00022482
DataValue, -0.272, 0, -0.00022532000000000002
DataValue, -0.28400000000000003, 0, -0.00022600000000000002
DataValue, -0.29600000000000004, 0, -0.00022642000000000002
DataValue, -0.308, 0, -0.00022676
DataValue, -0.32, 0, -0.00022708
DataValue, -0.332, 0, -0.00022742000000000002
DataValue, -0.34400000000000003, 0, -0.00022754
DataValue, -0.35600000000000004, 0, -0.0002278
DataValue, -0.368, 0, -0.00022818
DataValue, -0.38, 0, -0.00022824000000000002
DataValue, -0.392, 0, -0.00022832
DataValue, -0.404, 0, -0.00022860000000000003
DataValue, -0.41600000000000004, 0, -0.00022868
DataValue, -0.42800000000000005, 0, -0.00022860000000000003
DataValue, -0.44, 0, -0.0002288
DataValue, -0.452, 0, -0.00022902000000000003
DataValue, -0.464, 0, -0.00022896
DataValue, -0.47600000000000003, 0, -0.00022896
DataValue, -0.48800000000000004, 0, -0.00022902000000000003
DataValue, -0.5, 0, -0.00022920000000000002
DataValue, -0.5, 0, -0.00022902000000000003
DataValue, -0.48800000000000004, 0, -0.00022852000000000001
DataValue, -0.47600000000000003, 0, -0.00022838
DataValue, -0.464, 0, -0.00022830000000000002
DataValue, -0.452, 0, -0.00022784000000000001
DataValue, -0.44, 0, -0.00022746000000000002
DataValue, -0.42800000000000005, 0, -0.00022736000000000002
DataValue, -0.41600000000000004, 0, -0.00022710000000000002
DataValue, -0.404, 0, -0.00022658000000000002
DataValue, -0.392, 0, -0.00022626000000000002
DataValue, -0.38, 0, -0.00022590000000000002
DataValue, -0.368, 0, -0.0002254
DataValue, -0.35600000000000004, 0, -0.00022490000000000002
DataValue, -0.34400000000000003, 0, -0.00022442000000000002
DataValue, -0.332, 0, -0.00022398
DataValue, -0.32, 0, -0.00022332000000000002
DataValue, -0.308, 0, -0.00022256
DataValue, -0.29600000000000004, 0, -0.00022194
DataValue, -0.28400000000000003, 0, -0.00022132
DataValue, -0.272, 0, -0.00022036
DataValue, -0.26, 0, -0.00021926
DataValue, -0.248, 0, -0.00021836000000000002
DataValue, -0.23600000000000002, 0, -0.00021696
DataValue, -0.224, 0, -0.00021524
DataValue, -0.21200000000000002, 0, -0.00021346
DataValue, -0.2, 0, -0.00021126
DataValue, -0.188, 0, -0.00020858
DataValue, -0.17600000000000002, 0, -0.00020522000000000002
DataValue, -0.164, 0, -0.00020104
DataValue, -0.152, 0, -0.00019618
DataValue, -0.14, 0, -0.00019018
DataValue, -0.128, 0, -0.00018284
DataValue, -0.116, 0, -0.00017432
DataValue, -0.10400000000000001, 0, -0.00016442
DataValue, -0.092, 0, -0.00015268
DataValue, -0.08, 0, -0.00013918
DataValue, -0.068, 0, -0.00012404
DataValue, -0.056, 0, -0.00010702
DataValue, -0.044000000000000004, 0, -8.81E-05
DataValue, -0.032, 0, -6.6688E-05
DataValue, -0.02, 0, -4.3542000000000004E-05
DataValue, -0.008, 0, -1.817E-05
DataValue, 0.004, 0, 9.1556000000000009E-06
DataValue, 0.016, 0, 3.8988E-05
DataValue, 0.028, 0, 7.0456E-05
DataValue, 0.04, 0, 0.00010381600000000001
DataValue, 0.052000000000000005, 0, 0.00013994000000000002
DataValue, 0.064, 0, 0.00017714
DataValue, 0.076, 0, 0.00021628
DataValue, 0.088000000000000009, 0, 0.000257
DataValue, 0.1, 0, 0.00029942
DataValue, 0.1, -0.1, 0.00044376
DataValue, 0.088000000000000009, -0.1, 0.00038694
DataValue, 0.076, -0.1, 0.00033096000000000004
DataValue, 0.064, -0.1, 0.00027562
DataValue, 0.052000000000000005, -0.1, 0.00022116
DataValue, 0.04, -0.1, 0.00016810000000000002
DataValue, 0.028, -0.1, 0.0001161
DataValue, 0.016, -0.1, 6.5366E-05
DataValue, 0.004, -0.1, 1.594E-05
DataValue, -0.008, -0.1, -3.2370000000000003E-05
DataValue, -0.02, -0.1, -7.9374E-05
DataValue, -0.032, -0.1, -0.00012454
DataValue, -0.044000000000000004, -0.1, -0.00016844
DataValue, -0.056, -0.1, -0.00021066000000000002
DataValue, -0.068, -0.1, -0.00025150000000000004
DataValue, -0.08, -0.1, -0.00029046000000000003
DataValue, -0.092, -0.1, -0.00032756
DataValue, -0.10400000000000001, -0.1, -0.00036316
DataValue, -0.116, -0.1, -0.00039686
DataValue, -0.128, -0.1, -0.00042824000000000003
DataValue, -0.14, -0.1, -0.000458
DataValue, -0.152, -0.1, -0.00048600000000000005
DataValue, -0.164, -0.1, -0.00051156
DataValue, -0.17600000000000002, -0.1, -0.00053546000000000008
DataValue, -0.188, -0.1, -0.0005574
DataValue, -0.2, -0.1, -0.00057714000000000007
DataValue, -0.21200000000000002, -0.1, -0.00059488
DataValue, -0.224, -0.1, -0.00061102
DataValue, -0.23600000000000002, -0.1, -0.00062538
DataValue, -0.248, -0.1, -0.00063752
DataValue, -0.26, -0.1, -0.00064808
DataValue, -0.272, -0.1, -0.00065730000000000009
DataValue, -0.28400000000000003, -0.1, -0.00066522
DataValue, -0.29600000000000004, -0.1, -0.00067142
DataValue, -0.308, -0.1, -0.00067700000000000008
DataValue, -0.32, -0.1, -0.0006817
DataValue, -0.332, -0.1, -0.00068520000000000007
DataValue, -0.34400000000000003, -0.1, -0.0006882
DataValue, -0.35600000000000004, -0.1, -0.00068986
DataValue, -0.368, -0.1, -0.00069246
DataValue, -0.38, -0.1, -0.0006943
DataValue, -0.392, -0.1, -0.00069598
DataValue, -0.404, -0.1, -0.00069750000000000009
DataValue, -0.41600000000000004, -0.1, -0.00069854
DataValue, -0.42800000000000005, -0.1, -0.00069976
DataValue, -0.44, -0.1, -0.00070088000000000008
DataValue, -0.452, -0.1, -0.00070144
DataValue, -0.464, -0.1, -0.00070224
DataValue, -0.47600000000000003, -0.1, -0.00070302000000000006
DataValue, -0.48800000000000004, -0.1, -0.00070346
DataValue, -0.5, -0.1, -0.0007039
DataValue, -0.5, -0.1, -0.00070328
DataValue, -0.48800000000000004, -0.1, -0.00070134000000000006
DataValue, -0.47600000000000003, -0.1, -0.00069956
DataValue, -0.464, -0.1, -0.00069798000000000006
DataValue, -0.452, -0.1, -0.00069646000000000009
DataValue, -0.44, -0.1, -0.00069480000000000008
DataValue, -0.42800000000000005, -0.1, -0.00069284
DataValue, -0.41600000000000004, -0.1, -0.00069132
DataValue, -0.404, -0.1, -0.00068952
DataValue, -0.392, -0.1, -0.000687
DataValue, -0.38, -0.1, -0.00068488
DataValue, -0.368, -0.1, -0.00068252
DataValue, -0.35600000000000004, -0.1, -0.00067942
DataValue, -0.34400000000000003, -0.1, -0.00067612
DataValue, -0.332, -0.1, -0.00067232
DataValue, -0.32, -0.1, -0.00066794
DataValue, -0.308, -0.1, -0.00066260000000000006
DataValue, -0.29600000000000004, -0.1, -0.00065686
DataValue, -0.28400000000000003, -0.1, -0.00065020000000000008
DataValue, -0.272, -0.1, -0.00064248000000000007
DataValue, -0.26, -0.1, -0.00063304000000000008
DataValue, -0.248, -0.1, -0.0006225
DataValue, -0.23600000000000002, -0.1, -0.00061092
DataValue, -0.224, -0.1, -0.00059708
DataValue, -0.21200000000000002, -0.1, -0.00058148
DataValue, -0.2, -0.1, -0.00056462
DataValue, -0.188, -0.1, -0.00054574000000000007
DataValue, -0.17600000000000002, -0.1, -0.00052456
DataValue, -0.164, -0.1, -0.00050176000000000007
DataValue, -0.152, -0.1, -0.00047692000000000003
DataValue, -0.14, -0.1, -0.00045014
DataValue, -0.128, -0.1, -0.00042136
DataValue, -0.116, -0.1, -0.0003905
DataValue, -0.10400000000000001, -0.1, -0.00035788000000000004
DataValue, -0.092, -0.1, -0.00032354000000000004
DataValue, -0.08, -0.1, -0.00028694
DataValue, -0.068, -0.1, -0.00024864
DataValue, -0.056, -0.1, -0.0002089
DataValue, -0.044000000000000004, -0.1, -0.00016714
DataValue, -0.032, -0.1, -0.00012356000000000002
DataValue, -0.02, -0.1, -7.9078E-05
DataValue, -0.008, -0.1, -3.2258E-05
DataValue, 0.004, -0.1, 1.59E-05
DataValue, 0.016, -0.1, 6.5396000000000009E-05
DataValue, 0.028, -0.1, 0.00011500200000000001
DataValue, 0.04, -0.1, 0.00016884000000000002
DataValue, 0.052000000000000005, -0.1, 0.00022244000000000002
DataValue, 0.064, -0.1, 0.00027728000000000003
DataValue, 0.076, -0.1, 0.00033306000000000004
DataValue, 0.088000000000000009, -0.1, 0.00039008
DataValue, 0.1, -0.1, 0.00044846
DataValue, 0.1, -0.2, 0.00055368000000000008
DataValue, 0.088000000000000009, -0.2, 0.00048552
DataValue, 0.076, -0.2, 0.00041746000000000003
DataValue, 0.064, -0.2, 0.00035012000000000004
DataValue, 0.052000000000000005, -0.2, 0.00028314000000000003
DataValue, 0.04, -0.2, 0.0002165
DataValue, 0.028, -0.2, 0.00015076
DataValue, 0.016, -0.2, 8.5408E-05
DataValue, 0.004, -0.2, 2.078E-05
DataValue, -0.008, -0.2, -4.3E-05
DataValue, -0.02, -0.2, -0.00010628800000000001
DataValue, -0.032, -0.2, -0.00016878000000000002
DataValue, -0.044000000000000004, -0.2, -0.00023038000000000003
