
SetupTitle, (c1) Output curve in LGP
PrimitiveTest, I/V Sweep
TestParameter, Context.MainFrame, B1500A
TestParameter, Channel.UnitType, SMU, SMU
TestParameter, Channel.Unit, SMU1:HR/AS, SMU2:HR/AS
TestParameter, Channel.IName, Ig, Id
TestParameter, Channel.VName, Vg, Vd
TestParameter, Channel.Mode, V, V
TestParameter, Channel.Func, VAR2, VAR1
TestParameter, Channel.Index, 
TestParameter, Channel.Time, 
TestParameter, Measurement.Port.Unit, SMU1:HR/AS, SMU2:HR/AS
TestParameter, Measurement.Port.SeriesResistor, NONE, NONE
TestParameter, Measurement.Port.Filter, ON, ON
TestParameter, Measurement.Port.OutputVoltageComparison, 0, 0
TestParameter, Measurement.Primary.Locus, Double
TestParameter, Measurement.Primary.Scale, LINEAR
TestParameter, Measurement.Primary.Start, 0.1
TestParameter, Measurement.Primary.Stop, -0.5
TestParameter, Measurement.Primary.Step, -0.012
TestParameter, Measurement.Primary.Compliance, 0.1
TestParameter, Measurement.Primary.PowerCompliance, 0
TestParameter, Measurement.Aborting.Condition, CONTINUE AT ANY
TestParameter, Measurement.PostOutput.Value, START
TestParameter, Measurement.PostOutput.Retention, OFF
TestParameter, Measurement.Secondary.Start, 0.1
TestParameter, Measurement.Secondary.Count, 6
TestParameter, Measurement.Secondary.Step, -0.1
TestParameter, Measurement.Secondary.Compliance, 0.0001
TestParameter, Measurement.Secondary.PowerCompliance, 0
TestParameter, Measurement.Bias.Source, 0.1, 0.1
TestParameter, Measurement.Bias.Compliance, 0.0001, 0.1
TestParameter, Measurement.Monitor.Unit, SMU1:HR/AS, SMU2:HR/AS
TestParameter, Measurement.Monitor.Adc, HR ADC, HR ADC
TestParameter, Measurement.Monitor.Measurement, Compliance Side, Compliance Side
TestParameter, Measurement.Monitor.RangingMode, LIMITED, LIMITED
TestParameter, Measurement.Monitor.RangeBoundary, 1nA, 1nA
TestParameter, Measurement.Monitor.RangeRating, BY FULL RANGE, BY FULL RANGE
TestParameter, Measurement.Monitor.RangeRatingCoeff, 50, 50
TestParameter, Measurement.Timing.Hold, 0
TestParameter, Measurement.Timing.Delay, 0
TestParameter, Measurement.Adc.HighSpeed.Mode, AUTO
TestParameter, Measurement.Adc.HighSpeed.Coeff, 1
TestParameter, Measurement.Adc.HighResolution.AutoZero, OFF
TestParameter, Measurement.Adc.HighResolution.Mode, AUTO
TestParameter, Measurement.Adc.HighResolution.Coeff, 6
TestParameter, Measurement.WaitTime.Source.Coeff, 1
TestParameter, Measurement.WaitTime.Source.Offset, 0
TestParameter, Measurement.WaitTime.Monitor.Coeff, 1
TestParameter, Measurement.WaitTime.Monitor.Offset, 0
TestParameter, Output.Graph.Enabled, true
TestParameter, Output.Graph.AutoScaling, false
TestParameter, Output.Graph.XAxis.Data, Vd
TestParameter, Output.Graph.XAxis.Scale, Linear
TestParameter, Output.Graph.XAxis.Left, 0
TestParameter, Output.Graph.XAxis.Right, -0.5
TestParameter, Output.Graph.XAxis.RunTimeAutoScale, true
TestParameter, Output.Graph.YAxis.Data, Id
TestParameter, Output.Graph.YAxis.Scale, Linear
TestParameter, Output.Graph.YAxis.Bottom, -0.1
TestParameter, Output.Graph.YAxis.Top, 0.1
TestParameter, Output.Graph.YAxis.Group, 
TestParameter, Output.Graph.YAxis.RunTimeAutoScale, true
TestParameter, Output.List.Data, Vd, Vg, Id
TestParameter, AutoAnalysis.Interpolation, false
TestParameter, AutoAnalysis.Var2StepCount, 1
TestParameter, AutoAnalysis.Var2StepScript, 
TestParameter, AutoAnalysis.Line1.Enabled, false
TestParameter, AutoAnalysis.Line1.Type, 1
TestParameter, AutoAnalysis.Line1.Fix, True
TestParameter, AutoAnalysis.Line1.YAxis, 0
TestParameter, AutoAnalysis.Line1.Point1.Type, 0
TestParameter, AutoAnalysis.Line1.Point1.XY.X, 
TestParameter, AutoAnalysis.Line1.Point1.XY.Y, 
TestParameter, AutoAnalysis.Line1.Point1.Data.Var, 
TestParameter, AutoAnalysis.Line1.Point1.Data.Condition, 
TestParameter, AutoAnalysis.Line1.Point1.Data.Start, false
TestParameter, AutoAnalysis.Line1.Point1.Data.StartVar, 
TestParameter, AutoAnalysis.Line1.Point1.Data.StartCondition, 
TestParameter, AutoAnalysis.Line1.Point2.Type, 0
TestParameter, AutoAnalysis.Line1.Point2.XY.X, 
TestParameter, AutoAnalysis.Line1.Point2.XY.Y, 
TestParameter, AutoAnalysis.Line1.Point2.Data.Var, 
TestParameter, AutoAnalysis.Line1.Point2.Data.Condition, 
TestParameter, AutoAnalysis.Line1.Point2.Data.Start, false
TestParameter, AutoAnalysis.Line1.Point2.Data.StartVar, 
TestParameter, AutoAnalysis.Line1.Point2.Data.StartCondition, 
TestParameter, AutoAnalysis.Line1.GradientExpr, 0
TestParameter, AutoAnalysis.Line2.Enabled, false
TestParameter, AutoAnalysis.Line2.Type, 1
TestParameter, AutoAnalysis.Line2.Fix, True
TestParameter, AutoAnalysis.Line2.YAxis, 0
TestParameter, AutoAnalysis.Line2.Point1.Type, 0
TestParameter, AutoAnalysis.Line2.Point1.XY.X, 
TestParameter, AutoAnalysis.Line2.Point1.XY.Y, 
TestParameter, AutoAnalysis.Line2.Point1.Data.Var, 
TestParameter, AutoAnalysis.Line2.Point1.Data.Condition, 
TestParameter, AutoAnalysis.Line2.Point1.Data.Start, false
TestParameter, AutoAnalysis.Line2.Point1.Data.StartVar, 
TestParameter, AutoAnalysis.Line2.Point1.Data.StartCondition, 
TestParameter, AutoAnalysis.Line2.Point2.Type, 0
TestParameter, AutoAnalysis.Line2.Point2.XY.X, 
TestParameter, AutoAnalysis.Line2.Point2.XY.Y, 
TestParameter, AutoAnalysis.Line2.Point2.Data.Var, 
TestParameter, AutoAnalysis.Line2.Point2.Data.Condition, 
TestParameter, AutoAnalysis.Line2.Point2.Data.Start, false
TestParameter, AutoAnalysis.Line2.Point2.Data.StartVar, 
TestParameter, AutoAnalysis.Line2.Point2.Data.StartCondition, 
TestParameter, AutoAnalysis.Line2.GradientExpr, 0
TestParameter, AutoAnalysis.Marker.Enabled, false
TestParameter, AutoAnalysis.Marker.Data.Var, 
TestParameter, AutoAnalysis.Marker.Data.Condition, 
TestParameter, AutoAnalysis.Marker.Data.Start, false
TestParameter, AutoAnalysis.Marker.Data.StartVar, 
TestParameter, AutoAnalysis.Marker.Data.StartCondition, 
MetaData, TestRecord.EntryPoint, true
MetaData, TestRecord.RecordTime, 12/22/2024 04:40:24
MetaData, TestRecord.TestTarget, 
MetaData, TestRecord.IterationIndex, 2
MetaData, TestRecord.Preservation, true
MetaData, TestRecord.Flag, 
MetaData, TestRecord.Remarks, s21c3
MetaData, TestRecord.LinkKey, 181bad51-3a75-4170-9508-29dcd62281e1
MetaData, TestRecord.Parameters, 
Dimension1, 102, 102, 102
Dimension2, 6, 6, 6
DataName, Vd, Vg, Id
DataValue, 0.1, 0.1, 1.3104E-05
DataValue, 0.088000000000000009, 0.1, 1.0852E-05
DataValue, 0.076, 0.1, 8.7920000000000015E-06
DataValue, 0.064, 0.1, 6.9180000000000005E-06
DataValue, 0.052000000000000005, 0.1, 5.3047E-06
DataValue, 0.04, 0.1, 3.7909000000000004E-06
DataValue, 0.028, 0.1, 2.4576000000000004E-06
DataValue, 0.016, 0.1, 1.3442000000000002E-06
DataValue, 0.004, 0.1, 2.9054E-07
DataValue, -0.008, 0.1, -5.579E-07
DataValue, -0.02, 0.1, -1.2898000000000001E-06
DataValue, -0.032, 0.1, -1.9808E-06
DataValue, -0.044000000000000004, 0.1, -2.5063E-06
DataValue, -0.056, 0.1, -2.9477E-06
DataValue, -0.068, 0.1, -3.3787000000000004E-06
DataValue, -0.08, 0.1, -3.6556E-06
DataValue, -0.092, 0.1, -3.9108000000000007E-06
DataValue, -0.10400000000000001, 0.1, -4.1584000000000007E-06
DataValue, -0.116, 0.1, -4.2782000000000008E-06
DataValue, -0.128, 0.1, -4.3991000000000008E-06
DataValue, -0.14, 0.1, -4.5318E-06
DataValue, -0.152, 0.1, -4.5540000000000008E-06
DataValue, -0.164, 0.1, -4.6014000000000005E-06
DataValue, -0.17600000000000002, 0.1, -4.6673E-06
DataValue, -0.188, 0.1, -4.6492E-06
DataValue, -0.2, 0.1, -4.6475000000000008E-06
DataValue, -0.21200000000000002, 0.1, -4.6897E-06
DataValue, -0.224, 0.1, -4.6438E-06
DataValue, -0.23600000000000002, 0.1, -4.6318E-06
DataValue, -0.248, 0.1, -4.6629000000000007E-06
DataValue, -0.26, 0.1, -4.6108000000000008E-06
DataValue, -0.272, 0.1, -4.5982E-06
DataValue, -0.28400000000000003, 0.1, -4.6255000000000009E-06
DataValue, -0.29600000000000004, 0.1, -4.5771000000000006E-06
DataValue, -0.308, 0.1, -4.5709000000000006E-06
DataValue, -0.32, 0.1, -4.5902000000000005E-06
DataValue, -0.332, 0.1, -4.5353000000000004E-06
DataValue, -0.34400000000000003, 0.1, -4.5419000000000005E-06
DataValue, -0.35600000000000004, 0.1, -4.5661E-06
DataValue, -0.368, 0.1, -4.5147E-06
DataValue, -0.38, 0.1, -4.5226000000000005E-06
DataValue, -0.392, 0.1, -4.5464E-06
DataValue, -0.404, 0.1, -4.4959000000000004E-06
DataValue, -0.41600000000000004, 0.1, -4.5072000000000007E-06
DataValue, -0.42800000000000005, 0.1, -4.5330000000000005E-06
DataValue, -0.44, 0.1, -4.4863000000000006E-06
DataValue, -0.452, 0.1, -4.4957000000000008E-06
DataValue, -0.464, 0.1, -4.5231000000000008E-06
DataValue, -0.47600000000000003, 0.1, -4.475E-06
DataValue, -0.48800000000000004, 0.1, -4.4862E-06
DataValue, -0.5, 0.1, -4.5078E-06
DataValue, -0.5, 0.1, -4.4723E-06
DataValue, -0.48800000000000004, 0.1, -4.4582000000000008E-06
DataValue, -0.47600000000000003, 0.1, -4.492E-06
DataValue, -0.464, 0.1, -4.4458000000000007E-06
DataValue, -0.452, 0.1, -4.4344E-06
DataValue, -0.44, 0.1, -4.4669E-06
DataValue, -0.42800000000000005, 0.1, -4.4434000000000005E-06
DataValue, -0.41600000000000004, 0.1, -4.4029000000000007E-06
DataValue, -0.404, 0.1, -4.4334000000000006E-06
DataValue, -0.392, 0.1, -4.4323000000000007E-06
DataValue, -0.38, 0.1, -4.3863000000000007E-06
DataValue, -0.368, 0.1, -4.3956000000000007E-06
DataValue, -0.35600000000000004, 0.1, -4.4180000000000007E-06
DataValue, -0.34400000000000003, 0.1, -4.371E-06
DataValue, -0.332, 0.1, -4.3677000000000006E-06
DataValue, -0.32, 0.1, -4.3947000000000005E-06
DataValue, -0.308, 0.1, -4.3554000000000007E-06
DataValue, -0.29600000000000004, 0.1, -4.3301E-06
DataValue, -0.28400000000000003, 0.1, -4.3570000000000008E-06
DataValue, -0.272, 0.1, -4.3239E-06
DataValue, -0.26, 0.1, -4.2847000000000007E-06
DataValue, -0.248, 0.1, -4.3041000000000009E-06
DataValue, -0.23600000000000002, 0.1, -4.2827000000000005E-06
DataValue, -0.224, 0.1, -4.2288E-06
DataValue, -0.21200000000000002, 0.1, -4.2460000000000005E-06
DataValue, -0.2, 0.1, -4.2267000000000005E-06
DataValue, -0.188, 0.1, -4.1472000000000007E-06
DataValue, -0.17600000000000002, 0.1, -4.1252000000000008E-06
DataValue, -0.164, 0.1, -4.0954000000000006E-06
DataValue, -0.152, 0.1, -3.9906E-06
DataValue, -0.14, 0.1, -3.9134000000000005E-06
DataValue, -0.128, 0.1, -3.8520000000000006E-06
DataValue, -0.116, 0.1, -3.6918000000000004E-06
DataValue, -0.10400000000000001, 0.1, -3.5337E-06
DataValue, -0.092, 0.1, -3.3959000000000004E-06
DataValue, -0.08, 0.1, -3.1517000000000002E-06
DataValue, -0.068, 0.1, -2.8477000000000003E-06
DataValue, -0.056, 0.1, -2.5662E-06
DataValue, -0.044000000000000004, 0.1, -2.1695E-06
DataValue, -0.032, 0.1, -1.6627000000000002E-06
DataValue, -0.02, 0.1, -1.1438000000000002E-06
DataValue, -0.008, 0.1, -4.701E-07
DataValue, 0.004, 0.1, 2.5114E-07
DataValue, 0.016, 0.1, 1.11958E-06
DataValue, 0.028, 0.1, 2.1567E-06
DataValue, 0.04, 0.1, 3.3625000000000004E-06
DataValue, 0.052000000000000005, 0.1, 4.6782E-06
DataValue, 0.064, 0.1, 6.1336000000000009E-06
DataValue, 0.076, 0.1, 7.8487000000000016E-06
DataValue, 0.088000000000000009, 0.1, 9.7684000000000012E-06
DataValue, 0.1, 0.1, 1.203E-05
DataValue, 0.1, 0, 2.8916000000000002E-05
DataValue, 0.088000000000000009, 0, 2.4312E-05
DataValue, 0.076, 0, 2.0086E-05
DataValue, 0.064, 0, 1.6144E-05
DataValue, 0.052000000000000005, 0, 1.2458E-05
DataValue, 0.04, 0, 9.157200000000001E-06
DataValue, 0.028, 0, 6.0633000000000009E-06
DataValue, 0.016, 0, 3.2775000000000004E-06
DataValue, 0.004, 0, 7.4326E-07
DataValue, -0.008, 0, -1.5389000000000002E-06
DataValue, -0.02, 0, -3.5397E-06
DataValue, -0.032, 0, -5.4093000000000009E-06
DataValue, -0.044000000000000004, 0, -7.088600000000001E-06
DataValue, -0.056, 0, -8.5061000000000014E-06
DataValue, -0.068, 0, -9.8249000000000014E-06
DataValue, -0.08, 0, -1.0981E-05
DataValue, -0.092, 0, -1.1838E-05
DataValue, -0.10400000000000001, 0, -1.2772E-05
DataValue, -0.116, 0, -1.3508E-05
DataValue, -0.128, 0, -1.4114E-05
DataValue, -0.14, 0, -1.4698E-05
DataValue, -0.152, 0, -1.5176E-05
DataValue, -0.164, 0, -1.5516000000000002E-05
DataValue, -0.17600000000000002, 0, -1.5838E-05
DataValue, -0.188, 0, -1.6138E-05
DataValue, -0.2, 0, -1.6318000000000002E-05
DataValue, -0.21200000000000002, 0, -1.646E-05
DataValue, -0.224, 0, -1.664E-05
DataValue, -0.23600000000000002, 0, -1.6746000000000002E-05
DataValue, -0.248, 0, -1.6784E-05
DataValue, -0.26, 0, -1.6866E-05
DataValue, -0.272, 0, -1.6938E-05
DataValue, -0.28400000000000003, 0, -1.6932E-05
DataValue, -0.29600000000000004, 0, -1.6964000000000002E-05
DataValue, -0.308, 0, -1.7042E-05
DataValue, -0.32, 0, -1.7054E-05
DataValue, -0.332, 0, -1.703E-05
DataValue, -0.34400000000000003, 0, -1.7052000000000002E-05
DataValue, -0.35600000000000004, 0, -1.7100000000000002E-05
DataValue, -0.368, 0, -1.708E-05
DataValue, -0.38, 0, -1.7066000000000002E-05
DataValue, -0.392, 0, -1.7092000000000002E-05
DataValue, -0.404, 0, -1.7138E-05
DataValue, -0.41600000000000004, 0, -1.7120000000000002E-05
DataValue, -0.42800000000000005, 0, -1.7096E-05
DataValue, -0.44, 0, -1.7134000000000002E-05
DataValue, -0.452, 0, -1.7166E-05
DataValue, -0.464, 0, -1.7142E-05
DataValue, -0.47600000000000003, 0, -1.7118E-05
DataValue, -0.48800000000000004, 0, -1.7172E-05
DataValue, -0.5, 0, -1.719E-05
DataValue, -0.5, 0, -1.7176E-05
DataValue, -0.48800000000000004, 0, -1.7102E-05
DataValue, -0.47600000000000003, 0, -1.7108E-05
DataValue, -0.464, 0, -1.7118E-05
DataValue, -0.452, 0, -1.7066000000000002E-05
DataValue, -0.44, 0, -1.7032000000000002E-05
DataValue, -0.42800000000000005, 0, -1.706E-05
DataValue, -0.41600000000000004, 0, -1.7054E-05
DataValue, -0.404, 0, -1.6994E-05
DataValue, -0.392, 0, -1.6976E-05
DataValue, -0.38, 0, -1.699E-05
DataValue, -0.368, 0, -1.6950000000000002E-05
DataValue, -0.35600000000000004, 0, -1.6878E-05
DataValue, -0.34400000000000003, 0, -1.6872E-05
DataValue, -0.332, 0, -1.6872E-05
DataValue, -0.32, 0, -1.6824E-05
DataValue, -0.308, 0, -1.6744E-05
DataValue, -0.29600000000000004, 0, -1.6714E-05
DataValue, -0.28400000000000003, 0, -1.6694E-05
DataValue, -0.272, 0, -1.6590000000000002E-05
DataValue, -0.26, 0, -1.6494E-05
DataValue, -0.248, 0, -1.6458E-05
DataValue, -0.23600000000000002, 0, -1.635E-05
DataValue, -0.224, 0, -1.617E-05
DataValue, -0.21200000000000002, 0, -1.6004E-05
DataValue, -0.2, 0, -1.5884E-05
DataValue, -0.188, 0, -1.5614E-05
DataValue, -0.17600000000000002, 0, -1.5364E-05
DataValue, -0.164, 0, -1.5084E-05
DataValue, -0.152, 0, -1.4662000000000001E-05
DataValue, -0.14, 0, -1.4208E-05
DataValue, -0.128, 0, -1.3712E-05
DataValue, -0.116, 0, -1.3118E-05
DataValue, -0.10400000000000001, 0, -1.2356E-05
DataValue, -0.092, 0, -1.1554E-05
DataValue, -0.08, 0, -1.0638E-05
DataValue, -0.068, 0, -9.5280000000000009E-06
DataValue, -0.056, 0, -8.3266000000000009E-06
DataValue, -0.044000000000000004, 0, -6.8723000000000011E-06
DataValue, -0.032, 0, -5.2639000000000005E-06
DataValue, -0.02, 0, -3.5149000000000004E-06
DataValue, -0.008, 0, -1.4827000000000002E-06
DataValue, 0.004, 0, 7.2804E-07
DataValue, 0.016, 0, 3.2615000000000005E-06
DataValue, 0.028, 0, 6.0801000000000005E-06
DataValue, 0.04, 0, 9.139E-06
DataValue, 0.052000000000000005, 0, 1.2572000000000001E-05
DataValue, 0.064, 0, 1.6282E-05
DataValue, 0.076, 0, 2.024E-05
DataValue, 0.088000000000000009, 0, 2.4576E-05
DataValue, 0.1, 0, 2.9358000000000003E-05
DataValue, 0.1, -0.1, 5.621E-05
DataValue, 0.088000000000000009, -0.1, 4.8036E-05
DataValue, 0.076, -0.1, 4.0154E-05
DataValue, 0.064, -0.1, 3.2716E-05
DataValue, 0.052000000000000005, -0.1, 2.5742000000000002E-05
DataValue, 0.04, -0.1, 1.91E-05
DataValue, 0.028, -0.1, 1.286E-05
DataValue, 0.016, -0.1, 7.1140000000000008E-06
DataValue, 0.004, -0.1, 1.6426000000000002E-06
DataValue, -0.008, -0.1, -3.3346000000000002E-06
DataValue, -0.02, -0.1, -7.9943E-06
DataValue, -0.032, -0.1, -1.2290000000000001E-05
DataValue, -0.044000000000000004, -0.1, -1.6218E-05
DataValue, -0.056, -0.1, -1.9896E-05
DataValue, -0.068, -0.1, -2.3272E-05
DataValue, -0.08, -0.1, -2.6258E-05
DataValue, -0.092, -0.1, -2.9018000000000002E-05
DataValue, -0.10400000000000001, -0.1, -3.1562E-05
DataValue, -0.116, -0.1, -3.3806E-05
DataValue, -0.128, -0.1, -3.5778E-05
DataValue, -0.14, -0.1, -3.7568000000000004E-05
DataValue, -0.152, -0.1, -3.9188E-05
DataValue, -0.164, -0.1, -4.0594000000000005E-05
DataValue, -0.17600000000000002, -0.1, -4.1790000000000005E-05
DataValue, -0.188, -0.1, -4.2862000000000004E-05
DataValue, -0.2, -0.1, -4.3846E-05
DataValue, -0.21200000000000002, -0.1, -4.464E-05
DataValue, -0.224, -0.1, -4.5248000000000005E-05
DataValue, -0.23600000000000002, -0.1, -4.5864E-05
DataValue, -0.248, -0.1, -4.6422000000000004E-05
DataValue, -0.26, -0.1, -4.677E-05
DataValue, -0.272, -0.1, -4.7090000000000005E-05
DataValue, -0.28400000000000003, -0.1, -4.742E-05
DataValue, -0.29600000000000004, -0.1, -4.7662E-05
DataValue, -0.308, -0.1, -4.7814E-05
DataValue, -0.32, -0.1, -4.7946000000000005E-05
DataValue, -0.332, -0.1, -4.8104E-05
DataValue, -0.34400000000000003, -0.1, -4.8234E-05
DataValue, -0.35600000000000004, -0.1, -4.829E-05
DataValue, -0.368, -0.1, -4.8308E-05
DataValue, -0.38, -0.1, -4.841E-05
DataValue, -0.392, -0.1, -4.8404E-05
DataValue, -0.404, -0.1, -4.8452E-05
DataValue, -0.41600000000000004, -0.1, -4.855E-05
DataValue, -0.42800000000000005, -0.1, -4.8578E-05
DataValue, -0.44, -0.1, -4.856E-05
DataValue, -0.452, -0.1, -4.8628E-05
DataValue, -0.464, -0.1, -4.8676E-05
DataValue, -0.47600000000000003, -0.1, -4.8634E-05
DataValue, -0.48800000000000004, -0.1, -4.868E-05
DataValue, -0.5, -0.1, -4.875E-05
DataValue, -0.5, -0.1, -4.871E-05
DataValue, -0.48800000000000004, -0.1, -4.8584E-05
DataValue, -0.47600000000000003, -0.1, -4.8502000000000004E-05
DataValue, -0.464, -0.1, -4.8488E-05
DataValue, -0.452, -0.1, -4.8360000000000005E-05
DataValue, -0.44, -0.1, -4.8274E-05
DataValue, -0.42800000000000005, -0.1, -4.8246E-05
DataValue, -0.41600000000000004, -0.1, -4.8158E-05
DataValue, -0.404, -0.1, -4.8020000000000004E-05
DataValue, -0.392, -0.1, -4.7956E-05
DataValue, -0.38, -0.1, -4.7862000000000004E-05
DataValue, -0.368, -0.1, -4.7720000000000004E-05
DataValue, -0.35600000000000004, -0.1, -4.7592E-05
DataValue, -0.34400000000000003, -0.1, -4.7484E-05
DataValue, -0.332, -0.1, -4.7312000000000004E-05
DataValue, -0.32, -0.1, -4.7076E-05
DataValue, -0.308, -0.1, -4.6864000000000004E-05
DataValue, -0.29600000000000004, -0.1, -4.6662E-05
DataValue, -0.28400000000000003, -0.1, -4.6372E-05
DataValue, -0.272, -0.1, -4.5974000000000004E-05
DataValue, -0.26, -0.1, -4.5628000000000004E-05
DataValue, -0.248, -0.1, -4.524E-05
DataValue, -0.23600000000000002, -0.1, -4.4662E-05
DataValue, -0.224, -0.1, -4.4036E-05
DataValue, -0.21200000000000002, -0.1, -4.3376E-05
DataValue, -0.2, -0.1, -4.2588E-05
DataValue, -0.188, -0.1, -4.1620000000000005E-05
DataValue, -0.17600000000000002, -0.1, -4.0554E-05
DataValue, -0.164, -0.1, -3.9396E-05
DataValue, -0.152, -0.1, -3.802E-05
DataValue, -0.14, -0.1, -3.6432E-05
DataValue, -0.128, -0.1, -3.4714E-05
DataValue, -0.116, -0.1, -3.285E-05
DataValue, -0.10400000000000001, -0.1, -3.0662E-05
DataValue, -0.092, -0.1, -2.8210000000000003E-05
DataValue, -0.08, -0.1, -2.559E-05
DataValue, -0.068, -0.1, -2.2682E-05
DataValue, -0.056, -0.1, -1.9430000000000002E-05
DataValue, -0.044000000000000004, -0.1, -1.5882E-05
DataValue, -0.032, -0.1, -1.2054E-05
DataValue, -0.02, -0.1, -7.8435E-06
DataValue, -0.008, -0.1, -3.2766000000000005E-06
DataValue, 0.004, -0.1, 1.6237000000000002E-06
DataValue, 0.016, -0.1, 7.0194000000000009E-06
DataValue, 0.028, -0.1, 1.2846E-05
DataValue, 0.04, -0.1, 1.8988000000000002E-05
DataValue, 0.052000000000000005, -0.1, 2.5634000000000002E-05
DataValue, 0.064, -0.1, 3.2706E-05
DataValue, 0.076, -0.1, 4.0162E-05
DataValue, 0.088000000000000009, -0.1, 4.8094000000000004E-05
DataValue, 0.1, -0.1, 5.6592E-05
DataValue, 0.1, -0.2, 8.864E-05
DataValue, 0.088000000000000009, -0.2, 7.6696E-05
DataValue, 0.076, -0.2, 6.5064E-05
DataValue, 0.064, -0.2, 5.3646E-05
DataValue, 0.052000000000000005, -0.2, 4.2672E-05
DataValue, 0.04, -0.2, 3.2158E-05
