
SetupTitle, (c2) Transfer curve in LGP
PrimitiveTest, I/V Sweep
TestParameter, Context.MainFrame, B1500A
TestParameter, Channel.UnitType, SMU, SMU
TestParameter, Channel.Unit, SMU1:HR/AS, SMU2:HR/AS
TestParameter, Channel.IName, Ig, Id
TestParameter, Channel.VName, Vg, Vd
TestParameter, Channel.Mode, V, V
TestParameter, Channel.Func, VAR1, VAR2
TestParameter, Channel.Index, 
TestParameter, Channel.Time, 
TestParameter, Measurement.Port.Unit, SMU1:HR/AS, SMU2:HR/AS
TestParameter, Measurement.Port.SeriesResistor, NONE, NONE
TestParameter, Measurement.Port.Filter, ON, ON
TestParameter, Measurement.Port.OutputVoltageComparison, 0, 0
TestParameter, Measurement.Primary.Locus, Double
TestParameter, Measurement.Primary.Scale, LINEAR
TestParameter, Measurement.Primary.Start, 0.1
TestParameter, Measurement.Primary.Stop, -0.4
TestParameter, Measurement.Primary.Step, -0.01
TestParameter, Measurement.Primary.Compliance, 0.1
TestParameter, Measurement.Primary.PowerCompliance, 1
TestParameter, Measurement.Aborting.Condition, SKIP AT ANY ABNORMAL
TestParameter, Measurement.PostOutput.Value, START
TestParameter, Measurement.PostOutput.Retention, OFF
TestParameter, Measurement.Secondary.Start, -0.25
TestParameter, Measurement.Secondary.Count, 5
TestParameter, Measurement.Secondary.Step, 0
TestParameter, Measurement.Secondary.Compliance, 0.1
TestParameter, Measurement.Secondary.PowerCompliance, 1
TestParameter, Measurement.Bias.Source, 0.1, -0.25
TestParameter, Measurement.Bias.Compliance, 0.1, 0.1
TestParameter, Measurement.Monitor.Unit, SMU1:HR/AS, SMU2:HR/AS
TestParameter, Measurement.Monitor.Adc, HR ADC, HR ADC
TestParameter, Measurement.Monitor.Measurement, Compliance Side, Compliance Side
TestParameter, Measurement.Monitor.RangingMode, LIMITED, LIMITED
TestParameter, Measurement.Monitor.RangeBoundary, 1nA, 1nA
TestParameter, Measurement.Monitor.RangeRating, BY FULL RANGE, BY FULL RANGE
TestParameter, Measurement.Monitor.RangeRatingCoeff, 50, 50
TestParameter, Measurement.Timing.Hold, 0
TestParameter, Measurement.Timing.Delay, 0
TestParameter, Measurement.Adc.HighSpeed.Mode, AUTO
TestParameter, Measurement.Adc.HighSpeed.Coeff, 1
TestParameter, Measurement.Adc.HighResolution.AutoZero, OFF
TestParameter, Measurement.Adc.HighResolution.Mode, AUTO
TestParameter, Measurement.Adc.HighResolution.Coeff, 6
TestParameter, Measurement.WaitTime.Source.Coeff, 1
TestParameter, Measurement.WaitTime.Source.Offset, 0
TestParameter, Measurement.WaitTime.Monitor.Coeff, 1
TestParameter, Measurement.WaitTime.Monitor.Offset, 0
TestParameter, Output.Graph.Enabled, true
TestParameter, Output.Graph.AutoScaling, false
TestParameter, Output.Graph.XAxis.Data, Vg
TestParameter, Output.Graph.XAxis.Scale, Linear
TestParameter, Output.Graph.XAxis.Left, 0.60000000000000009
TestParameter, Output.Graph.XAxis.Right, -0.60000000000000009
TestParameter, Output.Graph.XAxis.RunTimeAutoScale, true
TestParameter, Output.Graph.YAxis.Data, Id
TestParameter, Output.Graph.YAxis.Scale, Linear
TestParameter, Output.Graph.YAxis.Bottom, -0.1
TestParameter, Output.Graph.YAxis.Top, 0.1
TestParameter, Output.Graph.YAxis.Group, 
TestParameter, Output.Graph.YAxis.RunTimeAutoScale, true
TestParameter, Output.List.Data, Vd, Vg, Id
TestParameter, AutoAnalysis.Interpolation, false
TestParameter, AutoAnalysis.Var2StepCount, 1
TestParameter, AutoAnalysis.Var2StepScript, 
TestParameter, AutoAnalysis.Line1.Enabled, false
TestParameter, AutoAnalysis.Line1.Type, 1
TestParameter, AutoAnalysis.Line1.Fix, True
TestParameter, AutoAnalysis.Line1.YAxis, 0
TestParameter, AutoAnalysis.Line1.Point1.Type, 0
TestParameter, AutoAnalysis.Line1.Point1.XY.X, 
TestParameter, AutoAnalysis.Line1.Point1.XY.Y, 
TestParameter, AutoAnalysis.Line1.Point1.Data.Var, 
TestParameter, AutoAnalysis.Line1.Point1.Data.Condition, 
TestParameter, AutoAnalysis.Line1.Point1.Data.Start, false
TestParameter, AutoAnalysis.Line1.Point1.Data.StartVar, 
TestParameter, AutoAnalysis.Line1.Point1.Data.StartCondition, 
TestParameter, AutoAnalysis.Line1.Point2.Type, 0
TestParameter, AutoAnalysis.Line1.Point2.XY.X, 
TestParameter, AutoAnalysis.Line1.Point2.XY.Y, 
TestParameter, AutoAnalysis.Line1.Point2.Data.Var, 
TestParameter, AutoAnalysis.Line1.Point2.Data.Condition, 
TestParameter, AutoAnalysis.Line1.Point2.Data.Start, false
TestParameter, AutoAnalysis.Line1.Point2.Data.StartVar, 
TestParameter, AutoAnalysis.Line1.Point2.Data.StartCondition, 
TestParameter, AutoAnalysis.Line1.GradientExpr, 0
TestParameter, AutoAnalysis.Line2.Enabled, false
TestParameter, AutoAnalysis.Line2.Type, 1
TestParameter, AutoAnalysis.Line2.Fix, True
TestParameter, AutoAnalysis.Line2.YAxis, 0
TestParameter, AutoAnalysis.Line2.Point1.Type, 0
TestParameter, AutoAnalysis.Line2.Point1.XY.X, 
TestParameter, AutoAnalysis.Line2.Point1.XY.Y, 
TestParameter, AutoAnalysis.Line2.Point1.Data.Var, 
TestParameter, AutoAnalysis.Line2.Point1.Data.Condition, 
TestParameter, AutoAnalysis.Line2.Point1.Data.Start, false
TestParameter, AutoAnalysis.Line2.Point1.Data.StartVar, 
TestParameter, AutoAnalysis.Line2.Point1.Data.StartCondition, 
TestParameter, AutoAnalysis.Line2.Point2.Type, 0
TestParameter, AutoAnalysis.Line2.Point2.XY.X, 
TestParameter, AutoAnalysis.Line2.Point2.XY.Y, 
TestParameter, AutoAnalysis.Line2.Point2.Data.Var, 
TestParameter, AutoAnalysis.Line2.Point2.Data.Condition, 
TestParameter, AutoAnalysis.Line2.Point2.Data.Start, false
TestParameter, AutoAnalysis.Line2.Point2.Data.StartVar, 
TestParameter, AutoAnalysis.Line2.Point2.Data.StartCondition, 
TestParameter, AutoAnalysis.Line2.GradientExpr, 0
TestParameter, AutoAnalysis.Marker.Enabled, false
TestParameter, AutoAnalysis.Marker.Data.Var, 
TestParameter, AutoAnalysis.Marker.Data.Condition, 
TestParameter, AutoAnalysis.Marker.Data.Start, false
TestParameter, AutoAnalysis.Marker.Data.StartVar, 
TestParameter, AutoAnalysis.Marker.Data.StartCondition, 
MetaData, TestRecord.EntryPoint, true
MetaData, TestRecord.RecordTime, 12/22/2024 04:40:47
MetaData, TestRecord.TestTarget, 
MetaData, TestRecord.IterationIndex, 1
MetaData, TestRecord.Preservation, true
MetaData, TestRecord.Flag, 
MetaData, TestRecord.Remarks, s21c3
MetaData, TestRecord.LinkKey, 035e1c4b-c819-4212-af1a-eb80d6222bdc
MetaData, TestRecord.Parameters, 
Dimension1, 102, 102, 102
Dimension2, 5, 5, 5
DataName, Vg, Vd, Id
DataValue, 0.1, -0.25, -4.561E-06
DataValue, 0.090000000000000011, -0.25, -5.2189E-06
DataValue, 0.08, -0.25, -5.9705000000000007E-06
DataValue, 0.07, -0.25, -6.7634E-06
DataValue, 0.060000000000000005, -0.25, -7.7367E-06
DataValue, 0.05, -0.25, -8.8085E-06
DataValue, 0.04, -0.25, -9.9397E-06
DataValue, 0.030000000000000002, -0.25, -1.1280700000000002E-05
DataValue, 0.02, -0.25, -1.2882E-05
DataValue, 0.01, -0.25, -1.4378E-05
DataValue, 0, -0.25, -1.6108E-05
DataValue, -0.01, -0.25, -1.7948E-05
DataValue, -0.02, -0.25, -1.9938E-05
DataValue, -0.030000000000000002, -0.25, -2.2216000000000002E-05
DataValue, -0.04, -0.25, -2.4576E-05
DataValue, -0.05, -0.25, -2.7104E-05
DataValue, -0.060000000000000005, -0.25, -2.9900000000000002E-05
DataValue, -0.07, -0.25, -3.29E-05
DataValue, -0.08, -0.25, -3.6036E-05
DataValue, -0.090000000000000011, -0.25, -3.9446E-05
DataValue, -0.1, -0.25, -4.3118E-05
DataValue, -0.11, -0.25, -4.6924E-05
DataValue, -0.12000000000000001, -0.25, -5.0986E-05
DataValue, -0.13, -0.25, -5.5338000000000004E-05
DataValue, -0.14, -0.25, -5.9832E-05
DataValue, -0.15, -0.25, -6.4592000000000008E-05
DataValue, -0.16, -0.25, -6.9628E-05
DataValue, -0.17, -0.25, -7.4826E-05
DataValue, -0.18000000000000002, -0.25, -8.0258E-05
DataValue, -0.19, -0.25, -8.6026E-05
DataValue, -0.2, -0.25, -9.19E-05
DataValue, -0.21000000000000002, -0.25, -9.799E-05
DataValue, -0.22, -0.25, -0.00010437
DataValue, -0.23, -0.25, -0.000110884
DataValue, -0.24000000000000002, -0.25, -0.00011930000000000001
DataValue, -0.25, -0.25, -0.00012578
DataValue, -0.26, -0.25, -0.0001327
DataValue, -0.27, -0.25, -0.00013968000000000002
DataValue, -0.28, -0.25, -0.00014676
DataValue, -0.29000000000000004, -0.25, -0.00015408000000000002
DataValue, -0.3, -0.25, -0.00016146000000000002
DataValue, -0.31, -0.25, -0.00016882
DataValue, -0.32, -0.25, -0.00017632000000000002
DataValue, -0.33, -0.25, -0.00018384
DataValue, -0.34, -0.25, -0.00019128000000000003
DataValue, -0.35000000000000003, -0.25, -0.00019874
DataValue, -0.36000000000000004, -0.25, -0.00020620000000000003
DataValue, -0.37, -0.25, -0.00021346
DataValue, -0.38, -0.25, -0.00022064
DataValue, -0.39, -0.25, -0.00022782000000000002
DataValue, -0.4, -0.25, -0.00023472
DataValue, -0.4, -0.25, -0.00023502
DataValue, -0.39, -0.25, -0.00022936
DataValue, -0.38, -0.25, -0.00022334
DataValue, -0.37, -0.25, -0.00021688000000000002
DataValue, -0.36000000000000004, -0.25, -0.00021028000000000003
DataValue, -0.35000000000000003, -0.25, -0.00020366
DataValue, -0.34, -0.25, -0.0001967
DataValue, -0.33, -0.25, -0.00018966000000000002
DataValue, -0.32, -0.25, -0.00018270000000000002
DataValue, -0.31, -0.25, -0.00017558000000000002
DataValue, -0.3, -0.25, -0.0001683
DataValue, -0.29000000000000004, -0.25, -0.00016118
DataValue, -0.28, -0.25, -0.00015402000000000002
DataValue, -0.27, -0.25, -0.00014688
DataValue, -0.26, -0.25, -0.00013982
DataValue, -0.25, -0.25, -0.00013288000000000002
DataValue, -0.24000000000000002, -0.25, -0.00012594
DataValue, -0.23, -0.25, -0.00011916
DataValue, -0.22, -0.25, -0.00011260000000000001
DataValue, -0.21000000000000002, -0.25, -0.00010608
DataValue, -0.2, -0.25, -9.941E-05
DataValue, -0.19, -0.25, -9.3428E-05
DataValue, -0.18000000000000002, -0.25, -8.7480000000000009E-05
DataValue, -0.17, -0.25, -8.1814E-05
DataValue, -0.16, -0.25, -7.6362E-05
DataValue, -0.15, -0.25, -7.1076000000000009E-05
DataValue, -0.14, -0.25, -6.5946000000000009E-05
DataValue, -0.13, -0.25, -6.1142E-05
DataValue, -0.12000000000000001, -0.25, -5.649E-05
DataValue, -0.11, -0.25, -5.2018E-05
DataValue, -0.1, -0.25, -4.7848E-05
DataValue, -0.090000000000000011, -0.25, -4.3914E-05
DataValue, -0.08, -0.25, -4.0126E-05
DataValue, -0.07, -0.25, -3.6610000000000004E-05
DataValue, -0.060000000000000005, -0.25, -3.3376E-05
DataValue, -0.05, -0.25, -3.0248000000000002E-05
DataValue, -0.04, -0.25, -2.7352000000000002E-05
DataValue, -0.030000000000000002, -0.25, -2.4710000000000002E-05
DataValue, -0.02, -0.25, -2.2234E-05
DataValue, -0.01, -0.25, -1.991E-05
DataValue, 0, -0.25, -1.7732E-05
DataValue, 0.01, -0.25, -1.586E-05
DataValue, 0.02, -0.25, -1.4074000000000001E-05
DataValue, 0.030000000000000002, -0.25, -1.2384E-05
DataValue, 0.04, -0.25, -1.0946E-05
DataValue, 0.05, -0.25, -9.4609000000000012E-06
DataValue, 0.060000000000000005, -0.25, -8.2866000000000013E-06
DataValue, 0.07, -0.25, -7.2511000000000008E-06
DataValue, 0.08, -0.25, -6.256900000000001E-06
DataValue, 0.090000000000000011, -0.25, -5.3614000000000009E-06
DataValue, 0.1, -0.25, -4.6242000000000006E-06
DataValue, 0.1, -0.25, -3.9662E-06
DataValue, 0.090000000000000011, -0.25, -4.6038000000000007E-06
DataValue, 0.08, -0.25, -5.3054000000000009E-06
DataValue, 0.07, -0.25, -6.0422E-06
DataValue, 0.060000000000000005, -0.25, -6.9512000000000005E-06
DataValue, 0.05, -0.25, -7.9785000000000016E-06
DataValue, 0.04, -0.25, -9.0422000000000013E-06
DataValue, 0.030000000000000002, -0.25, -1.03089E-05
DataValue, 0.02, -0.25, -1.1958E-05
DataValue, 0.01, -0.25, -1.338E-05
DataValue, 0, -0.25, -1.5066000000000001E-05
DataValue, -0.01, -0.25, -1.6844E-05
DataValue, -0.02, -0.25, -1.8750000000000002E-05
DataValue, -0.030000000000000002, -0.25, -2.0928E-05
DataValue, -0.04, -0.25, -2.3278E-05
DataValue, -0.05, -0.25, -2.576E-05
DataValue, -0.060000000000000005, -0.25, -2.8474000000000002E-05
DataValue, -0.07, -0.25, -3.1416E-05
DataValue, -0.08, -0.25, -3.4574E-05
DataValue, -0.090000000000000011, -0.25, -3.7906E-05
DataValue, -0.1, -0.25, -4.1490000000000004E-05
DataValue, -0.11, -0.25, -4.5408E-05
DataValue, -0.12000000000000001, -0.25, -4.9394E-05
DataValue, -0.13, -0.25, -5.3634E-05
DataValue, -0.14, -0.25, -5.8194E-05
DataValue, -0.15, -0.25, -6.297E-05
DataValue, -0.16, -0.25, -6.7922E-05
DataValue, -0.17, -0.25, -7.3224E-05
DataValue, -0.18000000000000002, -0.25, -7.872200000000001E-05
DataValue, -0.19, -0.25, -8.4396E-05
DataValue, -0.2, -0.25, -9.0338E-05
DataValue, -0.21000000000000002, -0.25, -9.65E-05
DataValue, -0.22, -0.25, -0.000102918
DataValue, -0.23, -0.25, -0.000109444
DataValue, -0.24000000000000002, -0.25, -0.00011820000000000001
DataValue, -0.25, -0.25, -0.00012476000000000002
DataValue, -0.26, -0.25, -0.0001316
DataValue, -0.27, -0.25, -0.00013864000000000001
DataValue, -0.28, -0.25, -0.00014568
DataValue, -0.29000000000000004, -0.25, -0.000153
DataValue, -0.3, -0.25, -0.00016038
DataValue, -0.31, -0.25, -0.00016772
DataValue, -0.32, -0.25, -0.0001752
DataValue, -0.33, -0.25, -0.00018282000000000002
DataValue, -0.34, -0.25, -0.00019020000000000002
DataValue, -0.35000000000000003, -0.25, -0.00019772000000000003
DataValue, -0.36000000000000004, -0.25, -0.00020506000000000002
DataValue, -0.37, -0.25, -0.00021228000000000002
DataValue, -0.38, -0.25, -0.00021940000000000002
DataValue, -0.39, -0.25, -0.0002264
DataValue, -0.4, -0.25, -0.00023334
DataValue, -0.4, -0.25, -0.00023368000000000003
DataValue, -0.39, -0.25, -0.00022802
DataValue, -0.38, -0.25, -0.00022186000000000002
DataValue, -0.37, -0.25, -0.00021558000000000002
DataValue, -0.36000000000000004, -0.25, -0.00020902
DataValue, -0.35000000000000003, -0.25, -0.00020224000000000002
DataValue, -0.34, -0.25, -0.0001954
DataValue, -0.33, -0.25, -0.0001885
DataValue, -0.32, -0.25, -0.00018140000000000002
DataValue, -0.31, -0.25, -0.00017424
DataValue, -0.3, -0.25, -0.00016718
DataValue, -0.29000000000000004, -0.25, -0.00016006
DataValue, -0.28, -0.25, -0.0001528
DataValue, -0.27, -0.25, -0.00014572
DataValue, -0.26, -0.25, -0.00013872
DataValue, -0.25, -0.25, -0.0001317
DataValue, -0.24000000000000002, -0.25, -0.0001248
DataValue, -0.23, -0.25, -0.00011800000000000001
DataValue, -0.22, -0.25, -0.00011148000000000001
DataValue, -0.21000000000000002, -0.25, -0.00010498
DataValue, -0.2, -0.25, -9.8304E-05
DataValue, -0.19, -0.25, -9.2356000000000008E-05
DataValue, -0.18000000000000002, -0.25, -8.642E-05
DataValue, -0.17, -0.25, -8.0796E-05
DataValue, -0.16, -0.25, -7.532E-05
DataValue, -0.15, -0.25, -6.9968E-05
DataValue, -0.14, -0.25, -6.4922E-05
DataValue, -0.13, -0.25, -6.0044E-05
DataValue, -0.12000000000000001, -0.25, -5.5462000000000005E-05
DataValue, -0.11, -0.25, -5.1048E-05
DataValue, -0.1, -0.25, -4.6918E-05
DataValue, -0.090000000000000011, -0.25, -4.3044E-05
DataValue, -0.08, -0.25, -3.9304E-05
DataValue, -0.07, -0.25, -3.5752E-05
DataValue, -0.060000000000000005, -0.25, -3.2562000000000004E-05
DataValue, -0.05, -0.25, -2.9528000000000003E-05
DataValue, -0.04, -0.25, -2.6608E-05
DataValue, -0.030000000000000002, -0.25, -2.3996000000000002E-05
DataValue, -0.02, -0.25, -2.159E-05
DataValue, -0.01, -0.25, -1.9288000000000002E-05
DataValue, 0, -0.25, -1.7196E-05
DataValue, 0.01, -0.25, -1.5296E-05
DataValue, 0.02, -0.25, -1.3588000000000001E-05
DataValue, 0.030000000000000002, -0.25, -1.197E-05
DataValue, 0.04, -0.25, -1.053E-05
DataValue, 0.05, -0.25, -9.1427000000000014E-06
DataValue, 0.060000000000000005, -0.25, -7.9574000000000011E-06
DataValue, 0.07, -0.25, -6.9653000000000009E-06
DataValue, 0.08, -0.25, -6.0056000000000006E-06
DataValue, 0.090000000000000011, -0.25, -5.1429E-06
DataValue, 0.1, -0.25, -4.4314000000000005E-06
DataValue, 0.1, -0.25, -3.8766E-06
DataValue, 0.090000000000000011, -0.25, -4.4109E-06
DataValue, 0.08, -0.25, -5.1203000000000008E-06
DataValue, 0.07, -0.25, -5.8948000000000007E-06
DataValue, 0.060000000000000005, -0.25, -6.7145000000000007E-06
DataValue, 0.05, -0.25, -7.7272000000000012E-06
DataValue, 0.04, -0.25, -8.8235000000000012E-06
DataValue, 0.030000000000000002, -0.25, -9.9913E-06
DataValue, 0.02, -0.25, -1.13806E-05
DataValue, 0.01, -0.25, -1.3198E-05
DataValue, 0, -0.25, -1.4748E-05
DataValue, -0.01, -0.25, -1.656E-05
DataValue, -0.02, -0.25, -1.8444E-05
DataValue, -0.030000000000000002, -0.25, -2.0542E-05
DataValue, -0.04, -0.25, -2.2876E-05
DataValue, -0.05, -0.25, -2.536E-05
DataValue, -0.060000000000000005, -0.25, -2.8004E-05
DataValue, -0.07, -0.25, -3.096E-05
DataValue, -0.08, -0.25, -3.4072E-05
DataValue, -0.090000000000000011, -0.25, -3.7368E-05
DataValue, -0.1, -0.25, -4.096E-05
DataValue, -0.11, -0.25, -4.4776E-05
DataValue, -0.12000000000000001, -0.25, -4.875E-05
DataValue, -0.13, -0.25, -5.3054000000000004E-05
DataValue, -0.14, -0.25, -5.7602E-05
DataValue, -0.15, -0.25, -6.2316E-05
DataValue, -0.16, -0.25, -6.7328E-05
DataValue, -0.17, -0.25, -7.2636E-05
DataValue, -0.18000000000000002, -0.25, -7.8076E-05
DataValue, -0.19, -0.25, -8.3738E-05
DataValue, -0.2, -0.25, -8.9758E-05
DataValue, -0.21000000000000002, -0.25, -9.5794E-05
DataValue, -0.22, -0.25, -0.00010213
DataValue, -0.23, -0.25, -0.000108738
DataValue, -0.24000000000000002, -0.25, -0.00011760000000000001
DataValue, -0.25, -0.25, -0.00012408000000000002
DataValue, -0.26, -0.25, -0.00013088000000000002
DataValue, -0.27, -0.25, -0.00013786
DataValue, -0.28, -0.25, -0.00014502000000000002
DataValue, -0.29000000000000004, -0.25, -0.00015218
DataValue, -0.3, -0.25, -0.00015964
DataValue, -0.31, -0.25, -0.00016708
DataValue, -0.32, -0.25, -0.0001745
DataValue, -0.33, -0.25, -0.00018196
DataValue, -0.34, -0.25, -0.00018936000000000002
DataValue, -0.35000000000000003, -0.25, -0.00019710000000000002
DataValue, -0.36000000000000004, -0.25, -0.00020422000000000002
DataValue, -0.37, -0.25, -0.00021142
DataValue, -0.38, -0.25, -0.0002187
DataValue, -0.39, -0.25, -0.0002256
DataValue, -0.4, -0.25, -0.0002324
DataValue, -0.4, -0.25, -0.00023280000000000002
DataValue, -0.39, -0.25, -0.00022730000000000002
DataValue, -0.38, -0.25, -0.00022116
DataValue, -0.37, -0.25, -0.00021468000000000003
DataValue, -0.36000000000000004, -0.25, -0.00020818
DataValue, -0.35000000000000003, -0.25, -0.00020154000000000003
DataValue, -0.34, -0.25, -0.00019468
DataValue, -0.33, -0.25, -0.00018766
DataValue, -0.32, -0.25, -0.00018072000000000002
DataValue, -0.31, -0.25, -0.00017364
DataValue, -0.3, -0.25, -0.00016646
DataValue, -0.29000000000000004, -0.25, -0.00015936000000000002
DataValue, -0.28, -0.25, -0.00015226
DataValue, -0.27, -0.25, -0.00014518000000000002
DataValue, -0.26, -0.25, -0.00013806000000000002
DataValue, -0.25, -0.25, -0.00013116
DataValue, -0.24000000000000002, -0.25, -0.00012432
DataValue, -0.23, -0.25, -0.00011744000000000001
DataValue, -0.22, -0.25, -0.00011088000000000001
DataValue, -0.21000000000000002, -0.25, -0.0001045
DataValue, -0.2, -0.25, -9.7742E-05
DataValue, -0.19, -0.25, -9.1826E-05
DataValue, -0.18000000000000002, -0.25, -8.6026E-05
DataValue, -0.17, -0.25, -8.0334000000000007E-05
DataValue, -0.16, -0.25, -7.4782E-05
DataValue, -0.15, -0.25, -6.9544E-05
DataValue, -0.14, -0.25, -6.4504E-05
DataValue, -0.13, -0.25, -5.9534E-05
DataValue, -0.12000000000000001, -0.25, -5.5010000000000004E-05
DataValue, -0.11, -0.25, -5.0712000000000005E-05
DataValue, -0.1, -0.25, -4.6502E-05
DataValue, -0.090000000000000011, -0.25, -4.2576E-05
DataValue, -0.08, -0.25, -3.8916E-05
DataValue, -0.07, -0.25, -3.5458E-05
DataValue, -0.060000000000000005, -0.25, -3.2176E-05
DataValue, -0.05, -0.25, -2.9138E-05
DataValue, -0.04, -0.25, -2.6352E-05
DataValue, -0.030000000000000002, -0.25, -2.373E-05
DataValue, -0.02, -0.25, -2.1254E-05
DataValue, -0.01, -0.25, -1.903E-05
DataValue, 0, -0.25, -1.7E-05
DataValue, 0.01, -0.25, -1.5026E-05
DataValue, 0.02, -0.25, -1.3246E-05
DataValue, 0.030000000000000002, -0.25, -1.1658000000000001E-05
DataValue, 0.04, -0.25, -1.0284E-05
DataValue, 0.05, -0.25, -8.8995E-06
DataValue, 0.060000000000000005, -0.25, -7.7887E-06
DataValue, 0.07, -0.25, -6.812000000000001E-06
DataValue, 0.08, -0.25, -5.8518000000000005E-06
DataValue, 0.090000000000000011, -0.25, -5.0402000000000005E-06
DataValue, 0.1, -0.25, -4.3545E-06
DataValue, 0.1, -0.25, -3.8519E-06
