
SetupTitle, (c2) Transfer curve in LGP
PrimitiveTest, I/V Sweep
TestParameter, Context.MainFrame, B1500A
TestParameter, Channel.UnitType, SMU, SMU
TestParameter, Channel.Unit, SMU1:HR/AS, SMU2:HR/AS
TestParameter, Channel.IName, Ig, Id
TestParameter, Channel.VName, Vg, Vd
TestParameter, Channel.Mode, V, V
TestParameter, Channel.Func, VAR1, VAR2
TestParameter, Channel.Index, 
TestParameter, Channel.Time, 
TestParameter, Measurement.Port.Unit, SMU1:HR/AS, SMU2:HR/AS
TestParameter, Measurement.Port.SeriesResistor, NONE, NONE
TestParameter, Measurement.Port.Filter, ON, ON
TestParameter, Measurement.Port.OutputVoltageComparison, 0, 0
TestParameter, Measurement.Primary.Locus, Double
TestParameter, Measurement.Primary.Scale, LINEAR
TestParameter, Measurement.Primary.Start, 0.1
TestParameter, Measurement.Primary.Stop, -0.4
TestParameter, Measurement.Primary.Step, -0.01
TestParameter, Measurement.Primary.Compliance, 0.1
TestParameter, Measurement.Primary.PowerCompliance, 1
TestParameter, Measurement.Aborting.Condition, SKIP AT ANY ABNORMAL
TestParameter, Measurement.PostOutput.Value, START
TestParameter, Measurement.PostOutput.Retention, OFF
TestParameter, Measurement.Secondary.Start, -0.25
TestParameter, Measurement.Secondary.Count, 5
TestParameter, Measurement.Secondary.Step, 0
TestParameter, Measurement.Secondary.Compliance, 0.1
TestParameter, Measurement.Secondary.PowerCompliance, 1
TestParameter, Measurement.Bias.Source, 0.1, -0.25
TestParameter, Measurement.Bias.Compliance, 0.1, 0.1
TestParameter, Measurement.Monitor.Unit, SMU1:HR/AS, SMU2:HR/AS
TestParameter, Measurement.Monitor.Adc, HR ADC, HR ADC
TestParameter, Measurement.Monitor.Measurement, Compliance Side, Compliance Side
TestParameter, Measurement.Monitor.RangingMode, LIMITED, LIMITED
TestParameter, Measurement.Monitor.RangeBoundary, 1nA, 1nA
TestParameter, Measurement.Monitor.RangeRating, BY FULL RANGE, BY FULL RANGE
TestParameter, Measurement.Monitor.RangeRatingCoeff, 50, 50
TestParameter, Measurement.Timing.Hold, 0
TestParameter, Measurement.Timing.Delay, 0
TestParameter, Measurement.Adc.HighSpeed.Mode, AUTO
TestParameter, Measurement.Adc.HighSpeed.Coeff, 1
TestParameter, Measurement.Adc.HighResolution.AutoZero, OFF
TestParameter, Measurement.Adc.HighResolution.Mode, AUTO
TestParameter, Measurement.Adc.HighResolution.Coeff, 6
TestParameter, Measurement.WaitTime.Source.Coeff, 1
TestParameter, Measurement.WaitTime.Source.Offset, 0
TestParameter, Measurement.WaitTime.Monitor.Coeff, 1
TestParameter, Measurement.WaitTime.Monitor.Offset, 0
TestParameter, Output.Graph.Enabled, true
TestParameter, Output.Graph.AutoScaling, false
TestParameter, Output.Graph.XAxis.Data, Vg
TestParameter, Output.Graph.XAxis.Scale, Linear
TestParameter, Output.Graph.XAxis.Left, 0.60000000000000009
TestParameter, Output.Graph.XAxis.Right, -0.60000000000000009
TestParameter, Output.Graph.XAxis.RunTimeAutoScale, true
TestParameter, Output.Graph.YAxis.Data, Id
TestParameter, Output.Graph.YAxis.Scale, Linear
TestParameter, Output.Graph.YAxis.Bottom, -0.1
TestParameter, Output.Graph.YAxis.Top, 0.1
TestParameter, Output.Graph.YAxis.Group, 
TestParameter, Output.Graph.YAxis.RunTimeAutoScale, true
TestParameter, Output.List.Data, Vd, Vg, Id
TestParameter, AutoAnalysis.Interpolation, false
TestParameter, AutoAnalysis.Var2StepCount, 1
TestParameter, AutoAnalysis.Var2StepScript, 
TestParameter, AutoAnalysis.Line1.Enabled, false
TestParameter, AutoAnalysis.Line1.Type, 1
TestParameter, AutoAnalysis.Line1.Fix, True
TestParameter, AutoAnalysis.Line1.YAxis, 0
TestParameter, AutoAnalysis.Line1.Point1.Type, 0
TestParameter, AutoAnalysis.Line1.Point1.XY.X, 
TestParameter, AutoAnalysis.Line1.Point1.XY.Y, 
TestParameter, AutoAnalysis.Line1.Point1.Data.Var, 
TestParameter, AutoAnalysis.Line1.Point1.Data.Condition, 
TestParameter, AutoAnalysis.Line1.Point1.Data.Start, false
TestParameter, AutoAnalysis.Line1.Point1.Data.StartVar, 
TestParameter, AutoAnalysis.Line1.Point1.Data.StartCondition, 
TestParameter, AutoAnalysis.Line1.Point2.Type, 0
TestParameter, AutoAnalysis.Line1.Point2.XY.X, 
TestParameter, AutoAnalysis.Line1.Point2.XY.Y, 
TestParameter, AutoAnalysis.Line1.Point2.Data.Var, 
TestParameter, AutoAnalysis.Line1.Point2.Data.Condition, 
TestParameter, AutoAnalysis.Line1.Point2.Data.Start, false
TestParameter, AutoAnalysis.Line1.Point2.Data.StartVar, 
TestParameter, AutoAnalysis.Line1.Point2.Data.StartCondition, 
TestParameter, AutoAnalysis.Line1.GradientExpr, 0
TestParameter, AutoAnalysis.Line2.Enabled, false
TestParameter, AutoAnalysis.Line2.Type, 1
TestParameter, AutoAnalysis.Line2.Fix, True
TestParameter, AutoAnalysis.Line2.YAxis, 0
TestParameter, AutoAnalysis.Line2.Point1.Type, 0
TestParameter, AutoAnalysis.Line2.Point1.XY.X, 
TestParameter, AutoAnalysis.Line2.Point1.XY.Y, 
TestParameter, AutoAnalysis.Line2.Point1.Data.Var, 
TestParameter, AutoAnalysis.Line2.Point1.Data.Condition, 
TestParameter, AutoAnalysis.Line2.Point1.Data.Start, false
TestParameter, AutoAnalysis.Line2.Point1.Data.StartVar, 
TestParameter, AutoAnalysis.Line2.Point1.Data.StartCondition, 
TestParameter, AutoAnalysis.Line2.Point2.Type, 0
TestParameter, AutoAnalysis.Line2.Point2.XY.X, 
TestParameter, AutoAnalysis.Line2.Point2.XY.Y, 
TestParameter, AutoAnalysis.Line2.Point2.Data.Var, 
TestParameter, AutoAnalysis.Line2.Point2.Data.Condition, 
TestParameter, AutoAnalysis.Line2.Point2.Data.Start, false
TestParameter, AutoAnalysis.Line2.Point2.Data.StartVar, 
TestParameter, AutoAnalysis.Line2.Point2.Data.StartCondition, 
TestParameter, AutoAnalysis.Line2.GradientExpr, 0
TestParameter, AutoAnalysis.Marker.Enabled, false
TestParameter, AutoAnalysis.Marker.Data.Var, 
TestParameter, AutoAnalysis.Marker.Data.Condition, 
TestParameter, AutoAnalysis.Marker.Data.Start, false
TestParameter, AutoAnalysis.Marker.Data.StartVar, 
TestParameter, AutoAnalysis.Marker.Data.StartCondition, 
MetaData, TestRecord.EntryPoint, true
MetaData, TestRecord.RecordTime, 12/22/2024 04:46:57
MetaData, TestRecord.TestTarget, 
MetaData, TestRecord.IterationIndex, 1
MetaData, TestRecord.Preservation, true
MetaData, TestRecord.Flag, 
MetaData, TestRecord.Remarks, s21c5
MetaData, TestRecord.LinkKey, 58085c0e-0857-488d-8bbc-62d38d6b804b
MetaData, TestRecord.Parameters, 
Dimension1, 102, 102, 102
Dimension2, 5, 5, 5
DataName, Vg, Vd, Id
DataValue, 0.1, -0.25, -0.00013366000000000002
DataValue, 0.090000000000000011, -0.25, -0.00015132
DataValue, 0.08, -0.25, -0.00017182000000000002
DataValue, 0.07, -0.25, -0.00019482
DataValue, 0.060000000000000005, -0.25, -0.00022038
DataValue, 0.05, -0.25, -0.00024808
DataValue, 0.04, -0.25, -0.00027796
DataValue, 0.030000000000000002, -0.25, -0.00031036000000000003
DataValue, 0.02, -0.25, -0.00034530000000000004
DataValue, 0.01, -0.25, -0.0003823
DataValue, 0, -0.25, -0.00042186000000000003
DataValue, -0.01, -0.25, -0.00046464000000000005
DataValue, -0.02, -0.25, -0.0005088
DataValue, -0.030000000000000002, -0.25, -0.00055592
DataValue, -0.04, -0.25, -0.00060526
DataValue, -0.05, -0.25, -0.00065662
DataValue, -0.060000000000000005, -0.25, -0.00071064
DataValue, -0.07, -0.25, -0.00076658
DataValue, -0.08, -0.25, -0.00082482000000000009
DataValue, -0.090000000000000011, -0.25, -0.0008851000000000001
DataValue, -0.1, -0.25, -0.000947
DataValue, -0.11, -0.25, -0.00101362
DataValue, -0.12000000000000001, -0.25, -0.0010776000000000002
DataValue, -0.13, -0.25, -0.00114426
DataValue, -0.14, -0.25, -0.0012296
DataValue, -0.15, -0.25, -0.0012956
DataValue, -0.16, -0.25, -0.0013652
DataValue, -0.17, -0.25, -0.0014372
DataValue, -0.18000000000000002, -0.25, -0.0015112
DataValue, -0.19, -0.25, -0.0015842
DataValue, -0.2, -0.25, -0.0016592
DataValue, -0.21000000000000002, -0.25, -0.0017344
DataValue, -0.22, -0.25, -0.0018104
DataValue, -0.23, -0.25, -0.001887
DataValue, -0.24000000000000002, -0.25, -0.001963
DataValue, -0.25, -0.25, -0.0020386000000000002
DataValue, -0.26, -0.25, -0.0021138
DataValue, -0.27, -0.25, -0.0021886
DataValue, -0.28, -0.25, -0.0022632
DataValue, -0.29000000000000004, -0.25, -0.002336
DataValue, -0.3, -0.25, -0.0024094
DataValue, -0.31, -0.25, -0.002481
DataValue, -0.32, -0.25, -0.0025492
DataValue, -0.33, -0.25, -0.0026194
DataValue, -0.34, -0.25, -0.002684
DataValue, -0.35000000000000003, -0.25, -0.002747
DataValue, -0.36000000000000004, -0.25, -0.002809
DataValue, -0.37, -0.25, -0.0028682
DataValue, -0.38, -0.25, -0.002924
DataValue, -0.39, -0.25, -0.00298
DataValue, -0.4, -0.25, -0.0030308
DataValue, -0.4, -0.25, -0.0030346
DataValue, -0.39, -0.25, -0.0029928
DataValue, -0.38, -0.25, -0.0029460000000000003
DataValue, -0.37, -0.25, -0.0028958
DataValue, -0.36000000000000004, -0.25, -0.0028438
DataValue, -0.35000000000000003, -0.25, -0.0027876
DataValue, -0.34, -0.25, -0.0027298
DataValue, -0.33, -0.25, -0.0026696000000000003
DataValue, -0.32, -0.25, -0.0026060000000000002
DataValue, -0.31, -0.25, -0.0025408
DataValue, -0.3, -0.25, -0.0024744
DataValue, -0.29000000000000004, -0.25, -0.002405
DataValue, -0.28, -0.25, -0.0023344
DataValue, -0.27, -0.25, -0.0022630000000000003
DataValue, -0.26, -0.25, -0.0021898
DataValue, -0.25, -0.25, -0.0021154
DataValue, -0.24000000000000002, -0.25, -0.002041
DataValue, -0.23, -0.25, -0.0019656
DataValue, -0.22, -0.25, -0.0018878
DataValue, -0.21000000000000002, -0.25, -0.0018136
DataValue, -0.2, -0.25, -0.001738
DataValue, -0.19, -0.25, -0.0016616
DataValue, -0.18000000000000002, -0.25, -0.0015866
DataValue, -0.17, -0.25, -0.0015118
DataValue, -0.16, -0.25, -0.0014368
DataValue, -0.15, -0.25, -0.0013638
DataValue, -0.14, -0.25, -0.0012912
DataValue, -0.13, -0.25, -0.0012198
DataValue, -0.12000000000000001, -0.25, -0.0011478
DataValue, -0.11, -0.25, -0.0010818
DataValue, -0.1, -0.25, -0.0010154
DataValue, -0.090000000000000011, -0.25, -0.00094458000000000009
DataValue, -0.08, -0.25, -0.00088418
DataValue, -0.07, -0.25, -0.00082300000000000006
DataValue, -0.060000000000000005, -0.25, -0.00076444
DataValue, -0.05, -0.25, -0.00070724
DataValue, -0.04, -0.25, -0.00065170000000000007
DataValue, -0.030000000000000002, -0.25, -0.00059936000000000006
DataValue, -0.02, -0.25, -0.00054766
DataValue, -0.01, -0.25, -0.00050072000000000007
DataValue, 0, -0.25, -0.00045504000000000003
DataValue, 0.01, -0.25, -0.00041084000000000004
DataValue, 0.02, -0.25, -0.00037112
DataValue, 0.030000000000000002, -0.25, -0.0003328
DataValue, 0.04, -0.25, -0.00029656
DataValue, 0.05, -0.25, -0.00026344000000000004
DataValue, 0.060000000000000005, -0.25, -0.00023242000000000003
DataValue, 0.07, -0.25, -0.00020354000000000002
DataValue, 0.08, -0.25, -0.00017756
DataValue, 0.090000000000000011, -0.25, -0.0001528
DataValue, 0.1, -0.25, -0.0001318
DataValue, 0.1, -0.25, -0.00011718000000000001
DataValue, 0.090000000000000011, -0.25, -0.0001342
DataValue, 0.08, -0.25, -0.00015404
DataValue, 0.07, -0.25, -0.00017582
DataValue, 0.060000000000000005, -0.25, -0.0001999
DataValue, 0.05, -0.25, -0.00022626000000000002
DataValue, 0.04, -0.25, -0.00025468
DataValue, 0.030000000000000002, -0.25, -0.0002856
DataValue, 0.02, -0.25, -0.00031878
DataValue, 0.01, -0.25, -0.00035426
DataValue, 0, -0.25, -0.00039228
DataValue, -0.01, -0.25, -0.00043336000000000004
DataValue, -0.02, -0.25, -0.0004779
DataValue, -0.030000000000000002, -0.25, -0.00052174
DataValue, -0.04, -0.25, -0.00056966
DataValue, -0.05, -0.25, -0.00062236000000000008
DataValue, -0.060000000000000005, -0.25, -0.00067408000000000008
DataValue, -0.07, -0.25, -0.00072956000000000008
DataValue, -0.08, -0.25, -0.0007872
DataValue, -0.090000000000000011, -0.25, -0.0008471
DataValue, -0.1, -0.25, -0.00090936
DataValue, -0.11, -0.25, -0.00097390000000000009
DataValue, -0.12000000000000001, -0.25, -0.00103968
DataValue, -0.13, -0.25, -0.0011074400000000001
DataValue, -0.14, -0.25, -0.0011956
DataValue, -0.15, -0.25, -0.0012618
DataValue, -0.16, -0.25, -0.0013326
DataValue, -0.17, -0.25, -0.0014048
DataValue, -0.18000000000000002, -0.25, -0.0014784
DataValue, -0.19, -0.25, -0.0015536
DataValue, -0.2, -0.25, -0.0016292000000000001
DataValue, -0.21000000000000002, -0.25, -0.0017052
DataValue, -0.22, -0.25, -0.0017822
DataValue, -0.23, -0.25, -0.0018608000000000001
DataValue, -0.24000000000000002, -0.25, -0.0019376
DataValue, -0.25, -0.25, -0.0020136
DataValue, -0.26, -0.25, -0.0020918
DataValue, -0.27, -0.25, -0.0021674
DataValue, -0.28, -0.25, -0.0022442
DataValue, -0.29000000000000004, -0.25, -0.0023172
DataValue, -0.3, -0.25, -0.0023904
DataValue, -0.31, -0.25, -0.0024626
DataValue, -0.32, -0.25, -0.0025318
DataValue, -0.33, -0.25, -0.0026008
DataValue, -0.34, -0.25, -0.0026688000000000003
DataValue, -0.35000000000000003, -0.25, -0.0027312
DataValue, -0.36000000000000004, -0.25, -0.002793
DataValue, -0.37, -0.25, -0.002854
DataValue, -0.38, -0.25, -0.0029102
DataValue, -0.39, -0.25, -0.0029644
DataValue, -0.4, -0.25, -0.0030164000000000002
DataValue, -0.4, -0.25, -0.0030196
DataValue, -0.39, -0.25, -0.0029776
DataValue, -0.38, -0.25, -0.0029314000000000002
DataValue, -0.37, -0.25, -0.0028822
DataValue, -0.36000000000000004, -0.25, -0.002829
DataValue, -0.35000000000000003, -0.25, -0.0027732
DataValue, -0.34, -0.25, -0.0027158
DataValue, -0.33, -0.25, -0.0026536
DataValue, -0.32, -0.25, -0.0025916
DataValue, -0.31, -0.25, -0.0025262
DataValue, -0.3, -0.25, -0.002458
DataValue, -0.29000000000000004, -0.25, -0.0023888
DataValue, -0.28, -0.25, -0.0023186
DataValue, -0.27, -0.25, -0.0022474
DataValue, -0.26, -0.25, -0.0021734000000000002
DataValue, -0.25, -0.25, -0.002099
DataValue, -0.24000000000000002, -0.25, -0.0020246
DataValue, -0.23, -0.25, -0.0019482
DataValue, -0.22, -0.25, -0.001872
DataValue, -0.21000000000000002, -0.25, -0.0017962
DataValue, -0.2, -0.25, -0.00172
DataValue, -0.19, -0.25, -0.0016434
DataValue, -0.18000000000000002, -0.25, -0.0015676
DataValue, -0.17, -0.25, -0.0014926
DataValue, -0.16, -0.25, -0.0014174
DataValue, -0.15, -0.25, -0.0013436000000000001
DataValue, -0.14, -0.25, -0.0012712
DataValue, -0.13, -0.25, -0.0012000000000000001
DataValue, -0.12000000000000001, -0.25, -0.0011298
DataValue, -0.11, -0.25, -0.0010614
DataValue, -0.1, -0.25, -0.00098844000000000015
DataValue, -0.090000000000000011, -0.25, -0.0009265600000000001
DataValue, -0.08, -0.25, -0.00086418000000000009
DataValue, -0.07, -0.25, -0.00080314
DataValue, -0.060000000000000005, -0.25, -0.00074462000000000009
DataValue, -0.05, -0.25, -0.000688
DataValue, -0.04, -0.25, -0.00063378
DataValue, -0.030000000000000002, -0.25, -0.00058136000000000006
DataValue, -0.02, -0.25, -0.00053186
DataValue, -0.01, -0.25, -0.0004842
DataValue, 0, -0.25, -0.00043938
DataValue, 0.01, -0.25, -0.00039704000000000003
DataValue, 0.02, -0.25, -0.0003572
DataValue, 0.030000000000000002, -0.25, -0.0003199
DataValue, 0.04, -0.25, -0.00028554000000000003
DataValue, 0.05, -0.25, -0.00025314
DataValue, 0.060000000000000005, -0.25, -0.00022324
DataValue, 0.07, -0.25, -0.00019598
DataValue, 0.08, -0.25, -0.0001707
DataValue, 0.090000000000000011, -0.25, -0.00014762
DataValue, 0.1, -0.25, -0.00012686000000000002
DataValue, 0.1, -0.25, -0.00011236
DataValue, 0.090000000000000011, -0.25, -0.00012848000000000002
DataValue, 0.08, -0.25, -0.00014748000000000002
DataValue, 0.07, -0.25, -0.00016874000000000001
DataValue, 0.060000000000000005, -0.25, -0.00019172000000000001
DataValue, 0.05, -0.25, -0.00021704000000000002
DataValue, 0.04, -0.25, -0.00024478
DataValue, 0.030000000000000002, -0.25, -0.00027448
DataValue, 0.02, -0.25, -0.00030676
DataValue, 0.01, -0.25, -0.00034164000000000004
DataValue, 0, -0.25, -0.00037840000000000004
DataValue, -0.01, -0.25, -0.00041776000000000004
DataValue, -0.02, -0.25, -0.00045996000000000003
DataValue, -0.030000000000000002, -0.25, -0.00050478
DataValue, -0.04, -0.25, -0.00055180000000000008
DataValue, -0.05, -0.25, -0.0006016
DataValue, -0.060000000000000005, -0.25, -0.0006535
DataValue, -0.07, -0.25, -0.00070842000000000008
DataValue, -0.08, -0.25, -0.0007648
DataValue, -0.090000000000000011, -0.25, -0.00082440000000000009
DataValue, -0.1, -0.25, -0.00088618000000000008
DataValue, -0.11, -0.25, -0.00094902000000000007
DataValue, -0.12000000000000001, -0.25, -0.0010167800000000001
DataValue, -0.13, -0.25, -0.0010825000000000001
DataValue, -0.14, -0.25, -0.0011501
DataValue, -0.15, -0.25, -0.0012406000000000001
DataValue, -0.16, -0.25, -0.0013084
DataValue, -0.17, -0.25, -0.0013796
DataValue, -0.18000000000000002, -0.25, -0.0014538
DataValue, -0.19, -0.25, -0.001529
DataValue, -0.2, -0.25, -0.0016042
DataValue, -0.21000000000000002, -0.25, -0.0016834
DataValue, -0.22, -0.25, -0.001759
DataValue, -0.23, -0.25, -0.0018358
DataValue, -0.24000000000000002, -0.25, -0.0019148000000000001
DataValue, -0.25, -0.25, -0.0019914
DataValue, -0.26, -0.25, -0.002072
DataValue, -0.27, -0.25, -0.002148
DataValue, -0.28, -0.25, -0.0022244
DataValue, -0.29000000000000004, -0.25, -0.0022994
DataValue, -0.3, -0.25, -0.0023732000000000002
DataValue, -0.31, -0.25, -0.0024462
DataValue, -0.32, -0.25, -0.0025176
DataValue, -0.33, -0.25, -0.0025854
DataValue, -0.34, -0.25, -0.0026522
DataValue, -0.35000000000000003, -0.25, -0.0027172
DataValue, -0.36000000000000004, -0.25, -0.0027794
DataValue, -0.37, -0.25, -0.00284
DataValue, -0.38, -0.25, -0.0028976
DataValue, -0.39, -0.25, -0.0029522
DataValue, -0.4, -0.25, -0.003004
DataValue, -0.4, -0.25, -0.0030072000000000002
DataValue, -0.39, -0.25, -0.002966
DataValue, -0.38, -0.25, -0.00292
DataValue, -0.37, -0.25, -0.0028698
DataValue, -0.36000000000000004, -0.25, -0.0028166000000000003
DataValue, -0.35000000000000003, -0.25, -0.0027624
DataValue, -0.34, -0.25, -0.0027036
DataValue, -0.33, -0.25, -0.0026432
DataValue, -0.32, -0.25, -0.0025804
DataValue, -0.31, -0.25, -0.0025146
DataValue, -0.3, -0.25, -0.0024474
DataValue, -0.29000000000000004, -0.25, -0.0023788
DataValue, -0.28, -0.25, -0.0023064
DataValue, -0.27, -0.25, -0.0022342
DataValue, -0.26, -0.25, -0.0021618
DataValue, -0.25, -0.25, -0.0020874
DataValue, -0.24000000000000002, -0.25, -0.0020122
DataValue, -0.23, -0.25, -0.0019362000000000001
DataValue, -0.22, -0.25, -0.0018604000000000001
DataValue, -0.21000000000000002, -0.25, -0.0017838
DataValue, -0.2, -0.25, -0.001707
DataValue, -0.19, -0.25, -0.0016308
DataValue, -0.18000000000000002, -0.25, -0.001555
DataValue, -0.17, -0.25, -0.001477
DataValue, -0.16, -0.25, -0.0014036
DataValue, -0.15, -0.25, -0.0013302000000000001
DataValue, -0.14, -0.25, -0.001257
DataValue, -0.13, -0.25, -0.0011858
DataValue, -0.12000000000000001, -0.25, -0.0011158000000000001
DataValue, -0.11, -0.25, -0.0010474
DataValue, -0.1, -0.25, -0.00097336
DataValue, -0.090000000000000011, -0.25, -0.000912
DataValue, -0.08, -0.25, -0.00085002
DataValue, -0.07, -0.25, -0.00078956
DataValue, -0.060000000000000005, -0.25, -0.00073148000000000006
DataValue, -0.05, -0.25, -0.0006753
DataValue, -0.04, -0.25, -0.0006208
DataValue, -0.030000000000000002, -0.25, -0.0005695
DataValue, -0.02, -0.25, -0.00052064000000000006
DataValue, -0.01, -0.25, -0.00047434
DataValue, 0, -0.25, -0.00042962
DataValue, 0.01, -0.25, -0.00038832000000000005
DataValue, 0.02, -0.25, -0.00034928000000000004
DataValue, 0.030000000000000002, -0.25, -0.00031146
DataValue, 0.04, -0.25, -0.00027866
DataValue, 0.05, -0.25, -0.0002475
DataValue, 0.060000000000000005, -0.25, -0.00021796
DataValue, 0.07, -0.25, -0.00019136
DataValue, 0.08, -0.25, -0.00016684000000000002
DataValue, 0.090000000000000011, -0.25, -0.00014342
DataValue, 0.1, -0.25, -0.00012368
DataValue, 0.1, -0.25, -0.00011654
DataValue, 0.090000000000000011, -0.25, -0.00013326
DataValue, 0.08, -0.25, -0.00015252
DataValue, 0.07, -0.25, -0.0001742
DataValue, 0.060000000000000005, -0.25, -0.00019798000000000003
DataValue, 0.05, -0.25, -0.00022374000000000002
DataValue, 0.04, -0.25, -0.00025194000000000003
DataValue, 0.030000000000000002, -0.25, -0.00028246
DataValue, 0.02, -0.25, -0.00031538000000000003
DataValue, 0.01, -0.25, -0.0003503
DataValue, 0, -0.25, -0.00038806
DataValue, -0.01, -0.25, -0.00042946000000000005
DataValue, -0.02, -0.25, -0.00047124000000000005
