
SetupTitle, I/V Sweep
PrimitiveTest, I/V Sweep
TestParameter, Context.MainFrame, B1500A
TestParameter, Channel.UnitType, SMU, SMU
TestParameter, Channel.Unit, SMU1:HR/AS, SMU2:HR/AS
TestParameter, Channel.IName, Ig, Id
TestParameter, Channel.VName, Vg, Vd
TestParameter, Channel.Mode, V, V
TestParameter, Channel.Func, VAR2, VAR1
TestParameter, Channel.Index, 
TestParameter, Channel.Time, 
TestParameter, Measurement.Port.Unit, SMU1:HR/AS, SMU2:HR/AS
TestParameter, Measurement.Port.SeriesResistor, NONE, NONE
TestParameter, Measurement.Port.Filter, ON, ON
TestParameter, Measurement.Port.OutputVoltageComparison, 0, 0
TestParameter, Measurement.Primary.Locus, Double
TestParameter, Measurement.Primary.Scale, LINEAR
TestParameter, Measurement.Primary.Start, 0
TestParameter, Measurement.Primary.Stop, -0.6
TestParameter, Measurement.Primary.Step, -0.012
TestParameter, Measurement.Primary.Compliance, 0.1
TestParameter, Measurement.Primary.PowerCompliance, 0
TestParameter, Measurement.Aborting.Condition, CONTINUE AT ANY
TestParameter, Measurement.PostOutput.Value, START
TestParameter, Measurement.PostOutput.Retention, OFF
TestParameter, Measurement.Secondary.Start, 0
TestParameter, Measurement.Secondary.Count, 12
TestParameter, Measurement.Secondary.Step, -0.05
TestParameter, Measurement.Secondary.Compliance, 9.9000000000000008E-05
TestParameter, Measurement.Secondary.PowerCompliance, 0
TestParameter, Measurement.Bias.Source, 0, 0
TestParameter, Measurement.Bias.Compliance, 9.9000000000000008E-05, 0.1
TestParameter, Measurement.Monitor.Unit, SMU1:HR/AS, SMU2:HR/AS
TestParameter, Measurement.Monitor.Adc, HR ADC, HR ADC
TestParameter, Measurement.Monitor.Measurement, Compliance Side, Compliance Side
TestParameter, Measurement.Monitor.RangingMode, LIMITED, LIMITED
TestParameter, Measurement.Monitor.RangeBoundary, 1nA, 1nA
TestParameter, Measurement.Monitor.RangeRating, BY FULL RANGE, BY FULL RANGE
TestParameter, Measurement.Monitor.RangeRatingCoeff, 50, 50
TestParameter, Measurement.Timing.Hold, 0
TestParameter, Measurement.Timing.Delay, 0.1
TestParameter, Measurement.Adc.HighSpeed.Mode, AUTO
TestParameter, Measurement.Adc.HighSpeed.Coeff, 1
TestParameter, Measurement.Adc.HighResolution.AutoZero, OFF
TestParameter, Measurement.Adc.HighResolution.Mode, AUTO
TestParameter, Measurement.Adc.HighResolution.Coeff, 6
TestParameter, Measurement.WaitTime.Source.Coeff, 1
TestParameter, Measurement.WaitTime.Source.Offset, 0
TestParameter, Measurement.WaitTime.Monitor.Coeff, 1
TestParameter, Measurement.WaitTime.Monitor.Offset, 0
TestParameter, Output.Graph.Enabled, true
TestParameter, Output.Graph.AutoScaling, false
TestParameter, Output.Graph.XAxis.Data, Vd
TestParameter, Output.Graph.XAxis.Scale, Linear
TestParameter, Output.Graph.XAxis.Left, 0
TestParameter, Output.Graph.XAxis.Right, -0.5
TestParameter, Output.Graph.XAxis.RunTimeAutoScale, true
TestParameter, Output.Graph.YAxis.Data, Id
TestParameter, Output.Graph.YAxis.Scale, Linear
TestParameter, Output.Graph.YAxis.Bottom, -0.1
TestParameter, Output.Graph.YAxis.Top, 0.1
TestParameter, Output.Graph.YAxis.Group, 
TestParameter, Output.Graph.YAxis.RunTimeAutoScale, true
TestParameter, Output.List.Data, Vd, Vg, Id
TestParameter, AutoAnalysis.Interpolation, false
TestParameter, AutoAnalysis.Var2StepCount, 1
TestParameter, AutoAnalysis.Var2StepScript, 
TestParameter, AutoAnalysis.Line1.Enabled, false
TestParameter, AutoAnalysis.Line1.Type, 1
TestParameter, AutoAnalysis.Line1.Fix, True
TestParameter, AutoAnalysis.Line1.YAxis, 0
TestParameter, AutoAnalysis.Line1.Point1.Type, 0
TestParameter, AutoAnalysis.Line1.Point1.XY.X, 
TestParameter, AutoAnalysis.Line1.Point1.XY.Y, 
TestParameter, AutoAnalysis.Line1.Point1.Data.Var, 
TestParameter, AutoAnalysis.Line1.Point1.Data.Condition, 
TestParameter, AutoAnalysis.Line1.Point1.Data.Start, false
TestParameter, AutoAnalysis.Line1.Point1.Data.StartVar, 
TestParameter, AutoAnalysis.Line1.Point1.Data.StartCondition, 
TestParameter, AutoAnalysis.Line1.Point2.Type, 0
TestParameter, AutoAnalysis.Line1.Point2.XY.X, 
TestParameter, AutoAnalysis.Line1.Point2.XY.Y, 
TestParameter, AutoAnalysis.Line1.Point2.Data.Var, 
TestParameter, AutoAnalysis.Line1.Point2.Data.Condition, 
TestParameter, AutoAnalysis.Line1.Point2.Data.Start, false
TestParameter, AutoAnalysis.Line1.Point2.Data.StartVar, 
TestParameter, AutoAnalysis.Line1.Point2.Data.StartCondition, 
TestParameter, AutoAnalysis.Line1.GradientExpr, 0
TestParameter, AutoAnalysis.Line2.Enabled, false
TestParameter, AutoAnalysis.Line2.Type, 1
TestParameter, AutoAnalysis.Line2.Fix, True
TestParameter, AutoAnalysis.Line2.YAxis, 0
TestParameter, AutoAnalysis.Line2.Point1.Type, 0
TestParameter, AutoAnalysis.Line2.Point1.XY.X, 
TestParameter, AutoAnalysis.Line2.Point1.XY.Y, 
TestParameter, AutoAnalysis.Line2.Point1.Data.Var, 
TestParameter, AutoAnalysis.Line2.Point1.Data.Condition, 
TestParameter, AutoAnalysis.Line2.Point1.Data.Start, false
TestParameter, AutoAnalysis.Line2.Point1.Data.StartVar, 
TestParameter, AutoAnalysis.Line2.Point1.Data.StartCondition, 
TestParameter, AutoAnalysis.Line2.Point2.Type, 0
TestParameter, AutoAnalysis.Line2.Point2.XY.X, 
TestParameter, AutoAnalysis.Line2.Point2.XY.Y, 
TestParameter, AutoAnalysis.Line2.Point2.Data.Var, 
TestParameter, AutoAnalysis.Line2.Point2.Data.Condition, 
TestParameter, AutoAnalysis.Line2.Point2.Data.Start, false
TestParameter, AutoAnalysis.Line2.Point2.Data.StartVar, 
TestParameter, AutoAnalysis.Line2.Point2.Data.StartCondition, 
TestParameter, AutoAnalysis.Line2.GradientExpr, 0
TestParameter, AutoAnalysis.Marker.Enabled, false
TestParameter, AutoAnalysis.Marker.Data.Var, 
TestParameter, AutoAnalysis.Marker.Data.Condition, 
TestParameter, AutoAnalysis.Marker.Data.Start, false
TestParameter, AutoAnalysis.Marker.Data.StartVar, 
TestParameter, AutoAnalysis.Marker.Data.StartCondition, 
MetaData, TestRecord.EntryPoint, true
MetaData, TestRecord.RecordTime, 07/24/2024 02:30:17
MetaData, TestRecord.TestTarget, 
MetaData, TestRecord.IterationIndex, 18
MetaData, TestRecord.Preservation, true
MetaData, TestRecord.Flag, 
MetaData, TestRecord.Remarks, 1 lgp output s11c1
MetaData, TestRecord.LinkKey, 8ae9ff8e-a3ea-47f7-8427-c0f350324863
MetaData, TestRecord.Parameters, 
Dimension1, 102, 102, 102
Dimension2, 12, 12, 12
DataName, Vd, Vg, Id
DataValue, 0, 0, 6.115E-07
DataValue, -0.012, 0, -1.923E-05
DataValue, -0.024, 0, -3.7164E-05
DataValue, -0.036000000000000004, 0, -5.3742E-05
DataValue, -0.048, 0, -6.931E-05
DataValue, -0.060000000000000005, 0, -8.3694E-05
DataValue, -0.072000000000000008, 0, -9.6972E-05
DataValue, -0.084, 0, -0.000108996
DataValue, -0.096, 0, -0.00011974
DataValue, -0.108, 0, -0.00012968000000000002
DataValue, -0.12000000000000001, 0, -0.00013858000000000002
DataValue, -0.132, 0, -0.0001463
DataValue, -0.14400000000000002, 0, -0.00015318000000000002
DataValue, -0.156, 0, -0.00015916000000000001
DataValue, -0.168, 0, -0.00016426
DataValue, -0.18000000000000002, 0, -0.00016866
DataValue, -0.192, 0, -0.00017240000000000002
DataValue, -0.20400000000000002, 0, -0.00017528000000000002
DataValue, -0.216, 0, -0.00017754
DataValue, -0.228, 0, -0.00017940000000000002
DataValue, -0.24000000000000002, 0, -0.00018074
DataValue, -0.252, 0, -0.00018164
DataValue, -0.264, 0, -0.00018232
DataValue, -0.276, 0, -0.00018278
DataValue, -0.28800000000000003, 0, -0.00018288
DataValue, -0.3, 0, -0.00018294
DataValue, -0.312, 0, -0.00018302000000000002
DataValue, -0.324, 0, -0.0001832
DataValue, -0.336, 0, -0.0001831
DataValue, -0.34800000000000003, 0, -0.00018302000000000002
DataValue, -0.36000000000000004, 0, -0.00018336
DataValue, -0.372, 0, -0.0001833
DataValue, -0.384, 0, -0.0001832
DataValue, -0.396, 0, -0.00018326
DataValue, -0.40800000000000003, 0, -0.00018332
DataValue, -0.42000000000000004, 0, -0.0001833
DataValue, -0.432, 0, -0.00018332
DataValue, -0.444, 0, -0.0001834
DataValue, -0.456, 0, -0.00018316
DataValue, -0.468, 0, -0.00018304
DataValue, -0.48000000000000004, 0, -0.000183
DataValue, -0.49200000000000005, 0, -0.00018298
DataValue, -0.504, 0, -0.00018264
DataValue, -0.516, 0, -0.00018258
DataValue, -0.528, 0, -0.00018264
DataValue, -0.54, 0, -0.00018240000000000002
DataValue, -0.552, 0, -0.00018234000000000002
DataValue, -0.56400000000000006, 0, -0.0001822
DataValue, -0.57600000000000007, 0, -0.00018224000000000002
DataValue, -0.58800000000000008, 0, -0.00018194
DataValue, -0.6, 0, -0.00018182000000000002
DataValue, -0.6, 0, -0.00018172000000000002
DataValue, -0.58800000000000008, 0, -0.00018166000000000002
DataValue, -0.57600000000000007, 0, -0.00018166000000000002
DataValue, -0.56400000000000006, 0, -0.00018128
DataValue, -0.552, 0, -0.00018126
DataValue, -0.54, 0, -0.00018106
DataValue, -0.528, 0, -0.00018102
DataValue, -0.516, 0, -0.00018092000000000002
DataValue, -0.504, 0, -0.00018076000000000002
DataValue, -0.49200000000000005, 0, -0.00018064
DataValue, -0.48000000000000004, 0, -0.00018028
DataValue, -0.468, 0, -0.00018006
DataValue, -0.456, 0, -0.00017986
DataValue, -0.444, 0, -0.00017956000000000002
DataValue, -0.432, 0, -0.0001795
DataValue, -0.42000000000000004, 0, -0.00017922
DataValue, -0.40800000000000003, 0, -0.00017900000000000001
DataValue, -0.396, 0, -0.0001787
DataValue, -0.384, 0, -0.00017854
DataValue, -0.372, 0, -0.00017820000000000002
DataValue, -0.36000000000000004, 0, -0.00017804000000000002
DataValue, -0.34800000000000003, 0, -0.00017776
DataValue, -0.336, 0, -0.0001774
DataValue, -0.324, 0, -0.00017694000000000002
DataValue, -0.312, 0, -0.0001765
DataValue, -0.3, 0, -0.00017596000000000002
DataValue, -0.28800000000000003, 0, -0.00017522000000000002
DataValue, -0.276, 0, -0.0001745
DataValue, -0.264, 0, -0.00017356
DataValue, -0.252, 0, -0.00017238
DataValue, -0.24000000000000002, 0, -0.00017088000000000002
DataValue, -0.228, 0, -0.00016876
DataValue, -0.216, 0, -0.00016694
DataValue, -0.20400000000000002, 0, -0.00016402000000000002
DataValue, -0.192, 0, -0.00016114000000000002
DataValue, -0.18000000000000002, 0, -0.0001576
DataValue, -0.168, 0, -0.00015336
DataValue, -0.156, 0, -0.00014844
DataValue, -0.14400000000000002, 0, -0.00014276000000000002
DataValue, -0.132, 0, -0.00013642
DataValue, -0.12000000000000001, 0, -0.00012916000000000002
DataValue, -0.108, 0, -0.00012128
DataValue, -0.096, 0, -0.00011238
DataValue, -0.084, 0, -0.0001023
DataValue, -0.072000000000000008, 0, -9.126E-05
DataValue, -0.060000000000000005, 0, -7.8832000000000007E-05
DataValue, -0.048, 0, -6.5512E-05
DataValue, -0.036000000000000004, 0, -5.0982E-05
DataValue, -0.024, 0, -3.5368000000000004E-05
DataValue, -0.012, 0, -1.8298E-05
DataValue, 0, 0, -1.1487079999999999E-07
DataValue, 0, -0.05, 7.1336E-07
DataValue, -0.012, -0.05, -2.2084E-05
DataValue, -0.024, -0.05, -4.2902000000000004E-05
DataValue, -0.036000000000000004, -0.05, -6.2618E-05
DataValue, -0.048, -0.05, -8.1384E-05
DataValue, -0.060000000000000005, -0.05, -9.8758E-05
DataValue, -0.072000000000000008, -0.05, -0.00011506000000000001
DataValue, -0.084, -0.05, -0.00013028
DataValue, -0.096, -0.05, -0.00014460000000000002
DataValue, -0.108, -0.05, -0.00015758000000000002
DataValue, -0.12000000000000001, -0.05, -0.00016938
DataValue, -0.132, -0.05, -0.00018028
DataValue, -0.14400000000000002, -0.05, -0.00019022
DataValue, -0.156, -0.05, -0.00019892
DataValue, -0.168, -0.05, -0.00020690000000000002
DataValue, -0.18000000000000002, -0.05, -0.00021402000000000001
DataValue, -0.192, -0.05, -0.00022042
DataValue, -0.20400000000000002, -0.05, -0.00022586
DataValue, -0.216, -0.05, -0.00023056000000000002
DataValue, -0.228, -0.05, -0.00023466
DataValue, -0.24000000000000002, -0.05, -0.00023812
DataValue, -0.252, -0.05, -0.00024064000000000003
DataValue, -0.264, -0.05, -0.00024314
DataValue, -0.276, -0.05, -0.00024508
DataValue, -0.28800000000000003, -0.05, -0.00024636
DataValue, -0.3, -0.05, -0.0002478
DataValue, -0.312, -0.05, -0.00024884
DataValue, -0.324, -0.05, -0.00024968
DataValue, -0.336, -0.05, -0.00025008
DataValue, -0.34800000000000003, -0.05, -0.00025068000000000003
DataValue, -0.36000000000000004, -0.05, -0.00025124
DataValue, -0.372, -0.05, -0.00025144
DataValue, -0.384, -0.05, -0.00025184000000000003
DataValue, -0.396, -0.05, -0.00025182000000000004
DataValue, -0.40800000000000003, -0.05, -0.00025158
DataValue, -0.42000000000000004, -0.05, -0.000252
DataValue, -0.432, -0.05, -0.00025206
DataValue, -0.444, -0.05, -0.00025242
DataValue, -0.456, -0.05, -0.00025268
DataValue, -0.468, -0.05, -0.0002528
DataValue, -0.48000000000000004, -0.05, -0.00025282
DataValue, -0.49200000000000005, -0.05, -0.0002531
DataValue, -0.504, -0.05, -0.00025320000000000003
DataValue, -0.516, -0.05, -0.00025352
DataValue, -0.528, -0.05, -0.00025352
DataValue, -0.54, -0.05, -0.00025352
DataValue, -0.552, -0.05, -0.00025350000000000004
DataValue, -0.56400000000000006, -0.05, -0.00025374
DataValue, -0.57600000000000007, -0.05, -0.00025370000000000004
DataValue, -0.58800000000000008, -0.05, -0.00025370000000000004
DataValue, -0.6, -0.05, -0.00025392000000000004
DataValue, -0.6, -0.05, -0.0002539
DataValue, -0.58800000000000008, -0.05, -0.00025370000000000004
DataValue, -0.57600000000000007, -0.05, -0.00025364
DataValue, -0.56400000000000006, -0.05, -0.00025350000000000004
DataValue, -0.552, -0.05, -0.00025340000000000003
DataValue, -0.54, -0.05, -0.00025326
DataValue, -0.528, -0.05, -0.00025312
DataValue, -0.516, -0.05, -0.00025308000000000004
DataValue, -0.504, -0.05, -0.0002527
DataValue, -0.49200000000000005, -0.05, -0.00025264
DataValue, -0.48000000000000004, -0.05, -0.00025236000000000003
DataValue, -0.468, -0.05, -0.00025202
DataValue, -0.456, -0.05, -0.00025162000000000003
DataValue, -0.444, -0.05, -0.00025146
DataValue, -0.432, -0.05, -0.00025088000000000004
DataValue, -0.42000000000000004, -0.05, -0.00025056000000000004
DataValue, -0.40800000000000003, -0.05, -0.00025018
DataValue, -0.396, -0.05, -0.00024964000000000003
DataValue, -0.384, -0.05, -0.00024912000000000003
DataValue, -0.372, -0.05, -0.00024852
DataValue, -0.36000000000000004, -0.05, -0.00024792
DataValue, -0.34800000000000003, -0.05, -0.00024732000000000004
DataValue, -0.336, -0.05, -0.00024650000000000003
DataValue, -0.324, -0.05, -0.0002456
DataValue, -0.312, -0.05, -0.00024462
DataValue, -0.3, -0.05, -0.00024324
DataValue, -0.28800000000000003, -0.05, -0.00024174000000000003
DataValue, -0.276, -0.05, -0.00024016
DataValue, -0.264, -0.05, -0.00023804000000000002
DataValue, -0.252, -0.05, -0.00023562000000000002
DataValue, -0.24000000000000002, -0.05, -0.00023272
DataValue, -0.228, -0.05, -0.00022938
DataValue, -0.216, -0.05, -0.00022538000000000001
DataValue, -0.20400000000000002, -0.05, -0.0002209
DataValue, -0.192, -0.05, -0.00021564000000000002
DataValue, -0.18000000000000002, -0.05, -0.00020952
DataValue, -0.168, -0.05, -0.00020292000000000002
DataValue, -0.156, -0.05, -0.0001953
DataValue, -0.14400000000000002, -0.05, -0.00018668000000000002
DataValue, -0.132, -0.05, -0.00017724
DataValue, -0.12000000000000001, -0.05, -0.00016682
DataValue, -0.108, -0.05, -0.0001553
DataValue, -0.096, -0.05, -0.00014256000000000002
DataValue, -0.084, -0.05, -0.00012908
DataValue, -0.072000000000000008, -0.05, -0.00011412000000000001
DataValue, -0.060000000000000005, -0.05, -9.8218E-05
DataValue, -0.048, -0.05, -8.1092E-05
DataValue, -0.036000000000000004, -0.05, -6.2542E-05
DataValue, -0.024, -0.05, -4.2886E-05
DataValue, -0.012, -0.05, -2.2074000000000002E-05
DataValue, 0, -0.05, 6.7788E-07
DataValue, 0, -0.1, 7.196E-07
DataValue, -0.012, -0.1, -2.5218E-05
DataValue, -0.024, -0.1, -4.9542E-05
DataValue, -0.036000000000000004, -0.1, -7.2606E-05
DataValue, -0.048, -0.1, -9.4728E-05
DataValue, -0.060000000000000005, -0.1, -0.00011570000000000001
DataValue, -0.072000000000000008, -0.1, -0.00013588
DataValue, -0.084, -0.1, -0.000155
DataValue, -0.096, -0.1, -0.00017264
DataValue, -0.108, -0.1, -0.0001895
DataValue, -0.12000000000000001, -0.1, -0.00020508
DataValue, -0.132, -0.1, -0.00021940000000000002
DataValue, -0.14400000000000002, -0.1, -0.00023260000000000002
DataValue, -0.156, -0.1, -0.00024504
DataValue, -0.168, -0.1, -0.00025654000000000003
DataValue, -0.18000000000000002, -0.1, -0.00026666
DataValue, -0.192, -0.1, -0.00027624
DataValue, -0.20400000000000002, -0.1, -0.00028490000000000004
DataValue, -0.216, -0.1, -0.0002921
DataValue, -0.228, -0.1, -0.00029868
DataValue, -0.24000000000000002, -0.1, -0.00030474
DataValue, -0.252, -0.1, -0.00030982000000000004
DataValue, -0.264, -0.1, -0.00031400000000000004
DataValue, -0.276, -0.1, -0.00031784
DataValue, -0.28800000000000003, -0.1, -0.00032116
DataValue, -0.3, -0.1, -0.0003238
DataValue, -0.312, -0.1, -0.00032592
DataValue, -0.324, -0.1, -0.00032806
DataValue, -0.336, -0.1, -0.00032948
DataValue, -0.34800000000000003, -0.1, -0.0003309
DataValue, -0.36000000000000004, -0.1, -0.00033188
DataValue, -0.372, -0.1, -0.00033238
DataValue, -0.384, -0.1, -0.00033302
DataValue, -0.396, -0.1, -0.00033348000000000004
DataValue, -0.40800000000000003, -0.1, -0.00033428
DataValue, -0.42000000000000004, -0.1, -0.00033456
DataValue, -0.432, -0.1, -0.00033508
DataValue, -0.444, -0.1, -0.00033532
DataValue, -0.456, -0.1, -0.00033548000000000003
DataValue, -0.468, -0.1, -0.00033570000000000003
DataValue, -0.48000000000000004, -0.1, -0.00033602
DataValue, -0.49200000000000005, -0.1, -0.00033628
DataValue, -0.504, -0.1, -0.00033628
DataValue, -0.516, -0.1, -0.00033650000000000005
DataValue, -0.528, -0.1, -0.00033682000000000004
DataValue, -0.54, -0.1, -0.00033676
DataValue, -0.552, -0.1, -0.00033684000000000003
DataValue, -0.56400000000000006, -0.1, -0.00033684000000000003
DataValue, -0.57600000000000007, -0.1, -0.00033706000000000003
DataValue, -0.58800000000000008, -0.1, -0.00033684000000000003
DataValue, -0.6, -0.1, -0.00033696
DataValue, -0.6, -0.1, -0.00033682000000000004
DataValue, -0.58800000000000008, -0.1, -0.00033674000000000003
DataValue, -0.57600000000000007, -0.1, -0.00033640000000000005
DataValue, -0.56400000000000006, -0.1, -0.00033612000000000003
DataValue, -0.552, -0.1, -0.00033606
DataValue, -0.54, -0.1, -0.00033578000000000004
DataValue, -0.528, -0.1, -0.00033570000000000003
DataValue, -0.516, -0.1, -0.00033548000000000003
DataValue, -0.504, -0.1, -0.00033538000000000003
DataValue, -0.49200000000000005, -0.1, -0.0003349
DataValue, -0.48000000000000004, -0.1, -0.0003345
DataValue, -0.468, -0.1, -0.00033412000000000003
DataValue, -0.456, -0.1, -0.00033370000000000003
DataValue, -0.444, -0.1, -0.00033334
DataValue, -0.432, -0.1, -0.0003328
DataValue, -0.42000000000000004, -0.1, -0.00033222000000000004
DataValue, -0.40800000000000003, -0.1, -0.00033154
DataValue, -0.396, -0.1, -0.00033084
DataValue, -0.384, -0.1, -0.00033034000000000004
DataValue, -0.372, -0.1, -0.00032954
DataValue, -0.36000000000000004, -0.1, -0.00032854
DataValue, -0.34800000000000003, -0.1, -0.00032742000000000003
DataValue, -0.336, -0.1, -0.00032628
DataValue, -0.324, -0.1, -0.00032468000000000004
DataValue, -0.312, -0.1, -0.00032242
DataValue, -0.3, -0.1, -0.00032012
DataValue, -0.28800000000000003, -0.1, -0.00031718
DataValue, -0.276, -0.1, -0.00031394
DataValue, -0.264, -0.1, -0.00031022
DataValue, -0.252, -0.1, -0.00030568
DataValue, -0.24000000000000002, -0.1, -0.00030060000000000004
DataValue, -0.228, -0.1, -0.00029486000000000003
DataValue, -0.216, -0.1, -0.0002882
DataValue, -0.20400000000000002, -0.1, -0.00028072000000000004
DataValue, -0.192, -0.1, -0.00027256000000000003
DataValue, -0.18000000000000002, -0.1, -0.00026366000000000003
DataValue, -0.168, -0.1, -0.00025348
DataValue, -0.156, -0.1, -0.0002425
DataValue, -0.14400000000000002, -0.1, -0.00023056000000000002
DataValue, -0.132, -0.1, -0.00021758000000000001
DataValue, -0.12000000000000001, -0.1, -0.0002031
DataValue, -0.108, -0.1, -0.00018798
DataValue, -0.096, -0.1, -0.00017166000000000002
DataValue, -0.084, -0.1, -0.00015404
DataValue, -0.072000000000000008, -0.1, -0.00013532
DataValue, -0.060000000000000005, -0.1, -0.00011554000000000001
DataValue, -0.048, -0.1, -9.4818E-05
