
SetupTitle, (c1) Output curve in LGP
PrimitiveTest, I/V Sweep
TestParameter, Context.MainFrame, B1500A
TestParameter, Channel.UnitType, SMU, SMU
TestParameter, Channel.Unit, SMU1:HR/AS, SMU2:HR/AS
TestParameter, Channel.IName, Ig, Id
TestParameter, Channel.VName, Vg, Vd
TestParameter, Channel.Mode, V, V
TestParameter, Channel.Func, VAR2, VAR1
TestParameter, Channel.Index, 
TestParameter, Channel.Time, 
TestParameter, Measurement.Port.Unit, SMU1:HR/AS, SMU2:HR/AS
TestParameter, Measurement.Port.SeriesResistor, NONE, NONE
TestParameter, Measurement.Port.Filter, ON, ON
TestParameter, Measurement.Port.OutputVoltageComparison, 0, 0
TestParameter, Measurement.Primary.Locus, Double
TestParameter, Measurement.Primary.Scale, LINEAR
TestParameter, Measurement.Primary.Start, 0.1
TestParameter, Measurement.Primary.Stop, -0.5
TestParameter, Measurement.Primary.Step, -0.012
TestParameter, Measurement.Primary.Compliance, 0.1
TestParameter, Measurement.Primary.PowerCompliance, 0
TestParameter, Measurement.Aborting.Condition, CONTINUE AT ANY
TestParameter, Measurement.PostOutput.Value, START
TestParameter, Measurement.PostOutput.Retention, OFF
TestParameter, Measurement.Secondary.Start, 0.1
TestParameter, Measurement.Secondary.Count, 6
TestParameter, Measurement.Secondary.Step, -0.1
TestParameter, Measurement.Secondary.Compliance, 0.0001
TestParameter, Measurement.Secondary.PowerCompliance, 0
TestParameter, Measurement.Bias.Source, 0.1, 0.1
TestParameter, Measurement.Bias.Compliance, 0.0001, 0.1
TestParameter, Measurement.Monitor.Unit, SMU1:HR/AS, SMU2:HR/AS
TestParameter, Measurement.Monitor.Adc, HR ADC, HR ADC
TestParameter, Measurement.Monitor.Measurement, Compliance Side, Compliance Side
TestParameter, Measurement.Monitor.RangingMode, LIMITED, LIMITED
TestParameter, Measurement.Monitor.RangeBoundary, 1nA, 1nA
TestParameter, Measurement.Monitor.RangeRating, BY FULL RANGE, BY FULL RANGE
TestParameter, Measurement.Monitor.RangeRatingCoeff, 50, 50
TestParameter, Measurement.Timing.Hold, 0
TestParameter, Measurement.Timing.Delay, 0
TestParameter, Measurement.Adc.HighSpeed.Mode, AUTO
TestParameter, Measurement.Adc.HighSpeed.Coeff, 1
TestParameter, Measurement.Adc.HighResolution.AutoZero, OFF
TestParameter, Measurement.Adc.HighResolution.Mode, AUTO
TestParameter, Measurement.Adc.HighResolution.Coeff, 6
TestParameter, Measurement.WaitTime.Source.Coeff, 1
TestParameter, Measurement.WaitTime.Source.Offset, 0
TestParameter, Measurement.WaitTime.Monitor.Coeff, 1
TestParameter, Measurement.WaitTime.Monitor.Offset, 0
TestParameter, Output.Graph.Enabled, true
TestParameter, Output.Graph.AutoScaling, false
TestParameter, Output.Graph.XAxis.Data, Vd
TestParameter, Output.Graph.XAxis.Scale, Linear
TestParameter, Output.Graph.XAxis.Left, 0
TestParameter, Output.Graph.XAxis.Right, -0.5
TestParameter, Output.Graph.XAxis.RunTimeAutoScale, true
TestParameter, Output.Graph.YAxis.Data, Id
TestParameter, Output.Graph.YAxis.Scale, Linear
TestParameter, Output.Graph.YAxis.Bottom, -0.1
TestParameter, Output.Graph.YAxis.Top, 0.1
TestParameter, Output.Graph.YAxis.Group, 
TestParameter, Output.Graph.YAxis.RunTimeAutoScale, true
TestParameter, Output.List.Data, Vd, Vg, Id
TestParameter, AutoAnalysis.Interpolation, false
TestParameter, AutoAnalysis.Var2StepCount, 1
TestParameter, AutoAnalysis.Var2StepScript, 
TestParameter, AutoAnalysis.Line1.Enabled, false
TestParameter, AutoAnalysis.Line1.Type, 1
TestParameter, AutoAnalysis.Line1.Fix, True
TestParameter, AutoAnalysis.Line1.YAxis, 0
TestParameter, AutoAnalysis.Line1.Point1.Type, 0
TestParameter, AutoAnalysis.Line1.Point1.XY.X, 
TestParameter, AutoAnalysis.Line1.Point1.XY.Y, 
TestParameter, AutoAnalysis.Line1.Point1.Data.Var, 
TestParameter, AutoAnalysis.Line1.Point1.Data.Condition, 
TestParameter, AutoAnalysis.Line1.Point1.Data.Start, false
TestParameter, AutoAnalysis.Line1.Point1.Data.StartVar, 
TestParameter, AutoAnalysis.Line1.Point1.Data.StartCondition, 
TestParameter, AutoAnalysis.Line1.Point2.Type, 0
TestParameter, AutoAnalysis.Line1.Point2.XY.X, 
TestParameter, AutoAnalysis.Line1.Point2.XY.Y, 
TestParameter, AutoAnalysis.Line1.Point2.Data.Var, 
TestParameter, AutoAnalysis.Line1.Point2.Data.Condition, 
TestParameter, AutoAnalysis.Line1.Point2.Data.Start, false
TestParameter, AutoAnalysis.Line1.Point2.Data.StartVar, 
TestParameter, AutoAnalysis.Line1.Point2.Data.StartCondition, 
TestParameter, AutoAnalysis.Line1.GradientExpr, 0
TestParameter, AutoAnalysis.Line2.Enabled, false
TestParameter, AutoAnalysis.Line2.Type, 1
TestParameter, AutoAnalysis.Line2.Fix, True
TestParameter, AutoAnalysis.Line2.YAxis, 0
TestParameter, AutoAnalysis.Line2.Point1.Type, 0
TestParameter, AutoAnalysis.Line2.Point1.XY.X, 
TestParameter, AutoAnalysis.Line2.Point1.XY.Y, 
TestParameter, AutoAnalysis.Line2.Point1.Data.Var, 
TestParameter, AutoAnalysis.Line2.Point1.Data.Condition, 
TestParameter, AutoAnalysis.Line2.Point1.Data.Start, false
TestParameter, AutoAnalysis.Line2.Point1.Data.StartVar, 
TestParameter, AutoAnalysis.Line2.Point1.Data.StartCondition, 
TestParameter, AutoAnalysis.Line2.Point2.Type, 0
TestParameter, AutoAnalysis.Line2.Point2.XY.X, 
TestParameter, AutoAnalysis.Line2.Point2.XY.Y, 
TestParameter, AutoAnalysis.Line2.Point2.Data.Var, 
TestParameter, AutoAnalysis.Line2.Point2.Data.Condition, 
TestParameter, AutoAnalysis.Line2.Point2.Data.Start, false
TestParameter, AutoAnalysis.Line2.Point2.Data.StartVar, 
TestParameter, AutoAnalysis.Line2.Point2.Data.StartCondition, 
TestParameter, AutoAnalysis.Line2.GradientExpr, 0
TestParameter, AutoAnalysis.Marker.Enabled, false
TestParameter, AutoAnalysis.Marker.Data.Var, 
TestParameter, AutoAnalysis.Marker.Data.Condition, 
TestParameter, AutoAnalysis.Marker.Data.Start, false
TestParameter, AutoAnalysis.Marker.Data.StartVar, 
TestParameter, AutoAnalysis.Marker.Data.StartCondition, 
MetaData, TestRecord.EntryPoint, true
MetaData, TestRecord.RecordTime, 11/20/2024 01:08:51
MetaData, TestRecord.TestTarget, 
MetaData, TestRecord.IterationIndex, 15
MetaData, TestRecord.Preservation, true
MetaData, TestRecord.Flag, 
MetaData, TestRecord.Remarks, s13c1
MetaData, TestRecord.LinkKey, bb6aa58d-d4e4-4d3c-afe2-071ccbbd10e2
MetaData, TestRecord.Parameters, 
Dimension1, 102, 102, 102
Dimension2, 6, 6, 6
DataName, Vd, Vg, Id
DataValue, 0.1, 0.1, 6.42E-05
DataValue, 0.088000000000000009, 0.1, 5.1676000000000005E-05
DataValue, 0.076, 0.1, 4.0686E-05
DataValue, 0.064, 0.1, 3.119E-05
DataValue, 0.052000000000000005, 0.1, 2.2838E-05
DataValue, 0.04, 0.1, 1.5782E-05
DataValue, 0.028, 0.1, 9.8653E-06
DataValue, 0.016, 0.1, 4.9751000000000009E-06
DataValue, 0.004, 0.1, 1.1432000000000001E-06
DataValue, -0.008, 0.1, -2.0359000000000003E-06
DataValue, -0.02, 0.1, -4.4983000000000006E-06
DataValue, -0.032, 0.1, -6.248000000000001E-06
DataValue, -0.044000000000000004, 0.1, -7.6714E-06
DataValue, -0.056, 0.1, -8.6253E-06
DataValue, -0.068, 0.1, -9.185000000000001E-06
DataValue, -0.08, 0.1, -9.6774000000000016E-06
DataValue, -0.092, 0.1, -9.9061000000000016E-06
DataValue, -0.10400000000000001, 0.1, -9.9664000000000017E-06
DataValue, -0.116, 0.1, -1.0115E-05
DataValue, -0.128, 0.1, -1.0109200000000001E-05
DataValue, -0.14, 0.1, -1.0023300000000001E-05
DataValue, -0.152, 0.1, -1.0080800000000002E-05
DataValue, -0.164, 0.1, -1.0018000000000001E-05
DataValue, -0.17600000000000002, 0.1, -9.9086E-06
DataValue, -0.188, 0.1, -9.9536E-06
DataValue, -0.2, 0.1, -9.8633000000000009E-06
DataValue, -0.21200000000000002, 0.1, -9.7863000000000015E-06
DataValue, -0.224, 0.1, -9.8401000000000009E-06
DataValue, -0.23600000000000002, 0.1, -9.7523000000000015E-06
DataValue, -0.248, 0.1, -9.6837E-06
DataValue, -0.26, 0.1, -9.7413000000000011E-06
DataValue, -0.272, 0.1, -9.652400000000001E-06
DataValue, -0.28400000000000003, 0.1, -9.5904E-06
DataValue, -0.29600000000000004, 0.1, -9.6498E-06
DataValue, -0.308, 0.1, -9.5871000000000018E-06
DataValue, -0.32, 0.1, -9.5089000000000014E-06
DataValue, -0.332, 0.1, -9.5658E-06
DataValue, -0.34400000000000003, 0.1, -9.5416E-06
DataValue, -0.35600000000000004, 0.1, -9.4504E-06
DataValue, -0.368, 0.1, -9.4922E-06
DataValue, -0.38, 0.1, -9.5077E-06
DataValue, -0.392, 0.1, -9.416000000000001E-06
DataValue, -0.404, 0.1, -9.4247000000000014E-06
DataValue, -0.41600000000000004, 0.1, -9.4705E-06
DataValue, -0.42800000000000005, 0.1, -9.3669000000000017E-06
DataValue, -0.44, 0.1, -9.3662E-06
DataValue, -0.452, 0.1, -9.4306E-06
DataValue, -0.464, 0.1, -9.3467000000000015E-06
DataValue, -0.47600000000000003, 0.1, -9.3115E-06
DataValue, -0.48800000000000004, 0.1, -9.3887E-06
DataValue, -0.5, 0.1, -9.3523E-06
DataValue, -0.5, 0.1, -9.2943E-06
DataValue, -0.48800000000000004, 0.1, -9.2904000000000017E-06
DataValue, -0.47600000000000003, 0.1, -9.3522000000000017E-06
DataValue, -0.464, 0.1, -9.2784E-06
DataValue, -0.452, 0.1, -9.2270000000000016E-06
DataValue, -0.44, 0.1, -9.2925000000000012E-06
DataValue, -0.42800000000000005, 0.1, -9.2398000000000009E-06
DataValue, -0.41600000000000004, 0.1, -9.173E-06
DataValue, -0.404, 0.1, -9.2443E-06
DataValue, -0.392, 0.1, -9.2138000000000015E-06
DataValue, -0.38, 0.1, -9.1305E-06
DataValue, -0.368, 0.1, -9.1960000000000014E-06
DataValue, -0.35600000000000004, 0.1, -9.1984000000000016E-06
DataValue, -0.34400000000000003, 0.1, -9.1041000000000015E-06
DataValue, -0.332, 0.1, -9.1333000000000011E-06
DataValue, -0.32, 0.1, -9.1591E-06
DataValue, -0.308, 0.1, -9.0627E-06
DataValue, -0.29600000000000004, 0.1, -9.0634E-06
DataValue, -0.28400000000000003, 0.1, -9.1248000000000011E-06
DataValue, -0.272, 0.1, -9.004E-06
DataValue, -0.26, 0.1, -9.0705E-06
DataValue, -0.248, 0.1, -9.0183000000000014E-06
DataValue, -0.23600000000000002, 0.1, -8.9413E-06
DataValue, -0.224, 0.1, -9.0028000000000013E-06
DataValue, -0.21200000000000002, 0.1, -8.9279000000000014E-06
DataValue, -0.2, 0.1, -8.8383000000000014E-06
DataValue, -0.188, 0.1, -8.8887E-06
DataValue, -0.17600000000000002, 0.1, -8.7859000000000017E-06
DataValue, -0.164, 0.1, -8.6777000000000016E-06
DataValue, -0.152, 0.1, -8.6954000000000015E-06
DataValue, -0.14, 0.1, -8.5566E-06
DataValue, -0.128, 0.1, -8.41E-06
DataValue, -0.116, 0.1, -8.3667E-06
DataValue, -0.10400000000000001, 0.1, -8.1297000000000011E-06
DataValue, -0.092, 0.1, -7.8545E-06
DataValue, -0.08, 0.1, -7.6243000000000008E-06
DataValue, -0.068, 0.1, -7.1259000000000007E-06
DataValue, -0.056, 0.1, -6.5131E-06
DataValue, -0.044000000000000004, 0.1, -5.8173E-06
DataValue, -0.032, 0.1, -4.6876000000000007E-06
DataValue, -0.02, 0.1, -3.2908000000000003E-06
DataValue, -0.008, 0.1, -1.5575000000000001E-06
DataValue, 0.004, 0.1, 8.4404E-07
DataValue, 0.016, 0.1, 3.9502000000000007E-06
DataValue, 0.028, 0.1, 7.6542E-06
DataValue, 0.04, 0.1, 1.2688000000000001E-05
DataValue, 0.052000000000000005, 0.1, 1.8258E-05
DataValue, 0.064, 0.1, 2.5004E-05
DataValue, 0.076, 0.1, 3.3142E-05
DataValue, 0.088000000000000009, 0.1, 4.2712E-05
DataValue, 0.1, 0.1, 5.3604000000000004E-05
DataValue, 0.1, 0, 0.00017326
DataValue, 0.088000000000000009, 0, 0.00014470000000000002
DataValue, 0.076, 0, 0.00011816000000000001
DataValue, 0.064, 0, 9.3674E-05
DataValue, 0.052000000000000005, 0, 7.1874E-05
DataValue, 0.04, 0, 5.186E-05
DataValue, 0.028, 0, 3.4038E-05
DataValue, 0.016, 0, 1.8298E-05
DataValue, 0.004, 0, 4.1199E-06
DataValue, -0.008, 0, -8.0475E-06
DataValue, -0.02, 0, -1.878E-05
DataValue, -0.032, 0, -2.797E-05
DataValue, -0.044000000000000004, 0, -3.5804E-05
DataValue, -0.056, 0, -4.2602E-05
DataValue, -0.068, 0, -4.8148E-05
DataValue, -0.08, 0, -5.2536E-05
DataValue, -0.092, 0, -5.639E-05
DataValue, -0.10400000000000001, 0, -5.9432E-05
DataValue, -0.116, 0, -6.1588000000000007E-05
DataValue, -0.128, 0, -6.3348E-05
DataValue, -0.14, 0, -6.4786E-05
DataValue, -0.152, 0, -6.5752E-05
DataValue, -0.164, 0, -6.6408E-05
DataValue, -0.17600000000000002, 0, -6.6914E-05
DataValue, -0.188, 0, -6.7326E-05
DataValue, -0.2, 0, -6.7626E-05
DataValue, -0.21200000000000002, 0, -6.7708E-05
DataValue, -0.224, 0, -6.7800000000000008E-05
DataValue, -0.23600000000000002, 0, -6.805E-05
DataValue, -0.248, 0, -6.8118E-05
DataValue, -0.26, 0, -6.8016000000000007E-05
DataValue, -0.272, 0, -6.8218E-05
DataValue, -0.28400000000000003, 0, -6.8236E-05
DataValue, -0.29600000000000004, 0, -6.8196000000000009E-05
DataValue, -0.308, 0, -6.8348E-05
DataValue, -0.32, 0, -6.8466E-05
DataValue, -0.332, 0, -6.841E-05
DataValue, -0.34400000000000003, 0, -6.8478E-05
DataValue, -0.35600000000000004, 0, -6.8628000000000008E-05
DataValue, -0.368, 0, -6.8626E-05
DataValue, -0.38, 0, -6.8536000000000009E-05
DataValue, -0.392, 0, -6.8636E-05
DataValue, -0.404, 0, -6.8772E-05
DataValue, -0.41600000000000004, 0, -6.8698E-05
DataValue, -0.42800000000000005, 0, -6.8686E-05
DataValue, -0.44, 0, -6.885E-05
DataValue, -0.452, 0, -6.8832000000000008E-05
DataValue, -0.464, 0, -6.8758000000000008E-05
DataValue, -0.47600000000000003, 0, -6.8902E-05
DataValue, -0.48800000000000004, 0, -6.8964E-05
DataValue, -0.5, 0, -6.8884E-05
DataValue, -0.5, 0, -6.8892E-05
DataValue, -0.48800000000000004, 0, -6.9016E-05
DataValue, -0.47600000000000003, 0, -6.8978E-05
DataValue, -0.464, 0, -6.8886E-05
DataValue, -0.452, 0, -6.8964E-05
DataValue, -0.44, 0, -6.9024000000000009E-05
DataValue, -0.42800000000000005, 0, -6.888E-05
DataValue, -0.41600000000000004, 0, -6.8872E-05
DataValue, -0.404, 0, -6.9008E-05
DataValue, -0.392, 0, -6.8938E-05
DataValue, -0.38, 0, -6.8816E-05
DataValue, -0.368, 0, -6.8814000000000009E-05
DataValue, -0.35600000000000004, 0, -6.8914E-05
DataValue, -0.34400000000000003, 0, -6.8770000000000007E-05
DataValue, -0.332, 0, -6.8662E-05
DataValue, -0.32, 0, -6.8744E-05
DataValue, -0.308, 0, -6.8648E-05
DataValue, -0.29600000000000004, 0, -6.841E-05
DataValue, -0.28400000000000003, 0, -6.8382E-05
DataValue, -0.272, 0, -6.8304E-05
DataValue, -0.26, 0, -6.8008E-05
DataValue, -0.248, 0, -6.7802E-05
DataValue, -0.23600000000000002, 0, -6.7682000000000007E-05
DataValue, -0.224, 0, -6.7442000000000009E-05
DataValue, -0.21200000000000002, 0, -6.7038E-05
DataValue, -0.2, 0, -6.675E-05
DataValue, -0.188, 0, -6.6412E-05
DataValue, -0.17600000000000002, 0, -6.5774E-05
DataValue, -0.164, 0, -6.5032E-05
DataValue, -0.152, 0, -6.4244E-05
DataValue, -0.14, 0, -6.3138E-05
DataValue, -0.128, 0, -6.1582000000000008E-05
DataValue, -0.116, 0, -5.9714000000000005E-05
DataValue, -0.10400000000000001, 0, -5.75E-05
DataValue, -0.092, 0, -5.4622E-05
DataValue, -0.08, 0, -5.0908E-05
DataValue, -0.068, 0, -4.651E-05
DataValue, -0.056, 0, -4.13E-05
DataValue, -0.044000000000000004, 0, -3.4886000000000004E-05
DataValue, -0.032, 0, -2.7198E-05
DataValue, -0.02, 0, -1.829E-05
DataValue, -0.008, 0, -7.9767000000000011E-06
DataValue, 0.004, 0, 4.2067000000000007E-06
DataValue, 0.016, 0, 1.8162E-05
DataValue, 0.028, 0, 3.4030000000000005E-05
DataValue, 0.04, 0, 5.2016000000000005E-05
DataValue, 0.052000000000000005, 0, 7.1914E-05
DataValue, 0.064, 0, 9.414E-05
DataValue, 0.076, 0, 0.00012048000000000001
DataValue, 0.088000000000000009, 0, 0.00014796
DataValue, 0.1, 0, 0.00017790000000000002
DataValue, 0.1, -0.1, 0.00036728000000000005
DataValue, 0.088000000000000009, -0.1, 0.00031246000000000003
DataValue, 0.076, -0.1, 0.00026076
DataValue, 0.064, -0.1, 0.0002119
DataValue, 0.052000000000000005, -0.1, 0.00016570000000000002
DataValue, 0.04, -0.1, 0.00012264
DataValue, 0.028, -0.1, 8.2388E-05
DataValue, 0.016, -0.1, 4.5128E-05
DataValue, 0.004, -0.1, 1.0756E-05
DataValue, -0.008, -0.1, -2.1196000000000002E-05
DataValue, -0.02, -0.1, -5.0454E-05
DataValue, -0.032, -0.1, -7.702E-05
DataValue, -0.044000000000000004, -0.1, -0.00010125600000000001
DataValue, -0.056, -0.1, -0.0001225
DataValue, -0.068, -0.1, -0.00014230000000000002
DataValue, -0.08, -0.1, -0.00015976
DataValue, -0.092, -0.1, -0.00017548000000000002
DataValue, -0.10400000000000001, -0.1, -0.00018926000000000001
DataValue, -0.116, -0.1, -0.00020102000000000002
DataValue, -0.128, -0.1, -0.00021140000000000002
DataValue, -0.14, -0.1, -0.00022060000000000002
DataValue, -0.152, -0.1, -0.00022774
DataValue, -0.164, -0.1, -0.00023390000000000002
DataValue, -0.17600000000000002, -0.1, -0.00023940000000000002
DataValue, -0.188, -0.1, -0.00024358000000000002
DataValue, -0.2, -0.1, -0.00024674
DataValue, -0.21200000000000002, -0.1, -0.00024972000000000004
DataValue, -0.224, -0.1, -0.00025192000000000004
DataValue, -0.23600000000000002, -0.1, -0.00025334
DataValue, -0.248, -0.1, -0.00025472
DataValue, -0.26, -0.1, -0.00025590000000000004
DataValue, -0.272, -0.1, -0.00025642000000000004
DataValue, -0.28400000000000003, -0.1, -0.000257
DataValue, -0.29600000000000004, -0.1, -0.00025778000000000004
DataValue, -0.308, -0.1, -0.00025794
DataValue, -0.32, -0.1, -0.00025820000000000004
DataValue, -0.332, -0.1, -0.00025866
DataValue, -0.34400000000000003, -0.1, -0.00025904000000000004
DataValue, -0.35600000000000004, -0.1, -0.00025904000000000004
DataValue, -0.368, -0.1, -0.00025928
DataValue, -0.38, -0.1, -0.0002598
DataValue, -0.392, -0.1, -0.00025972
DataValue, -0.404, -0.1, -0.00025984
DataValue, -0.41600000000000004, -0.1, -0.00026038
DataValue, -0.42800000000000005, -0.1, -0.00026044
DataValue, -0.44, -0.1, -0.00026046
DataValue, -0.452, -0.1, -0.00026082000000000004
DataValue, -0.464, -0.1, -0.000261
DataValue, -0.47600000000000003, -0.1, -0.00026084000000000003
DataValue, -0.48800000000000004, -0.1, -0.00026116000000000003
DataValue, -0.5, -0.1, -0.0002614
DataValue, -0.5, -0.1, -0.00026118
DataValue, -0.48800000000000004, -0.1, -0.00026094000000000003
DataValue, -0.47600000000000003, -0.1, -0.0002611
DataValue, -0.464, -0.1, -0.00026094000000000003
DataValue, -0.452, -0.1, -0.00026054
DataValue, -0.44, -0.1, -0.00026078
DataValue, -0.42800000000000005, -0.1, -0.00026074000000000003
DataValue, -0.41600000000000004, -0.1, -0.00026020000000000004
DataValue, -0.404, -0.1, -0.00025986
DataValue, -0.392, -0.1, -0.00025988000000000004
DataValue, -0.38, -0.1, -0.00025972
DataValue, -0.368, -0.1, -0.00025906000000000003
DataValue, -0.35600000000000004, -0.1, -0.00025858
DataValue, -0.34400000000000003, -0.1, -0.00025836
DataValue, -0.332, -0.1, -0.00025802
DataValue, -0.32, -0.1, -0.0002572
DataValue, -0.308, -0.1, -0.00025676000000000003
DataValue, -0.29600000000000004, -0.1, -0.00025628
DataValue, -0.28400000000000003, -0.1, -0.00025544
DataValue, -0.272, -0.1, -0.00025432
DataValue, -0.26, -0.1, -0.00025330000000000003
DataValue, -0.248, -0.1, -0.00025216
DataValue, -0.23600000000000002, -0.1, -0.0002504
DataValue, -0.224, -0.1, -0.00024812
DataValue, -0.21200000000000002, -0.1, -0.00024588
DataValue, -0.2, -0.1, -0.00024306000000000002
DataValue, -0.188, -0.1, -0.00023924000000000002
DataValue, -0.17600000000000002, -0.1, -0.00023466
DataValue, -0.164, -0.1, -0.00022964
DataValue, -0.152, -0.1, -0.00022342000000000003
DataValue, -0.14, -0.1, -0.00021586
DataValue, -0.128, -0.1, -0.00020706
DataValue, -0.116, -0.1, -0.00019714
DataValue, -0.10400000000000001, -0.1, -0.00018558000000000002
DataValue, -0.092, -0.1, -0.00017212
DataValue, -0.08, -0.1, -0.00015684000000000002
DataValue, -0.068, -0.1, -0.00013992
DataValue, -0.056, -0.1, -0.00012090000000000001
DataValue, -0.044000000000000004, -0.1, -9.9776E-05
DataValue, -0.032, -0.1, -7.6082000000000008E-05
DataValue, -0.02, -0.1, -4.9768E-05
DataValue, -0.008, -0.1, -2.0854E-05
DataValue, 0.004, -0.1, 1.0634E-05
DataValue, 0.016, -0.1, 4.4802E-05
DataValue, 0.028, -0.1, 8.1842000000000007E-05
DataValue, 0.04, -0.1, 0.00012314000000000002
DataValue, 0.052000000000000005, -0.1, 0.0001666
DataValue, 0.064, -0.1, 0.00021284
DataValue, 0.076, -0.1, 0.00026234
DataValue, 0.088000000000000009, -0.1, 0.00031546000000000005
DataValue, 0.1, -0.1, 0.00037170000000000004
DataValue, 0.1, -0.2, 0.00059566
DataValue, 0.088000000000000009, -0.2, 0.00051354
DataValue, 0.076, -0.2, 0.00043450000000000004
DataValue, 0.064, -0.2, 0.00035772
DataValue, 0.052000000000000005, -0.2, 0.00028368
DataValue, 0.04, -0.2, 0.00021312000000000002
DataValue, 0.028, -0.2, 0.00014554000000000002
