
SetupTitle, (c1) Output curve in LGP
PrimitiveTest, I/V Sweep
TestParameter, Context.MainFrame, B1500A
TestParameter, Channel.UnitType, SMU, SMU
TestParameter, Channel.Unit, SMU1:HR/AS, SMU2:HR/AS
TestParameter, Channel.IName, Ig, Id
TestParameter, Channel.VName, Vg, Vd
TestParameter, Channel.Mode, V, V
TestParameter, Channel.Func, VAR2, VAR1
TestParameter, Channel.Index, 
TestParameter, Channel.Time, 
TestParameter, Measurement.Port.Unit, SMU1:HR/AS, SMU2:HR/AS
TestParameter, Measurement.Port.SeriesResistor, NONE, NONE
TestParameter, Measurement.Port.Filter, ON, ON
TestParameter, Measurement.Port.OutputVoltageComparison, 0, 0
TestParameter, Measurement.Primary.Locus, Double
TestParameter, Measurement.Primary.Scale, LINEAR
TestParameter, Measurement.Primary.Start, 0.1
TestParameter, Measurement.Primary.Stop, -0.5
TestParameter, Measurement.Primary.Step, -0.012
TestParameter, Measurement.Primary.Compliance, 0.1
TestParameter, Measurement.Primary.PowerCompliance, 0
TestParameter, Measurement.Aborting.Condition, CONTINUE AT ANY
TestParameter, Measurement.PostOutput.Value, START
TestParameter, Measurement.PostOutput.Retention, OFF
TestParameter, Measurement.Secondary.Start, 0.1
TestParameter, Measurement.Secondary.Count, 6
TestParameter, Measurement.Secondary.Step, -0.1
TestParameter, Measurement.Secondary.Compliance, 0.0001
TestParameter, Measurement.Secondary.PowerCompliance, 0
TestParameter, Measurement.Bias.Source, 0.1, 0.1
TestParameter, Measurement.Bias.Compliance, 0.0001, 0.1
TestParameter, Measurement.Monitor.Unit, SMU1:HR/AS, SMU2:HR/AS
TestParameter, Measurement.Monitor.Adc, HR ADC, HR ADC
TestParameter, Measurement.Monitor.Measurement, Compliance Side, Compliance Side
TestParameter, Measurement.Monitor.RangingMode, LIMITED, LIMITED
TestParameter, Measurement.Monitor.RangeBoundary, 1nA, 1nA
TestParameter, Measurement.Monitor.RangeRating, BY FULL RANGE, BY FULL RANGE
TestParameter, Measurement.Monitor.RangeRatingCoeff, 50, 50
TestParameter, Measurement.Timing.Hold, 0
TestParameter, Measurement.Timing.Delay, 0
TestParameter, Measurement.Adc.HighSpeed.Mode, AUTO
TestParameter, Measurement.Adc.HighSpeed.Coeff, 1
TestParameter, Measurement.Adc.HighResolution.AutoZero, OFF
TestParameter, Measurement.Adc.HighResolution.Mode, AUTO
TestParameter, Measurement.Adc.HighResolution.Coeff, 6
TestParameter, Measurement.WaitTime.Source.Coeff, 1
TestParameter, Measurement.WaitTime.Source.Offset, 0
TestParameter, Measurement.WaitTime.Monitor.Coeff, 1
TestParameter, Measurement.WaitTime.Monitor.Offset, 0
TestParameter, Output.Graph.Enabled, true
TestParameter, Output.Graph.AutoScaling, false
TestParameter, Output.Graph.XAxis.Data, Vd
TestParameter, Output.Graph.XAxis.Scale, Linear
TestParameter, Output.Graph.XAxis.Left, 0
TestParameter, Output.Graph.XAxis.Right, -0.5
TestParameter, Output.Graph.XAxis.RunTimeAutoScale, true
TestParameter, Output.Graph.YAxis.Data, Id
TestParameter, Output.Graph.YAxis.Scale, Linear
TestParameter, Output.Graph.YAxis.Bottom, -0.1
TestParameter, Output.Graph.YAxis.Top, 0.1
TestParameter, Output.Graph.YAxis.Group, 
TestParameter, Output.Graph.YAxis.RunTimeAutoScale, true
TestParameter, Output.List.Data, Vd, Vg, Id
TestParameter, AutoAnalysis.Interpolation, false
TestParameter, AutoAnalysis.Var2StepCount, 1
TestParameter, AutoAnalysis.Var2StepScript, 
TestParameter, AutoAnalysis.Line1.Enabled, false
TestParameter, AutoAnalysis.Line1.Type, 1
TestParameter, AutoAnalysis.Line1.Fix, True
TestParameter, AutoAnalysis.Line1.YAxis, 0
TestParameter, AutoAnalysis.Line1.Point1.Type, 0
TestParameter, AutoAnalysis.Line1.Point1.XY.X, 
TestParameter, AutoAnalysis.Line1.Point1.XY.Y, 
TestParameter, AutoAnalysis.Line1.Point1.Data.Var, 
TestParameter, AutoAnalysis.Line1.Point1.Data.Condition, 
TestParameter, AutoAnalysis.Line1.Point1.Data.Start, false
TestParameter, AutoAnalysis.Line1.Point1.Data.StartVar, 
TestParameter, AutoAnalysis.Line1.Point1.Data.StartCondition, 
TestParameter, AutoAnalysis.Line1.Point2.Type, 0
TestParameter, AutoAnalysis.Line1.Point2.XY.X, 
TestParameter, AutoAnalysis.Line1.Point2.XY.Y, 
TestParameter, AutoAnalysis.Line1.Point2.Data.Var, 
TestParameter, AutoAnalysis.Line1.Point2.Data.Condition, 
TestParameter, AutoAnalysis.Line1.Point2.Data.Start, false
TestParameter, AutoAnalysis.Line1.Point2.Data.StartVar, 
TestParameter, AutoAnalysis.Line1.Point2.Data.StartCondition, 
TestParameter, AutoAnalysis.Line1.GradientExpr, 0
TestParameter, AutoAnalysis.Line2.Enabled, false
TestParameter, AutoAnalysis.Line2.Type, 1
TestParameter, AutoAnalysis.Line2.Fix, True
TestParameter, AutoAnalysis.Line2.YAxis, 0
TestParameter, AutoAnalysis.Line2.Point1.Type, 0
TestParameter, AutoAnalysis.Line2.Point1.XY.X, 
TestParameter, AutoAnalysis.Line2.Point1.XY.Y, 
TestParameter, AutoAnalysis.Line2.Point1.Data.Var, 
TestParameter, AutoAnalysis.Line2.Point1.Data.Condition, 
TestParameter, AutoAnalysis.Line2.Point1.Data.Start, false
TestParameter, AutoAnalysis.Line2.Point1.Data.StartVar, 
TestParameter, AutoAnalysis.Line2.Point1.Data.StartCondition, 
TestParameter, AutoAnalysis.Line2.Point2.Type, 0
TestParameter, AutoAnalysis.Line2.Point2.XY.X, 
TestParameter, AutoAnalysis.Line2.Point2.XY.Y, 
TestParameter, AutoAnalysis.Line2.Point2.Data.Var, 
TestParameter, AutoAnalysis.Line2.Point2.Data.Condition, 
TestParameter, AutoAnalysis.Line2.Point2.Data.Start, false
TestParameter, AutoAnalysis.Line2.Point2.Data.StartVar, 
TestParameter, AutoAnalysis.Line2.Point2.Data.StartCondition, 
TestParameter, AutoAnalysis.Line2.GradientExpr, 0
TestParameter, AutoAnalysis.Marker.Enabled, false
TestParameter, AutoAnalysis.Marker.Data.Var, 
TestParameter, AutoAnalysis.Marker.Data.Condition, 
TestParameter, AutoAnalysis.Marker.Data.Start, false
TestParameter, AutoAnalysis.Marker.Data.StartVar, 
TestParameter, AutoAnalysis.Marker.Data.StartCondition, 
MetaData, TestRecord.EntryPoint, true
MetaData, TestRecord.RecordTime, 11/20/2024 01:24:36
MetaData, TestRecord.TestTarget, 
MetaData, TestRecord.IterationIndex, 18
MetaData, TestRecord.Preservation, true
MetaData, TestRecord.Flag, 
MetaData, TestRecord.Remarks, s20c6
MetaData, TestRecord.LinkKey, 8b9d7196-fcca-4262-986a-dbc6317cbcd1
MetaData, TestRecord.Parameters, 
Dimension1, 102, 102, 102
Dimension2, 6, 6, 6
DataName, Vd, Vg, Id
DataValue, 0.1, 0.1, 8.7276000000000009E-05
DataValue, 0.088000000000000009, 0.1, 7.1076000000000009E-05
DataValue, 0.076, 0.1, 5.6206000000000004E-05
DataValue, 0.064, 0.1, 4.3294E-05
DataValue, 0.052000000000000005, 0.1, 3.2092000000000004E-05
DataValue, 0.04, 0.1, 2.2292E-05
DataValue, 0.028, 0.1, 1.4066E-05
DataValue, 0.016, 0.1, 7.1443E-06
DataValue, 0.004, 0.1, 1.5284E-06
DataValue, -0.008, 0.1, -2.8725000000000004E-06
DataValue, -0.02, 0.1, -6.518000000000001E-06
DataValue, -0.032, 0.1, -9.2073E-06
DataValue, -0.044000000000000004, 0.1, -1.0474E-05
DataValue, -0.056, 0.1, -1.206E-05
DataValue, -0.068, 0.1, -1.2958E-05
DataValue, -0.08, 0.1, -1.3626000000000001E-05
DataValue, -0.092, 0.1, -1.4152000000000001E-05
DataValue, -0.10400000000000001, 0.1, -1.4354E-05
DataValue, -0.116, 0.1, -1.4412E-05
DataValue, -0.128, 0.1, -1.4574E-05
DataValue, -0.14, 0.1, -1.467E-05
DataValue, -0.152, 0.1, -1.4606E-05
DataValue, -0.164, 0.1, -1.4556000000000001E-05
DataValue, -0.17600000000000002, 0.1, -1.4614000000000001E-05
DataValue, -0.188, 0.1, -1.4632E-05
DataValue, -0.2, 0.1, -1.451E-05
DataValue, -0.21200000000000002, 0.1, -1.4502000000000001E-05
DataValue, -0.224, 0.1, -1.4590000000000001E-05
DataValue, -0.23600000000000002, 0.1, -1.4574E-05
DataValue, -0.248, 0.1, -1.4442E-05
DataValue, -0.26, 0.1, -1.4462E-05
DataValue, -0.272, 0.1, -1.4524E-05
DataValue, -0.28400000000000003, 0.1, -1.4448000000000001E-05
DataValue, -0.29600000000000004, 0.1, -1.434E-05
DataValue, -0.308, 0.1, -1.4362E-05
DataValue, -0.32, 0.1, -1.4406E-05
DataValue, -0.332, 0.1, -1.4316E-05
DataValue, -0.34400000000000003, 0.1, -1.4214E-05
DataValue, -0.35600000000000004, 0.1, -1.4258E-05
DataValue, -0.368, 0.1, -1.4292E-05
DataValue, -0.38, 0.1, -1.4192E-05
DataValue, -0.392, 0.1, -1.4098000000000001E-05
DataValue, -0.404, 0.1, -1.4156000000000001E-05
DataValue, -0.41600000000000004, 0.1, -1.4178E-05
DataValue, -0.42800000000000005, 0.1, -1.4052E-05
DataValue, -0.44, 0.1, -1.4006000000000001E-05
DataValue, -0.452, 0.1, -1.4092E-05
DataValue, -0.464, 0.1, -1.407E-05
DataValue, -0.47600000000000003, 0.1, -1.3954E-05
DataValue, -0.48800000000000004, 0.1, -1.3932E-05
DataValue, -0.5, 0.1, -1.4022E-05
DataValue, -0.5, 0.1, -1.4026000000000001E-05
DataValue, -0.48800000000000004, 0.1, -1.3928000000000001E-05
DataValue, -0.47600000000000003, 0.1, -1.3840000000000001E-05
DataValue, -0.464, 0.1, -1.3902E-05
DataValue, -0.452, 0.1, -1.3922E-05
DataValue, -0.44, 0.1, -1.3774E-05
DataValue, -0.42800000000000005, 0.1, -1.3766E-05
DataValue, -0.41600000000000004, 0.1, -1.3836000000000001E-05
DataValue, -0.404, 0.1, -1.3798E-05
DataValue, -0.392, 0.1, -1.3684E-05
DataValue, -0.38, 0.1, -1.3668E-05
DataValue, -0.368, 0.1, -1.3748000000000001E-05
DataValue, -0.35600000000000004, 0.1, -1.3596E-05
DataValue, -0.34400000000000003, 0.1, -1.3658E-05
DataValue, -0.332, 0.1, -1.3598000000000001E-05
DataValue, -0.32, 0.1, -1.3494E-05
DataValue, -0.308, 0.1, -1.3538E-05
DataValue, -0.29600000000000004, 0.1, -1.3564000000000001E-05
DataValue, -0.28400000000000003, 0.1, -1.3462000000000001E-05
DataValue, -0.272, 0.1, -1.3382E-05
DataValue, -0.26, 0.1, -1.3408000000000001E-05
DataValue, -0.248, 0.1, -1.3422000000000001E-05
DataValue, -0.23600000000000002, 0.1, -1.3294E-05
DataValue, -0.224, 0.1, -1.3168E-05
DataValue, -0.21200000000000002, 0.1, -1.321E-05
DataValue, -0.2, 0.1, -1.312E-05
DataValue, -0.188, 0.1, -1.2914E-05
DataValue, -0.17600000000000002, 0.1, -1.286E-05
DataValue, -0.164, 0.1, -1.2822E-05
DataValue, -0.152, 0.1, -1.26E-05
DataValue, -0.14, 0.1, -1.2430000000000001E-05
DataValue, -0.128, 0.1, -1.2348000000000001E-05
DataValue, -0.116, 0.1, -1.2112E-05
DataValue, -0.10400000000000001, 0.1, -1.1748E-05
DataValue, -0.092, 0.1, -1.1438E-05
DataValue, -0.08, 0.1, -1.106E-05
DataValue, -0.068, 0.1, -1.0344E-05
DataValue, -0.056, 0.1, -9.6868E-06
DataValue, -0.044000000000000004, 0.1, -8.4528000000000015E-06
DataValue, -0.032, 0.1, -6.8326000000000004E-06
DataValue, -0.02, 0.1, -4.8876000000000004E-06
DataValue, -0.008, 0.1, -2.2096000000000004E-06
DataValue, 0.004, 0.1, 1.2701000000000001E-06
DataValue, 0.016, 0.1, 5.4510000000000008E-06
DataValue, 0.028, 0.1, 1.0808E-05
DataValue, 0.04, 0.1, 1.7836E-05
DataValue, 0.052000000000000005, 0.1, 2.5524E-05
DataValue, 0.064, 0.1, 3.4936E-05
DataValue, 0.076, 0.1, 4.5942E-05
DataValue, 0.088000000000000009, 0.1, 5.877E-05
DataValue, 0.1, 0.1, 7.328E-05
DataValue, 0.1, 0, 0.00021988000000000002
DataValue, 0.088000000000000009, 0, 0.00018438000000000002
DataValue, 0.076, 0, 0.00015120000000000002
DataValue, 0.064, 0, 0.00012094
DataValue, 0.052000000000000005, 0, 9.2596E-05
DataValue, 0.04, 0, 6.762E-05
DataValue, 0.028, 0, 4.4692E-05
DataValue, 0.016, 0, 2.3908000000000002E-05
DataValue, 0.004, 0, 5.6181000000000005E-06
DataValue, -0.008, 0, -1.0867900000000001E-05
DataValue, -0.02, 0, -2.491E-05
DataValue, -0.032, 0, -3.7594E-05
DataValue, -0.044000000000000004, 0, -4.85E-05
DataValue, -0.056, 0, -5.759E-05
DataValue, -0.068, 0, -6.5494000000000007E-05
DataValue, -0.08, 0, -7.2148E-05
DataValue, -0.092, 0, -7.7336E-05
DataValue, -0.10400000000000001, 0, -8.1588E-05
DataValue, -0.116, 0, -8.5204E-05
DataValue, -0.128, 0, -8.78E-05
DataValue, -0.14, 0, -8.9716E-05
DataValue, -0.152, 0, -9.139E-05
DataValue, -0.164, 0, -9.2638E-05
DataValue, -0.17600000000000002, 0, -9.3338E-05
DataValue, -0.188, 0, -9.3894E-05
DataValue, -0.2, 0, -9.4546E-05
DataValue, -0.21200000000000002, 0, -9.4970000000000007E-05
DataValue, -0.224, 0, -9.5068E-05
DataValue, -0.23600000000000002, 0, -9.5198E-05
DataValue, -0.248, 0, -9.5618E-05
DataValue, -0.26, 0, -9.582E-05
DataValue, -0.272, 0, -9.574E-05
DataValue, -0.28400000000000003, 0, -9.5958E-05
DataValue, -0.29600000000000004, 0, -9.6356E-05
DataValue, -0.308, 0, -9.6408E-05
DataValue, -0.32, 0, -9.6416E-05
DataValue, -0.332, 0, -9.663400000000001E-05
DataValue, -0.34400000000000003, 0, -9.6972E-05
DataValue, -0.35600000000000004, 0, -9.6936000000000008E-05
DataValue, -0.368, 0, -9.6826E-05
DataValue, -0.38, 0, -9.7062E-05
DataValue, -0.392, 0, -9.723E-05
DataValue, -0.404, 0, -9.7148E-05
DataValue, -0.41600000000000004, 0, -9.71E-05
DataValue, -0.42800000000000005, 0, -9.7248E-05
DataValue, -0.44, 0, -9.7404E-05
DataValue, -0.452, 0, -9.7204E-05
DataValue, -0.464, 0, -9.7118E-05
DataValue, -0.47600000000000003, 0, -9.7362000000000007E-05
DataValue, -0.48800000000000004, 0, -9.7422E-05
DataValue, -0.5, 0, -9.7278E-05
DataValue, -0.5, 0, -9.719000000000001E-05
DataValue, -0.48800000000000004, 0, -9.737E-05
DataValue, -0.47600000000000003, 0, -9.7378E-05
DataValue, -0.464, 0, -9.7192E-05
DataValue, -0.452, 0, -9.7064E-05
DataValue, -0.44, 0, -9.7248E-05
DataValue, -0.42800000000000005, 0, -9.7238E-05
DataValue, -0.41600000000000004, 0, -9.6968E-05
DataValue, -0.404, 0, -9.6882E-05
DataValue, -0.392, 0, -9.7066000000000009E-05
DataValue, -0.38, 0, -9.7038E-05
DataValue, -0.368, 0, -9.6808E-05
DataValue, -0.35600000000000004, 0, -9.6914E-05
DataValue, -0.34400000000000003, 0, -9.6596000000000008E-05
DataValue, -0.332, 0, -9.6354E-05
DataValue, -0.32, 0, -9.643000000000001E-05
DataValue, -0.308, 0, -9.6044E-05
DataValue, -0.29600000000000004, 0, -9.5636E-05
DataValue, -0.28400000000000003, 0, -9.5408E-05
DataValue, -0.272, 0, -9.525E-05
DataValue, -0.26, 0, -9.4822000000000008E-05
DataValue, -0.248, 0, -9.4254000000000009E-05
DataValue, -0.23600000000000002, 0, -9.3992E-05
DataValue, -0.224, 0, -9.3822E-05
DataValue, -0.21200000000000002, 0, -9.3006E-05
DataValue, -0.2, 0, -9.2482E-05
DataValue, -0.188, 0, -9.19E-05
DataValue, -0.17600000000000002, 0, -9.085E-05
DataValue, -0.164, 0, -8.9678E-05
DataValue, -0.152, 0, -8.8534E-05
DataValue, -0.14, 0, -8.6774E-05
DataValue, -0.128, 0, -8.4444E-05
DataValue, -0.116, 0, -8.1834E-05
DataValue, -0.10400000000000001, 0, -7.8578E-05
DataValue, -0.092, 0, -7.4272E-05
DataValue, -0.08, 0, -6.9096E-05
DataValue, -0.068, 0, -6.2986E-05
DataValue, -0.056, 0, -5.5608E-05
DataValue, -0.044000000000000004, 0, -4.6692E-05
DataValue, -0.032, 0, -3.6308E-05
DataValue, -0.02, 0, -2.4402E-05
DataValue, -0.008, 0, -1.0524000000000001E-05
DataValue, 0.004, 0, 5.4698000000000006E-06
DataValue, 0.016, 0, 2.3856E-05
DataValue, 0.028, 0, 4.4464E-05
DataValue, 0.04, 0, 6.7380000000000009E-05
DataValue, 0.052000000000000005, 0, 9.2758000000000009E-05
DataValue, 0.064, 0, 0.00012266
DataValue, 0.076, 0, 0.00015388
DataValue, 0.088000000000000009, 0, 0.00018804000000000002
DataValue, 0.1, 0, 0.00022502
DataValue, 0.1, -0.1, 0.00044024000000000005
DataValue, 0.088000000000000009, -0.1, 0.00037614
DataValue, 0.076, -0.1, 0.0003145
DataValue, 0.064, -0.1, 0.00025648
DataValue, 0.052000000000000005, -0.1, 0.00020148
DataValue, 0.04, -0.1, 0.0001494
DataValue, 0.028, -0.1, 0.00010086
DataValue, 0.016, -0.1, 5.5360000000000005E-05
DataValue, 0.004, -0.1, 1.2986E-05
DataValue, -0.008, -0.1, -2.6112E-05
DataValue, -0.02, -0.1, -6.2362E-05
DataValue, -0.032, -0.1, -9.6016E-05
DataValue, -0.044000000000000004, -0.1, -0.0001258
DataValue, -0.056, -0.1, -0.00015356000000000001
DataValue, -0.068, -0.1, -0.00017874
DataValue, -0.08, -0.1, -0.00020184
DataValue, -0.092, -0.1, -0.00022212000000000002
DataValue, -0.10400000000000001, -0.1, -0.00023998000000000002
DataValue, -0.116, -0.1, -0.00025612000000000003
DataValue, -0.128, -0.1, -0.00027034
DataValue, -0.14, -0.1, -0.00028202
DataValue, -0.152, -0.1, -0.00029242
DataValue, -0.164, -0.1, -0.00030172
DataValue, -0.17600000000000002, -0.1, -0.00030888000000000004
DataValue, -0.188, -0.1, -0.00031496000000000003
DataValue, -0.2, -0.1, -0.00032036
DataValue, -0.21200000000000002, -0.1, -0.00032472
DataValue, -0.224, -0.1, -0.00032794000000000003
DataValue, -0.23600000000000002, -0.1, -0.00033042
DataValue, -0.248, -0.1, -0.00033284000000000005
DataValue, -0.26, -0.1, -0.00033492
DataValue, -0.272, -0.1, -0.00033598000000000005
DataValue, -0.28400000000000003, -0.1, -0.00033678
DataValue, -0.29600000000000004, -0.1, -0.00033820000000000003
DataValue, -0.308, -0.1, -0.00033914000000000004
DataValue, -0.32, -0.1, -0.00033928
DataValue, -0.332, -0.1, -0.0003398
DataValue, -0.34400000000000003, -0.1, -0.00034078
DataValue, -0.35600000000000004, -0.1, -0.00034136
DataValue, -0.368, -0.1, -0.00034146000000000003
DataValue, -0.38, -0.1, -0.00034178
DataValue, -0.392, -0.1, -0.00034272
DataValue, -0.404, -0.1, -0.00034266
DataValue, -0.41600000000000004, -0.1, -0.00034320000000000005
DataValue, -0.42800000000000005, -0.1, -0.00034392
DataValue, -0.44, -0.1, -0.00034392
DataValue, -0.452, -0.1, -0.0003443
DataValue, -0.464, -0.1, -0.00034504
DataValue, -0.47600000000000003, -0.1, -0.00034474
DataValue, -0.48800000000000004, -0.1, -0.00034480000000000003
DataValue, -0.5, -0.1, -0.00034538
DataValue, -0.5, -0.1, -0.00034534
DataValue, -0.48800000000000004, -0.1, -0.00034460000000000003
DataValue, -0.47600000000000003, -0.1, -0.00034452
DataValue, -0.464, -0.1, -0.00034464
DataValue, -0.452, -0.1, -0.00034388
DataValue, -0.44, -0.1, -0.00034328
DataValue, -0.42800000000000005, -0.1, -0.00034326
DataValue, -0.41600000000000004, -0.1, -0.00034290000000000004
DataValue, -0.404, -0.1, -0.00034176000000000003
DataValue, -0.392, -0.1, -0.00034102000000000004
DataValue, -0.38, -0.1, -0.00034092000000000004
DataValue, -0.368, -0.1, -0.0003399
DataValue, -0.35600000000000004, -0.1, -0.0003388
DataValue, -0.34400000000000003, -0.1, -0.00033850000000000004
DataValue, -0.332, -0.1, -0.0003376
DataValue, -0.32, -0.1, -0.00033634
DataValue, -0.308, -0.1, -0.00033570000000000003
DataValue, -0.29600000000000004, -0.1, -0.00033458
DataValue, -0.28400000000000003, -0.1, -0.0003329
DataValue, -0.272, -0.1, -0.00033130000000000003
DataValue, -0.26, -0.1, -0.00032982000000000004
DataValue, -0.248, -0.1, -0.00032746
DataValue, -0.23600000000000002, -0.1, -0.00032444
DataValue, -0.224, -0.1, -0.00032166000000000003
DataValue, -0.21200000000000002, -0.1, -0.00031832000000000003
DataValue, -0.2, -0.1, -0.00031342
DataValue, -0.188, -0.1, -0.00030786
DataValue, -0.17600000000000002, -0.1, -0.00030194
DataValue, -0.164, -0.1, -0.0002946
DataValue, -0.152, -0.1, -0.00028542000000000004
DataValue, -0.14, -0.1, -0.00027516000000000004
DataValue, -0.128, -0.1, -0.0002636
DataValue, -0.116, -0.1, -0.00025012
DataValue, -0.10400000000000001, -0.1, -0.00023446
DataValue, -0.092, -0.1, -0.0002168
DataValue, -0.08, -0.1, -0.00019732000000000002
DataValue, -0.068, -0.1, -0.00017544000000000001
DataValue, -0.056, -0.1, -0.00015074
DataValue, -0.044000000000000004, -0.1, -0.00012364
DataValue, -0.032, -0.1, -9.457E-05
DataValue, -0.02, -0.1, -6.1366000000000008E-05
DataValue, -0.008, -0.1, -2.5668000000000002E-05
DataValue, 0.004, -0.1, 1.2846E-05
DataValue, 0.016, -0.1, 5.481E-05
DataValue, 0.028, -0.1, 0.00010020600000000001
DataValue, 0.04, -0.1, 0.00015032
DataValue, 0.052000000000000005, -0.1, 0.0002021
DataValue, 0.064, -0.1, 0.00025764
DataValue, 0.076, -0.1, 0.0003172
DataValue, 0.088000000000000009, -0.1, 0.00037988000000000003
DataValue, 0.1, -0.1, 0.00044578
DataValue, 0.1, -0.2, 0.00068564000000000006
DataValue, 0.088000000000000009, -0.2, 0.00059234
DataValue, 0.076, -0.2, 0.00050202
DataValue, 0.064, -0.2, 0.00041428000000000005
DataValue, 0.052000000000000005, -0.2, 0.00032922
DataValue, 0.04, -0.2, 0.0002478
DataValue, 0.028, -0.2, 0.00016952000000000002
DataValue, 0.016, -0.2, 9.4204000000000008E-05
DataValue, 0.004, -0.2, 2.2736E-05
DataValue, -0.008, -0.2, -4.5902E-05
DataValue, -0.02, -0.2, -0.00011081200000000001
DataValue, -0.032, -0.2, -0.00017192000000000002
DataValue, -0.044000000000000004, -0.2, -0.00023008000000000002
DataValue, -0.056, -0.2, -0.0002854
DataValue, -0.068, -0.2, -0.00033676
DataValue, -0.08, -0.2, -0.00038472
