
SetupTitle, (c2) Transfer curve in LGP
PrimitiveTest, I/V Sweep
TestParameter, Context.MainFrame, B1500A
TestParameter, Channel.UnitType, SMU, SMU
TestParameter, Channel.Unit, SMU1:HR/AS, SMU2:HR/AS
TestParameter, Channel.IName, Ig, Id
TestParameter, Channel.VName, Vg, Vd
TestParameter, Channel.Mode, V, V
TestParameter, Channel.Func, VAR1, VAR2
TestParameter, Channel.Index, 
TestParameter, Channel.Time, 
TestParameter, Measurement.Port.Unit, SMU1:HR/AS, SMU2:HR/AS
TestParameter, Measurement.Port.SeriesResistor, NONE, NONE
TestParameter, Measurement.Port.Filter, ON, ON
TestParameter, Measurement.Port.OutputVoltageComparison, 0, 0
TestParameter, Measurement.Primary.Locus, Double
TestParameter, Measurement.Primary.Scale, LINEAR
TestParameter, Measurement.Primary.Start, 0.1
TestParameter, Measurement.Primary.Stop, -0.4
TestParameter, Measurement.Primary.Step, -0.01
TestParameter, Measurement.Primary.Compliance, 0.1
TestParameter, Measurement.Primary.PowerCompliance, 1
TestParameter, Measurement.Aborting.Condition, SKIP AT ANY ABNORMAL
TestParameter, Measurement.PostOutput.Value, START
TestParameter, Measurement.PostOutput.Retention, OFF
TestParameter, Measurement.Secondary.Start, -0.25
TestParameter, Measurement.Secondary.Count, 5
TestParameter, Measurement.Secondary.Step, 0
TestParameter, Measurement.Secondary.Compliance, 0.1
TestParameter, Measurement.Secondary.PowerCompliance, 1
TestParameter, Measurement.Bias.Source, 0.1, -0.25
TestParameter, Measurement.Bias.Compliance, 0.1, 0.1
TestParameter, Measurement.Monitor.Unit, SMU1:HR/AS, SMU2:HR/AS
TestParameter, Measurement.Monitor.Adc, HR ADC, HR ADC
TestParameter, Measurement.Monitor.Measurement, Compliance Side, Compliance Side
TestParameter, Measurement.Monitor.RangingMode, LIMITED, LIMITED
TestParameter, Measurement.Monitor.RangeBoundary, 1nA, 1nA
TestParameter, Measurement.Monitor.RangeRating, BY FULL RANGE, BY FULL RANGE
TestParameter, Measurement.Monitor.RangeRatingCoeff, 50, 50
TestParameter, Measurement.Timing.Hold, 0
TestParameter, Measurement.Timing.Delay, 0
TestParameter, Measurement.Adc.HighSpeed.Mode, AUTO
TestParameter, Measurement.Adc.HighSpeed.Coeff, 1
TestParameter, Measurement.Adc.HighResolution.AutoZero, OFF
TestParameter, Measurement.Adc.HighResolution.Mode, AUTO
TestParameter, Measurement.Adc.HighResolution.Coeff, 6
TestParameter, Measurement.WaitTime.Source.Coeff, 1
TestParameter, Measurement.WaitTime.Source.Offset, 0
TestParameter, Measurement.WaitTime.Monitor.Coeff, 1
TestParameter, Measurement.WaitTime.Monitor.Offset, 0
TestParameter, Output.Graph.Enabled, true
TestParameter, Output.Graph.AutoScaling, false
TestParameter, Output.Graph.XAxis.Data, Vg
TestParameter, Output.Graph.XAxis.Scale, Linear
TestParameter, Output.Graph.XAxis.Left, 0.60000000000000009
TestParameter, Output.Graph.XAxis.Right, -0.60000000000000009
TestParameter, Output.Graph.XAxis.RunTimeAutoScale, true
TestParameter, Output.Graph.YAxis.Data, Id
TestParameter, Output.Graph.YAxis.Scale, Linear
TestParameter, Output.Graph.YAxis.Bottom, -0.1
TestParameter, Output.Graph.YAxis.Top, 0.1
TestParameter, Output.Graph.YAxis.Group, 
TestParameter, Output.Graph.YAxis.RunTimeAutoScale, true
TestParameter, Output.List.Data, Vd, Vg, Id
TestParameter, AutoAnalysis.Interpolation, false
TestParameter, AutoAnalysis.Var2StepCount, 1
TestParameter, AutoAnalysis.Var2StepScript, 
TestParameter, AutoAnalysis.Line1.Enabled, false
TestParameter, AutoAnalysis.Line1.Type, 1
TestParameter, AutoAnalysis.Line1.Fix, True
TestParameter, AutoAnalysis.Line1.YAxis, 0
TestParameter, AutoAnalysis.Line1.Point1.Type, 0
TestParameter, AutoAnalysis.Line1.Point1.XY.X, 
TestParameter, AutoAnalysis.Line1.Point1.XY.Y, 
TestParameter, AutoAnalysis.Line1.Point1.Data.Var, 
TestParameter, AutoAnalysis.Line1.Point1.Data.Condition, 
TestParameter, AutoAnalysis.Line1.Point1.Data.Start, false
TestParameter, AutoAnalysis.Line1.Point1.Data.StartVar, 
TestParameter, AutoAnalysis.Line1.Point1.Data.StartCondition, 
TestParameter, AutoAnalysis.Line1.Point2.Type, 0
TestParameter, AutoAnalysis.Line1.Point2.XY.X, 
TestParameter, AutoAnalysis.Line1.Point2.XY.Y, 
TestParameter, AutoAnalysis.Line1.Point2.Data.Var, 
TestParameter, AutoAnalysis.Line1.Point2.Data.Condition, 
TestParameter, AutoAnalysis.Line1.Point2.Data.Start, false
TestParameter, AutoAnalysis.Line1.Point2.Data.StartVar, 
TestParameter, AutoAnalysis.Line1.Point2.Data.StartCondition, 
TestParameter, AutoAnalysis.Line1.GradientExpr, 0
TestParameter, AutoAnalysis.Line2.Enabled, false
TestParameter, AutoAnalysis.Line2.Type, 1
TestParameter, AutoAnalysis.Line2.Fix, True
TestParameter, AutoAnalysis.Line2.YAxis, 0
TestParameter, AutoAnalysis.Line2.Point1.Type, 0
TestParameter, AutoAnalysis.Line2.Point1.XY.X, 
TestParameter, AutoAnalysis.Line2.Point1.XY.Y, 
TestParameter, AutoAnalysis.Line2.Point1.Data.Var, 
TestParameter, AutoAnalysis.Line2.Point1.Data.Condition, 
TestParameter, AutoAnalysis.Line2.Point1.Data.Start, false
TestParameter, AutoAnalysis.Line2.Point1.Data.StartVar, 
TestParameter, AutoAnalysis.Line2.Point1.Data.StartCondition, 
TestParameter, AutoAnalysis.Line2.Point2.Type, 0
TestParameter, AutoAnalysis.Line2.Point2.XY.X, 
TestParameter, AutoAnalysis.Line2.Point2.XY.Y, 
TestParameter, AutoAnalysis.Line2.Point2.Data.Var, 
TestParameter, AutoAnalysis.Line2.Point2.Data.Condition, 
TestParameter, AutoAnalysis.Line2.Point2.Data.Start, false
TestParameter, AutoAnalysis.Line2.Point2.Data.StartVar, 
TestParameter, AutoAnalysis.Line2.Point2.Data.StartCondition, 
TestParameter, AutoAnalysis.Line2.GradientExpr, 0
TestParameter, AutoAnalysis.Marker.Enabled, false
TestParameter, AutoAnalysis.Marker.Data.Var, 
TestParameter, AutoAnalysis.Marker.Data.Condition, 
TestParameter, AutoAnalysis.Marker.Data.Start, false
TestParameter, AutoAnalysis.Marker.Data.StartVar, 
TestParameter, AutoAnalysis.Marker.Data.StartCondition, 
MetaData, TestRecord.EntryPoint, true
MetaData, TestRecord.RecordTime, 11/20/2024 01:36:51
MetaData, TestRecord.TestTarget, 
MetaData, TestRecord.IterationIndex, 6
MetaData, TestRecord.Preservation, true
MetaData, TestRecord.Flag, 
MetaData, TestRecord.Remarks, s20c2
MetaData, TestRecord.LinkKey, bb691a98-7f03-4707-b2a4-cc050acdfa3f
MetaData, TestRecord.Parameters, 
Dimension1, 102, 102, 102
Dimension2, 5, 5, 5
DataName, Vg, Vd, Id
DataValue, 0.1, -0.25, -1.1236E-05
DataValue, 0.090000000000000011, -0.25, -1.3788E-05
DataValue, 0.08, -0.25, -1.7002E-05
DataValue, 0.07, -0.25, -2.0618E-05
DataValue, 0.060000000000000005, -0.25, -2.5004E-05
DataValue, 0.05, -0.25, -3.021E-05
DataValue, 0.04, -0.25, -3.6E-05
DataValue, 0.030000000000000002, -0.25, -4.2666E-05
DataValue, 0.02, -0.25, -5.0382E-05
DataValue, 0.01, -0.25, -5.8882E-05
DataValue, 0, -0.25, -6.842E-05
DataValue, -0.01, -0.25, -7.928E-05
DataValue, -0.02, -0.25, -9.1016E-05
DataValue, -0.030000000000000002, -0.25, -0.00010393
DataValue, -0.04, -0.25, -0.00012062000000000001
DataValue, -0.05, -0.25, -0.0001359
DataValue, -0.060000000000000005, -0.25, -0.00015250000000000002
DataValue, -0.07, -0.25, -0.00017056000000000002
DataValue, -0.08, -0.25, -0.00019038
DataValue, -0.090000000000000011, -0.25, -0.00021164
DataValue, -0.1, -0.25, -0.00023394000000000003
DataValue, -0.11, -0.25, -0.00025816
DataValue, -0.12000000000000001, -0.25, -0.00028414
DataValue, -0.13, -0.25, -0.000311
DataValue, -0.14, -0.25, -0.00033952
DataValue, -0.15, -0.25, -0.00037036
DataValue, -0.16, -0.25, -0.00040206000000000004
DataValue, -0.17, -0.25, -0.00043502000000000005
DataValue, -0.18000000000000002, -0.25, -0.00046992000000000003
DataValue, -0.19, -0.25, -0.0005062
DataValue, -0.2, -0.25, -0.0005438
DataValue, -0.21000000000000002, -0.25, -0.0005821
DataValue, -0.22, -0.25, -0.00062244
DataValue, -0.23, -0.25, -0.00066458
DataValue, -0.24000000000000002, -0.25, -0.0007067
DataValue, -0.25, -0.25, -0.00075090000000000009
DataValue, -0.26, -0.25, -0.00079526
DataValue, -0.27, -0.25, -0.00084048
DataValue, -0.28, -0.25, -0.00088742000000000009
DataValue, -0.29000000000000004, -0.25, -0.00093482
DataValue, -0.3, -0.25, -0.00098228
DataValue, -0.31, -0.25, -0.00103114
DataValue, -0.32, -0.25, -0.00108046
DataValue, -0.33, -0.25, -0.0011298200000000001
DataValue, -0.34, -0.25, -0.00119
DataValue, -0.35000000000000003, -0.25, -0.0012372
DataValue, -0.36000000000000004, -0.25, -0.0012858
DataValue, -0.37, -0.25, -0.0013352
DataValue, -0.38, -0.25, -0.0013836
DataValue, -0.39, -0.25, -0.0014324000000000001
DataValue, -0.4, -0.25, -0.0014812
DataValue, -0.4, -0.25, -0.0014836
DataValue, -0.39, -0.25, -0.0014406
DataValue, -0.38, -0.25, -0.0013956
DataValue, -0.37, -0.25, -0.00135
DataValue, -0.36000000000000004, -0.25, -0.0013032
DataValue, -0.35000000000000003, -0.25, -0.0012558
DataValue, -0.34, -0.25, -0.0012082
DataValue, -0.33, -0.25, -0.0011608
DataValue, -0.32, -0.25, -0.001112
DataValue, -0.31, -0.25, -0.0010644
DataValue, -0.3, -0.25, -0.0010172
DataValue, -0.29000000000000004, -0.25, -0.0009677
DataValue, -0.28, -0.25, -0.0009221
DataValue, -0.27, -0.25, -0.00087574000000000007
DataValue, -0.26, -0.25, -0.00082984000000000009
DataValue, -0.25, -0.25, -0.0007856
DataValue, -0.24000000000000002, -0.25, -0.00074146
DataValue, -0.23, -0.25, -0.00069808
DataValue, -0.22, -0.25, -0.00065608000000000007
DataValue, -0.21000000000000002, -0.25, -0.00061544000000000008
DataValue, -0.2, -0.25, -0.00057460000000000009
DataValue, -0.19, -0.25, -0.00053644
DataValue, -0.18000000000000002, -0.25, -0.00049962
DataValue, -0.17, -0.25, -0.00046352000000000003
DataValue, -0.16, -0.25, -0.00042864000000000004
DataValue, -0.15, -0.25, -0.00039564
DataValue, -0.14, -0.25, -0.00036388
DataValue, -0.13, -0.25, -0.00033350000000000003
DataValue, -0.12000000000000001, -0.25, -0.00030464
DataValue, -0.11, -0.25, -0.00027764
DataValue, -0.1, -0.25, -0.00025204000000000003
DataValue, -0.090000000000000011, -0.25, -0.00022728
DataValue, -0.08, -0.25, -0.00020508
DataValue, -0.07, -0.25, -0.00018418000000000002
DataValue, -0.060000000000000005, -0.25, -0.00016428000000000002
DataValue, -0.05, -0.25, -0.00014608
DataValue, -0.04, -0.25, -0.0001295
DataValue, -0.030000000000000002, -0.25, -0.00011402000000000001
DataValue, -0.02, -0.25, -9.984E-05
DataValue, -0.01, -0.25, -8.6568E-05
DataValue, 0, -0.25, -7.5202E-05
DataValue, 0.01, -0.25, -6.4698E-05
DataValue, 0.02, -0.25, -5.5396E-05
DataValue, 0.030000000000000002, -0.25, -4.7158000000000005E-05
DataValue, 0.04, -0.25, -3.9524E-05
DataValue, 0.05, -0.25, -3.3026E-05
DataValue, 0.060000000000000005, -0.25, -2.7426E-05
DataValue, 0.07, -0.25, -2.2514E-05
DataValue, 0.08, -0.25, -1.8168E-05
DataValue, 0.090000000000000011, -0.25, -1.4504E-05
DataValue, 0.1, -0.25, -1.1486E-05
DataValue, 0.1, -0.25, -9.7098000000000015E-06
DataValue, 0.090000000000000011, -0.25, -1.2100000000000001E-05
DataValue, 0.08, -0.25, -1.4926E-05
DataValue, 0.07, -0.25, -1.8174E-05
DataValue, 0.060000000000000005, -0.25, -2.2166E-05
DataValue, 0.05, -0.25, -2.6908E-05
DataValue, 0.04, -0.25, -3.2202E-05
DataValue, 0.030000000000000002, -0.25, -3.837E-05
DataValue, 0.02, -0.25, -4.5552E-05
DataValue, 0.01, -0.25, -5.3466E-05
DataValue, 0, -0.25, -6.2324000000000008E-05
DataValue, -0.01, -0.25, -7.2598E-05
DataValue, -0.02, -0.25, -8.3738E-05
DataValue, -0.030000000000000002, -0.25, -9.5936E-05
DataValue, -0.04, -0.25, -0.000109586
DataValue, -0.05, -0.25, -0.00012816000000000002
DataValue, -0.060000000000000005, -0.25, -0.00014408000000000002
DataValue, -0.07, -0.25, -0.00016140000000000002
DataValue, -0.08, -0.25, -0.0001807
DataValue, -0.090000000000000011, -0.25, -0.00020134000000000002
DataValue, -0.1, -0.25, -0.00022326000000000003
DataValue, -0.11, -0.25, -0.00024694
DataValue, -0.12000000000000001, -0.25, -0.00027234000000000004
DataValue, -0.13, -0.25, -0.00029926000000000003
DataValue, -0.14, -0.25, -0.0003278
DataValue, -0.15, -0.25, -0.00035820000000000003
DataValue, -0.16, -0.25, -0.0003902
DataValue, -0.17, -0.25, -0.00042308000000000005
DataValue, -0.18000000000000002, -0.25, -0.0004578
DataValue, -0.19, -0.25, -0.00049446000000000006
DataValue, -0.2, -0.25, -0.00053174000000000006
DataValue, -0.21000000000000002, -0.25, -0.00057078
DataValue, -0.22, -0.25, -0.00061168000000000008
DataValue, -0.23, -0.25, -0.00065302
DataValue, -0.24000000000000002, -0.25, -0.00069562000000000009
DataValue, -0.25, -0.25, -0.0007402
DataValue, -0.26, -0.25, -0.00078514
DataValue, -0.27, -0.25, -0.00083082
DataValue, -0.28, -0.25, -0.00087816
DataValue, -0.29000000000000004, -0.25, -0.00092618000000000008
DataValue, -0.3, -0.25, -0.00097408000000000011
DataValue, -0.31, -0.25, -0.00102334
DataValue, -0.32, -0.25, -0.00107332
DataValue, -0.33, -0.25, -0.00112276
DataValue, -0.34, -0.25, -0.0011844
DataValue, -0.35000000000000003, -0.25, -0.0012318000000000001
DataValue, -0.36000000000000004, -0.25, -0.0012808000000000001
DataValue, -0.37, -0.25, -0.0013306
DataValue, -0.38, -0.25, -0.0013794
DataValue, -0.39, -0.25, -0.001428
DataValue, -0.4, -0.25, -0.0014772000000000001
DataValue, -0.4, -0.25, -0.0014796
DataValue, -0.39, -0.25, -0.0014366000000000001
DataValue, -0.38, -0.25, -0.001392
DataValue, -0.37, -0.25, -0.0013466
DataValue, -0.36000000000000004, -0.25, -0.0012996
DataValue, -0.35000000000000003, -0.25, -0.001252
DataValue, -0.34, -0.25, -0.0012048
DataValue, -0.33, -0.25, -0.0011566
DataValue, -0.32, -0.25, -0.0011078
DataValue, -0.31, -0.25, -0.0010602
DataValue, -0.3, -0.25, -0.001013
DataValue, -0.29000000000000004, -0.25, -0.00096318000000000011
DataValue, -0.28, -0.25, -0.00091746
DataValue, -0.27, -0.25, -0.00087112000000000008
DataValue, -0.26, -0.25, -0.00082478
DataValue, -0.25, -0.25, -0.00078022000000000009
DataValue, -0.24000000000000002, -0.25, -0.00073546000000000006
DataValue, -0.23, -0.25, -0.00069206000000000009
DataValue, -0.22, -0.25, -0.00065000000000000008
DataValue, -0.21000000000000002, -0.25, -0.00060900000000000006
DataValue, -0.2, -0.25, -0.00056892
DataValue, -0.19, -0.25, -0.00052980000000000008
DataValue, -0.18000000000000002, -0.25, -0.00049224
DataValue, -0.17, -0.25, -0.00045668000000000005
DataValue, -0.16, -0.25, -0.0004217
DataValue, -0.15, -0.25, -0.00038812000000000004
DataValue, -0.14, -0.25, -0.00035678
DataValue, -0.13, -0.25, -0.0003266
DataValue, -0.12000000000000001, -0.25, -0.00029752
DataValue, -0.11, -0.25, -0.0002707
DataValue, -0.1, -0.25, -0.00024504
DataValue, -0.090000000000000011, -0.25, -0.00022114000000000001
DataValue, -0.08, -0.25, -0.00019874
DataValue, -0.07, -0.25, -0.00017796
DataValue, -0.060000000000000005, -0.25, -0.00015884000000000002
DataValue, -0.05, -0.25, -0.0001408
DataValue, -0.04, -0.25, -0.00012426
DataValue, -0.030000000000000002, -0.25, -0.00010942
DataValue, -0.02, -0.25, -9.485E-05
DataValue, -0.01, -0.25, -8.2844000000000008E-05
DataValue, 0, -0.25, -7.1696E-05
DataValue, 0.01, -0.25, -6.1618E-05
DataValue, 0.02, -0.25, -5.259E-05
DataValue, 0.030000000000000002, -0.25, -4.4556E-05
DataValue, 0.04, -0.25, -3.757E-05
DataValue, 0.05, -0.25, -3.1272E-05
DataValue, 0.060000000000000005, -0.25, -2.5842E-05
DataValue, 0.07, -0.25, -2.1264000000000002E-05
DataValue, 0.08, -0.25, -1.7242000000000002E-05
DataValue, 0.090000000000000011, -0.25, -1.3690000000000001E-05
DataValue, 0.1, -0.25, -1.0858E-05
DataValue, 0.1, -0.25, -9.5048000000000009E-06
DataValue, 0.090000000000000011, -0.25, -1.1832000000000001E-05
DataValue, 0.08, -0.25, -1.4586E-05
DataValue, 0.07, -0.25, -1.776E-05
DataValue, 0.060000000000000005, -0.25, -2.1646000000000002E-05
DataValue, 0.05, -0.25, -2.6264E-05
DataValue, 0.04, -0.25, -3.149E-05
DataValue, 0.030000000000000002, -0.25, -3.7482000000000005E-05
DataValue, 0.02, -0.25, -4.4546000000000003E-05
DataValue, 0.01, -0.25, -5.2356000000000005E-05
DataValue, 0, -0.25, -6.1230000000000008E-05
DataValue, -0.01, -0.25, -7.1232E-05
DataValue, -0.02, -0.25, -8.2338E-05
DataValue, -0.030000000000000002, -0.25, -9.4368E-05
DataValue, -0.04, -0.25, -0.000108038
DataValue, -0.05, -0.25, -0.0001263
DataValue, -0.060000000000000005, -0.25, -0.00014182000000000002
DataValue, -0.07, -0.25, -0.00015926000000000002
DataValue, -0.08, -0.25, -0.00017832000000000001
DataValue, -0.090000000000000011, -0.25, -0.00019886
DataValue, -0.1, -0.25, -0.00022052
DataValue, -0.11, -0.25, -0.00024416
DataValue, -0.12000000000000001, -0.25, -0.00026964000000000003
DataValue, -0.13, -0.25, -0.00029594
DataValue, -0.14, -0.25, -0.00032414
DataValue, -0.15, -0.25, -0.00035478
DataValue, -0.16, -0.25, -0.00038608
DataValue, -0.17, -0.25, -0.00041892000000000003
DataValue, -0.18000000000000002, -0.25, -0.00045410000000000003
DataValue, -0.19, -0.25, -0.00049032
DataValue, -0.2, -0.25, -0.00052816000000000007
DataValue, -0.21000000000000002, -0.25, -0.0005668
DataValue, -0.22, -0.25, -0.00060734
DataValue, -0.23, -0.25, -0.00064908
DataValue, -0.24000000000000002, -0.25, -0.00069144000000000009
DataValue, -0.25, -0.25, -0.00073554
DataValue, -0.26, -0.25, -0.0007826
DataValue, -0.27, -0.25, -0.00082798000000000008
DataValue, -0.28, -0.25, -0.00087538
DataValue, -0.29000000000000004, -0.25, -0.00092356
DataValue, -0.3, -0.25, -0.00097156000000000011
DataValue, -0.31, -0.25, -0.00102082
DataValue, -0.32, -0.25, -0.00107112
DataValue, -0.33, -0.25, -0.00112064
DataValue, -0.34, -0.25, -0.0011826
DataValue, -0.35000000000000003, -0.25, -0.0012302
DataValue, -0.36000000000000004, -0.25, -0.00128
DataValue, -0.37, -0.25, -0.0013292
DataValue, -0.38, -0.25, -0.001378
DataValue, -0.39, -0.25, -0.0014268
DataValue, -0.4, -0.25, -0.0014758
DataValue, -0.4, -0.25, -0.0014782
DataValue, -0.39, -0.25, -0.0014354
DataValue, -0.38, -0.25, -0.0013908
DataValue, -0.37, -0.25, -0.0013454
DataValue, -0.36000000000000004, -0.25, -0.0012982
DataValue, -0.35000000000000003, -0.25, -0.001251
DataValue, -0.34, -0.25, -0.0012038
DataValue, -0.33, -0.25, -0.0011554
DataValue, -0.32, -0.25, -0.0011070000000000001
DataValue, -0.31, -0.25, -0.0010594
DataValue, -0.3, -0.25, -0.0010116
DataValue, -0.29000000000000004, -0.25, -0.00096184
DataValue, -0.28, -0.25, -0.000916
DataValue, -0.27, -0.25, -0.00086924000000000007
DataValue, -0.26, -0.25, -0.00082314000000000009
DataValue, -0.25, -0.25, -0.00077854000000000009
DataValue, -0.24000000000000002, -0.25, -0.00073402
DataValue, -0.23, -0.25, -0.00069026
DataValue, -0.22, -0.25, -0.00064832000000000008
DataValue, -0.21000000000000002, -0.25, -0.00060696
DataValue, -0.2, -0.25, -0.0005664
DataValue, -0.19, -0.25, -0.00052786
DataValue, -0.18000000000000002, -0.25, -0.00049048000000000006
DataValue, -0.17, -0.25, -0.00045392
DataValue, -0.16, -0.25, -0.0004193
DataValue, -0.15, -0.25, -0.00038634000000000004
DataValue, -0.14, -0.25, -0.00035426
DataValue, -0.13, -0.25, -0.000324
DataValue, -0.12000000000000001, -0.25, -0.00029582
DataValue, -0.11, -0.25, -0.00026862
DataValue, -0.1, -0.25, -0.00024310000000000003
DataValue, -0.090000000000000011, -0.25, -0.00021952
DataValue, -0.08, -0.25, -0.00019734
DataValue, -0.07, -0.25, -0.00017602
DataValue, -0.060000000000000005, -0.25, -0.00015694
DataValue, -0.05, -0.25, -0.00013942000000000002
DataValue, -0.04, -0.25, -0.00012308000000000002
DataValue, -0.030000000000000002, -0.25, -0.00010804
DataValue, -0.02, -0.25, -9.3856E-05
DataValue, -0.01, -0.25, -8.1772E-05
DataValue, 0, -0.25, -7.0684E-05
DataValue, 0.01, -0.25, -6.0734000000000005E-05
DataValue, 0.02, -0.25, -5.1918E-05
DataValue, 0.030000000000000002, -0.25, -4.3706000000000005E-05
DataValue, 0.04, -0.25, -3.683E-05
DataValue, 0.05, -0.25, -3.0834E-05
DataValue, 0.060000000000000005, -0.25, -2.542E-05
DataValue, 0.07, -0.25, -2.077E-05
DataValue, 0.08, -0.25, -1.685E-05
DataValue, 0.090000000000000011, -0.25, -1.3566E-05
DataValue, 0.1, -0.25, -1.073E-05
DataValue, 0.1, -0.25, -9.2007000000000015E-06
DataValue, 0.090000000000000011, -0.25, -1.1311400000000002E-05
DataValue, 0.08, -0.25, -1.45E-05
DataValue, 0.07, -0.25, -1.7518E-05
DataValue, 0.060000000000000005, -0.25, -2.1298000000000002E-05
DataValue, 0.05, -0.25, -2.5808E-05
