
SetupTitle, (c1) Output curve in LGP
PrimitiveTest, I/V Sweep
TestParameter, Context.MainFrame, B1500A
TestParameter, Channel.UnitType, SMU, SMU
TestParameter, Channel.Unit, SMU1:HR/AS, SMU2:HR/AS
TestParameter, Channel.IName, Ig, Id
TestParameter, Channel.VName, Vg, Vd
TestParameter, Channel.Mode, V, V
TestParameter, Channel.Func, VAR2, VAR1
TestParameter, Channel.Index, 
TestParameter, Channel.Time, 
TestParameter, Measurement.Port.Unit, SMU1:HR/AS, SMU2:HR/AS
TestParameter, Measurement.Port.SeriesResistor, NONE, NONE
TestParameter, Measurement.Port.Filter, ON, ON
TestParameter, Measurement.Port.OutputVoltageComparison, 0, 0
TestParameter, Measurement.Primary.Locus, Double
TestParameter, Measurement.Primary.Scale, LINEAR
TestParameter, Measurement.Primary.Start, 0.1
TestParameter, Measurement.Primary.Stop, -0.5
TestParameter, Measurement.Primary.Step, -0.012
TestParameter, Measurement.Primary.Compliance, 0.1
TestParameter, Measurement.Primary.PowerCompliance, 0
TestParameter, Measurement.Aborting.Condition, CONTINUE AT ANY
TestParameter, Measurement.PostOutput.Value, START
TestParameter, Measurement.PostOutput.Retention, OFF
TestParameter, Measurement.Secondary.Start, 0.1
TestParameter, Measurement.Secondary.Count, 6
TestParameter, Measurement.Secondary.Step, -0.1
TestParameter, Measurement.Secondary.Compliance, 0.0001
TestParameter, Measurement.Secondary.PowerCompliance, 0
TestParameter, Measurement.Bias.Source, 0.1, 0.1
TestParameter, Measurement.Bias.Compliance, 0.0001, 0.1
TestParameter, Measurement.Monitor.Unit, SMU1:HR/AS, SMU2:HR/AS
TestParameter, Measurement.Monitor.Adc, HR ADC, HR ADC
TestParameter, Measurement.Monitor.Measurement, Compliance Side, Compliance Side
TestParameter, Measurement.Monitor.RangingMode, LIMITED, LIMITED
TestParameter, Measurement.Monitor.RangeBoundary, 1nA, 1nA
TestParameter, Measurement.Monitor.RangeRating, BY FULL RANGE, BY FULL RANGE
TestParameter, Measurement.Monitor.RangeRatingCoeff, 50, 50
TestParameter, Measurement.Timing.Hold, 0
TestParameter, Measurement.Timing.Delay, 0
TestParameter, Measurement.Adc.HighSpeed.Mode, AUTO
TestParameter, Measurement.Adc.HighSpeed.Coeff, 1
TestParameter, Measurement.Adc.HighResolution.AutoZero, OFF
TestParameter, Measurement.Adc.HighResolution.Mode, AUTO
TestParameter, Measurement.Adc.HighResolution.Coeff, 6
TestParameter, Measurement.WaitTime.Source.Coeff, 1
TestParameter, Measurement.WaitTime.Source.Offset, 0
TestParameter, Measurement.WaitTime.Monitor.Coeff, 1
TestParameter, Measurement.WaitTime.Monitor.Offset, 0
TestParameter, Output.Graph.Enabled, true
TestParameter, Output.Graph.AutoScaling, false
TestParameter, Output.Graph.XAxis.Data, Vd
TestParameter, Output.Graph.XAxis.Scale, Linear
TestParameter, Output.Graph.XAxis.Left, 0
TestParameter, Output.Graph.XAxis.Right, -0.5
TestParameter, Output.Graph.XAxis.RunTimeAutoScale, true
TestParameter, Output.Graph.YAxis.Data, Id
TestParameter, Output.Graph.YAxis.Scale, Linear
TestParameter, Output.Graph.YAxis.Bottom, -0.1
TestParameter, Output.Graph.YAxis.Top, 0.1
TestParameter, Output.Graph.YAxis.Group, 
TestParameter, Output.Graph.YAxis.RunTimeAutoScale, true
TestParameter, Output.List.Data, Vd, Vg, Id
TestParameter, AutoAnalysis.Interpolation, false
TestParameter, AutoAnalysis.Var2StepCount, 1
TestParameter, AutoAnalysis.Var2StepScript, 
TestParameter, AutoAnalysis.Line1.Enabled, false
TestParameter, AutoAnalysis.Line1.Type, 1
TestParameter, AutoAnalysis.Line1.Fix, True
TestParameter, AutoAnalysis.Line1.YAxis, 0
TestParameter, AutoAnalysis.Line1.Point1.Type, 0
TestParameter, AutoAnalysis.Line1.Point1.XY.X, 
TestParameter, AutoAnalysis.Line1.Point1.XY.Y, 
TestParameter, AutoAnalysis.Line1.Point1.Data.Var, 
TestParameter, AutoAnalysis.Line1.Point1.Data.Condition, 
TestParameter, AutoAnalysis.Line1.Point1.Data.Start, false
TestParameter, AutoAnalysis.Line1.Point1.Data.StartVar, 
TestParameter, AutoAnalysis.Line1.Point1.Data.StartCondition, 
TestParameter, AutoAnalysis.Line1.Point2.Type, 0
TestParameter, AutoAnalysis.Line1.Point2.XY.X, 
TestParameter, AutoAnalysis.Line1.Point2.XY.Y, 
TestParameter, AutoAnalysis.Line1.Point2.Data.Var, 
TestParameter, AutoAnalysis.Line1.Point2.Data.Condition, 
TestParameter, AutoAnalysis.Line1.Point2.Data.Start, false
TestParameter, AutoAnalysis.Line1.Point2.Data.StartVar, 
TestParameter, AutoAnalysis.Line1.Point2.Data.StartCondition, 
TestParameter, AutoAnalysis.Line1.GradientExpr, 0
TestParameter, AutoAnalysis.Line2.Enabled, false
TestParameter, AutoAnalysis.Line2.Type, 1
TestParameter, AutoAnalysis.Line2.Fix, True
TestParameter, AutoAnalysis.Line2.YAxis, 0
TestParameter, AutoAnalysis.Line2.Point1.Type, 0
TestParameter, AutoAnalysis.Line2.Point1.XY.X, 
TestParameter, AutoAnalysis.Line2.Point1.XY.Y, 
TestParameter, AutoAnalysis.Line2.Point1.Data.Var, 
TestParameter, AutoAnalysis.Line2.Point1.Data.Condition, 
TestParameter, AutoAnalysis.Line2.Point1.Data.Start, false
TestParameter, AutoAnalysis.Line2.Point1.Data.StartVar, 
TestParameter, AutoAnalysis.Line2.Point1.Data.StartCondition, 
TestParameter, AutoAnalysis.Line2.Point2.Type, 0
TestParameter, AutoAnalysis.Line2.Point2.XY.X, 
TestParameter, AutoAnalysis.Line2.Point2.XY.Y, 
TestParameter, AutoAnalysis.Line2.Point2.Data.Var, 
TestParameter, AutoAnalysis.Line2.Point2.Data.Condition, 
TestParameter, AutoAnalysis.Line2.Point2.Data.Start, false
TestParameter, AutoAnalysis.Line2.Point2.Data.StartVar, 
TestParameter, AutoAnalysis.Line2.Point2.Data.StartCondition, 
TestParameter, AutoAnalysis.Line2.GradientExpr, 0
TestParameter, AutoAnalysis.Marker.Enabled, false
TestParameter, AutoAnalysis.Marker.Data.Var, 
TestParameter, AutoAnalysis.Marker.Data.Condition, 
TestParameter, AutoAnalysis.Marker.Data.Start, false
TestParameter, AutoAnalysis.Marker.Data.StartVar, 
TestParameter, AutoAnalysis.Marker.Data.StartCondition, 
MetaData, TestRecord.EntryPoint, true
MetaData, TestRecord.RecordTime, 11/20/2024 01:25:41
MetaData, TestRecord.TestTarget, 
MetaData, TestRecord.IterationIndex, 19
MetaData, TestRecord.Preservation, true
MetaData, TestRecord.Flag, 
MetaData, TestRecord.Remarks, s20c5
MetaData, TestRecord.LinkKey, 37dd5561-aa34-45da-bbd6-792e6520ec6a
MetaData, TestRecord.Parameters, 
Dimension1, 102, 102, 102
Dimension2, 6, 6, 6
DataName, Vd, Vg, Id
DataValue, 0.1, 0.1, 0.00014386000000000002
DataValue, 0.088000000000000009, 0.1, 0.00011618
DataValue, 0.076, 0.1, 9.089200000000001E-05
DataValue, 0.064, 0.1, 6.9878E-05
DataValue, 0.052000000000000005, 0.1, 5.132E-05
DataValue, 0.04, 0.1, 3.5568E-05
DataValue, 0.028, 0.1, 2.2124E-05
DataValue, 0.016, 0.1, 1.1202E-05
DataValue, 0.004, 0.1, 2.3894000000000004E-06
DataValue, -0.008, 0.1, -4.4909000000000005E-06
DataValue, -0.02, 0.1, -9.5989E-06
DataValue, -0.032, 0.1, -1.2752000000000001E-05
DataValue, -0.044000000000000004, 0.1, -1.5614E-05
DataValue, -0.056, 0.1, -1.742E-05
DataValue, -0.068, 0.1, -1.8814E-05
DataValue, -0.08, 0.1, -1.9632E-05
DataValue, -0.092, 0.1, -1.9996E-05
DataValue, -0.10400000000000001, 0.1, -2.0368000000000002E-05
DataValue, -0.116, 0.1, -2.0662E-05
DataValue, -0.128, 0.1, -2.0652E-05
DataValue, -0.14, 0.1, -2.0700000000000002E-05
DataValue, -0.152, 0.1, -2.0892E-05
DataValue, -0.164, 0.1, -2.089E-05
DataValue, -0.17600000000000002, 0.1, -2.0816000000000002E-05
DataValue, -0.188, 0.1, -2.096E-05
DataValue, -0.2, 0.1, -2.1046E-05
DataValue, -0.21200000000000002, 0.1, -2.0948E-05
DataValue, -0.224, 0.1, -2.0994E-05
DataValue, -0.23600000000000002, 0.1, -2.1146E-05
DataValue, -0.248, 0.1, -2.1058E-05
DataValue, -0.26, 0.1, -2.0982E-05
DataValue, -0.272, 0.1, -2.1084E-05
DataValue, -0.28400000000000003, 0.1, -2.106E-05
DataValue, -0.29600000000000004, 0.1, -2.0888E-05
DataValue, -0.308, 0.1, -2.0908E-05
DataValue, -0.32, 0.1, -2.0962E-05
DataValue, -0.332, 0.1, -2.0830000000000002E-05
DataValue, -0.34400000000000003, 0.1, -2.072E-05
DataValue, -0.35600000000000004, 0.1, -2.0804E-05
DataValue, -0.368, 0.1, -2.0772E-05
DataValue, -0.38, 0.1, -2.0602E-05
DataValue, -0.392, 0.1, -2.0634E-05
DataValue, -0.404, 0.1, -2.069E-05
DataValue, -0.41600000000000004, 0.1, -2.0544000000000002E-05
DataValue, -0.42800000000000005, 0.1, -2.0472E-05
DataValue, -0.44, 0.1, -2.0572000000000002E-05
DataValue, -0.452, 0.1, -2.0506E-05
DataValue, -0.464, 0.1, -2.0362E-05
DataValue, -0.47600000000000003, 0.1, -2.0376E-05
DataValue, -0.48800000000000004, 0.1, -2.0466E-05
DataValue, -0.5, 0.1, -2.0322E-05
DataValue, -0.5, 0.1, -2.025E-05
DataValue, -0.48800000000000004, 0.1, -2.0302E-05
DataValue, -0.47600000000000003, 0.1, -2.033E-05
DataValue, -0.464, 0.1, -2.0158E-05
DataValue, -0.452, 0.1, -2.014E-05
DataValue, -0.44, 0.1, -2.0222E-05
DataValue, -0.42800000000000005, 0.1, -2.0106E-05
DataValue, -0.41600000000000004, 0.1, -1.9978E-05
DataValue, -0.404, 0.1, -2.0024E-05
DataValue, -0.392, 0.1, -2.0028000000000002E-05
DataValue, -0.38, 0.1, -1.9878000000000002E-05
DataValue, -0.368, 0.1, -1.993E-05
DataValue, -0.35600000000000004, 0.1, -1.9952E-05
DataValue, -0.34400000000000003, 0.1, -1.9796E-05
DataValue, -0.332, 0.1, -1.9748E-05
DataValue, -0.32, 0.1, -1.9828E-05
DataValue, -0.308, 0.1, -1.973E-05
DataValue, -0.29600000000000004, 0.1, -1.9584E-05
DataValue, -0.28400000000000003, 0.1, -1.9664E-05
DataValue, -0.272, 0.1, -1.964E-05
DataValue, -0.26, 0.1, -1.9452E-05
DataValue, -0.248, 0.1, -1.9408E-05
DataValue, -0.23600000000000002, 0.1, -1.9428E-05
DataValue, -0.224, 0.1, -1.9224E-05
DataValue, -0.21200000000000002, 0.1, -1.9006E-05
DataValue, -0.2, 0.1, -1.897E-05
DataValue, -0.188, 0.1, -1.8802E-05
DataValue, -0.17600000000000002, 0.1, -1.8452000000000002E-05
DataValue, -0.164, 0.1, -1.8256E-05
DataValue, -0.152, 0.1, -1.8108E-05
DataValue, -0.14, 0.1, -1.7756E-05
DataValue, -0.128, 0.1, -1.7386E-05
DataValue, -0.116, 0.1, -1.728E-05
DataValue, -0.10400000000000001, 0.1, -1.674E-05
DataValue, -0.092, 0.1, -1.6122E-05
DataValue, -0.08, 0.1, -1.5602E-05
DataValue, -0.068, 0.1, -1.4762E-05
DataValue, -0.056, 0.1, -1.354E-05
DataValue, -0.044000000000000004, 0.1, -1.2008000000000001E-05
DataValue, -0.032, 0.1, -1.0198100000000002E-05
DataValue, -0.02, 0.1, -7.0629000000000006E-06
DataValue, -0.008, 0.1, -3.1784000000000004E-06
DataValue, 0.004, 0.1, 1.7662000000000001E-06
DataValue, 0.016, 0.1, 8.3814E-06
DataValue, 0.028, 0.1, 1.7256000000000002E-05
DataValue, 0.04, 0.1, 2.7400000000000002E-05
DataValue, 0.052000000000000005, 0.1, 3.998E-05
DataValue, 0.064, 0.1, 5.5310000000000004E-05
DataValue, 0.076, 0.1, 7.3474000000000008E-05
DataValue, 0.088000000000000009, 0.1, 9.4548E-05
DataValue, 0.1, 0.1, 0.00012332
DataValue, 0.1, 0, 0.00036904
DataValue, 0.088000000000000009, 0, 0.00031018
DataValue, 0.076, 0, 0.00025458
DataValue, 0.064, 0, 0.00020296000000000002
DataValue, 0.052000000000000005, 0, 0.000156
DataValue, 0.04, 0, 0.0001133
DataValue, 0.028, 0, 7.4164E-05
DataValue, 0.016, 0, 4.0148E-05
DataValue, 0.004, 0, 9.1691000000000017E-06
DataValue, -0.008, 0, -1.7818E-05
DataValue, -0.02, 0, -4.189E-05
DataValue, -0.032, 0, -6.2534000000000008E-05
DataValue, -0.044000000000000004, 0, -8.0058E-05
DataValue, -0.056, 0, -9.5276E-05
DataValue, -0.068, 0, -0.000107978
DataValue, -0.08, 0, -0.00011622000000000001
DataValue, -0.092, 0, -0.00012496
DataValue, -0.10400000000000001, 0, -0.000132
DataValue, -0.116, 0, -0.00013766
DataValue, -0.128, 0, -0.00014158
DataValue, -0.14, 0, -0.00014462
DataValue, -0.152, 0, -0.0001475
DataValue, -0.164, 0, -0.00014924
DataValue, -0.17600000000000002, 0, -0.00015068000000000001
DataValue, -0.188, 0, -0.00015204000000000002
DataValue, -0.2, 0, -0.00015318000000000002
DataValue, -0.21200000000000002, 0, -0.00015408000000000002
DataValue, -0.224, 0, -0.00015466
DataValue, -0.23600000000000002, 0, -0.00015560000000000002
DataValue, -0.248, 0, -0.00015654000000000002
DataValue, -0.26, 0, -0.00015686
DataValue, -0.272, 0, -0.00015722000000000002
DataValue, -0.28400000000000003, 0, -0.00015816000000000002
DataValue, -0.29600000000000004, 0, -0.00015888
DataValue, -0.308, 0, -0.0001589
DataValue, -0.32, 0, -0.00015944
DataValue, -0.332, 0, -0.00016020000000000002
DataValue, -0.34400000000000003, 0, -0.0001606
DataValue, -0.35600000000000004, 0, -0.00016042
DataValue, -0.368, 0, -0.00016076
DataValue, -0.38, 0, -0.00016112
DataValue, -0.392, 0, -0.00016122
DataValue, -0.404, 0, -0.00016088000000000002
DataValue, -0.41600000000000004, 0, -0.00016114000000000002
DataValue, -0.42800000000000005, 0, -0.00016154
DataValue, -0.44, 0, -0.00016148
DataValue, -0.452, 0, -0.00016122
DataValue, -0.464, 0, -0.00016144
DataValue, -0.47600000000000003, 0, -0.00016182000000000002
DataValue, -0.48800000000000004, 0, -0.00016164
DataValue, -0.5, 0, -0.00016138
DataValue, -0.5, 0, -0.00016148
DataValue, -0.48800000000000004, 0, -0.00016172000000000002
DataValue, -0.47600000000000003, 0, -0.00016156000000000002
DataValue, -0.464, 0, -0.00016112
DataValue, -0.452, 0, -0.00016148
DataValue, -0.44, 0, -0.00016148
DataValue, -0.42800000000000005, 0, -0.00016108000000000002
DataValue, -0.41600000000000004, 0, -0.0001609
DataValue, -0.404, 0, -0.00016122
DataValue, -0.392, 0, -0.00016122
DataValue, -0.38, 0, -0.00016068
DataValue, -0.368, 0, -0.00016044
DataValue, -0.35600000000000004, 0, -0.00016066
DataValue, -0.34400000000000003, 0, -0.00016042
DataValue, -0.332, 0, -0.00015968000000000002
DataValue, -0.32, 0, -0.00015938
DataValue, -0.308, 0, -0.00015920000000000002
DataValue, -0.29600000000000004, 0, -0.00015844
DataValue, -0.28400000000000003, 0, -0.00015734
DataValue, -0.272, 0, -0.00015682
DataValue, -0.26, 0, -0.00015612000000000002
DataValue, -0.248, 0, -0.00015502000000000002
DataValue, -0.23600000000000002, 0, -0.00015382000000000002
DataValue, -0.224, 0, -0.000153
DataValue, -0.21200000000000002, 0, -0.00015212
DataValue, -0.2, 0, -0.00015072000000000002
DataValue, -0.188, 0, -0.00014910000000000002
DataValue, -0.17600000000000002, 0, -0.00014776
DataValue, -0.164, 0, -0.00014622000000000002
DataValue, -0.152, 0, -0.00014342
DataValue, -0.14, 0, -0.00014054
DataValue, -0.128, 0, -0.00013762
DataValue, -0.116, 0, -0.00013336
DataValue, -0.10400000000000001, 0, -0.00012776
DataValue, -0.092, 0, -0.00012148000000000001
DataValue, -0.08, 0, -0.00011366
DataValue, -0.068, 0, -0.00010394000000000001
DataValue, -0.056, 0, -9.2572000000000007E-05
DataValue, -0.044000000000000004, 0, -7.7644E-05
DataValue, -0.032, 0, -6.0740000000000005E-05
DataValue, -0.02, 0, -4.0616E-05
DataValue, -0.008, 0, -1.7388E-05
DataValue, 0.004, 0, 9.0802000000000016E-06
DataValue, 0.016, 0, 4.0228E-05
DataValue, 0.028, 0, 7.4512000000000008E-05
DataValue, 0.04, 0, 0.00011316600000000001
DataValue, 0.052000000000000005, 0, 0.00015844
DataValue, 0.064, 0, 0.00020608
DataValue, 0.076, 0, 0.00025834
DataValue, 0.088000000000000009, 0, 0.00031586
DataValue, 0.1, 0, 0.00037890000000000005
DataValue, 0.1, -0.1, 0.00071986
DataValue, 0.088000000000000009, -0.1, 0.00061724
DataValue, 0.076, -0.1, 0.0005174
DataValue, 0.064, -0.1, 0.0004224
DataValue, 0.052000000000000005, -0.1, 0.00033268
DataValue, 0.04, -0.1, 0.00024754000000000003
DataValue, 0.028, -0.1, 0.00016714
DataValue, 0.016, -0.1, 9.2016000000000008E-05
DataValue, 0.004, -0.1, 2.1626E-05
DataValue, -0.008, -0.1, -4.3556E-05
DataValue, -0.02, -0.1, -0.00010449
DataValue, -0.032, -0.1, -0.00015972000000000002
DataValue, -0.044000000000000004, -0.1, -0.0002111
DataValue, -0.056, -0.1, -0.00025772
DataValue, -0.068, -0.1, -0.00030074
DataValue, -0.08, -0.1, -0.00033894000000000003
DataValue, -0.092, -0.1, -0.00037294000000000004
DataValue, -0.10400000000000001, -0.1, -0.00040384000000000004
DataValue, -0.116, -0.1, -0.00043076000000000003
DataValue, -0.128, -0.1, -0.00045348000000000003
DataValue, -0.14, -0.1, -0.00047418000000000004
DataValue, -0.152, -0.1, -0.00049198
DataValue, -0.164, -0.1, -0.000506
DataValue, -0.17600000000000002, -0.1, -0.00051830000000000008
DataValue, -0.188, -0.1, -0.00052928
DataValue, -0.2, -0.1, -0.00053714000000000008
DataValue, -0.21200000000000002, -0.1, -0.00054396
DataValue, -0.224, -0.1, -0.00055076000000000007
DataValue, -0.23600000000000002, -0.1, -0.00055556000000000008
DataValue, -0.248, -0.1, -0.00055858
DataValue, -0.26, -0.1, -0.00056284
DataValue, -0.272, -0.1, -0.00056632
DataValue, -0.28400000000000003, -0.1, -0.0005681
DataValue, -0.29600000000000004, -0.1, -0.00057004000000000006
DataValue, -0.308, -0.1, -0.00057246
DataValue, -0.32, -0.1, -0.00057466000000000006
DataValue, -0.332, -0.1, -0.00057572
DataValue, -0.34400000000000003, -0.1, -0.00057748
DataValue, -0.35600000000000004, -0.1, -0.00058
DataValue, -0.368, -0.1, -0.000581
DataValue, -0.38, -0.1, -0.00058148
DataValue, -0.392, -0.1, -0.00058366000000000006
DataValue, -0.404, -0.1, -0.00058530000000000008
DataValue, -0.41600000000000004, -0.1, -0.00058576000000000006
DataValue, -0.42800000000000005, -0.1, -0.00058616000000000007
DataValue, -0.44, -0.1, -0.00058802000000000008
DataValue, -0.452, -0.1, -0.000589
DataValue, -0.464, -0.1, -0.00058878
DataValue, -0.47600000000000003, -0.1, -0.00058882
DataValue, -0.48800000000000004, -0.1, -0.00059008
DataValue, -0.5, -0.1, -0.00059044
DataValue, -0.5, -0.1, -0.00058984
DataValue, -0.48800000000000004, -0.1, -0.00058852
DataValue, -0.47600000000000003, -0.1, -0.0005888
DataValue, -0.464, -0.1, -0.00058878
DataValue, -0.452, -0.1, -0.00058722000000000006
DataValue, -0.44, -0.1, -0.00058598
DataValue, -0.42800000000000005, -0.1, -0.00058606
DataValue, -0.41600000000000004, -0.1, -0.00058474
DataValue, -0.404, -0.1, -0.00058240000000000006
DataValue, -0.392, -0.1, -0.00058112000000000007
DataValue, -0.38, -0.1, -0.00058030000000000006
DataValue, -0.368, -0.1, -0.00057762
DataValue, -0.35600000000000004, -0.1, -0.00057496
DataValue, -0.34400000000000003, -0.1, -0.00057364
DataValue, -0.332, -0.1, -0.00057204
DataValue, -0.32, -0.1, -0.00056900000000000006
DataValue, -0.308, -0.1, -0.00056626000000000007
DataValue, -0.29600000000000004, -0.1, -0.00056412
DataValue, -0.28400000000000003, -0.1, -0.0005615
DataValue, -0.272, -0.1, -0.00055788000000000007
DataValue, -0.26, -0.1, -0.00055498000000000006
DataValue, -0.248, -0.1, -0.00054994000000000006
DataValue, -0.23600000000000002, -0.1, -0.00054486
DataValue, -0.224, -0.1, -0.00054064
DataValue, -0.21200000000000002, -0.1, -0.00053368
DataValue, -0.2, -0.1, -0.00052558
DataValue, -0.188, -0.1, -0.00051748000000000007
DataValue, -0.17600000000000002, -0.1, -0.00050708
DataValue, -0.164, -0.1, -0.00049380000000000008
DataValue, -0.152, -0.1, -0.00047892000000000003
DataValue, -0.14, -0.1, -0.00046256000000000004
DataValue, -0.128, -0.1, -0.00044300000000000003
DataValue, -0.116, -0.1, -0.00041976000000000003
DataValue, -0.10400000000000001, -0.1, -0.00039352
DataValue, -0.092, -0.1, -0.00036514
DataValue, -0.08, -0.1, -0.00033150000000000003
DataValue, -0.068, -0.1, -0.00029402000000000003
DataValue, -0.056, -0.1, -0.00025330000000000003
DataValue, -0.044000000000000004, -0.1, -0.00020786
DataValue, -0.032, -0.1, -0.0001574
DataValue, -0.02, -0.1, -0.00010236
DataValue, -0.008, -0.1, -4.3388E-05
DataValue, 0.004, -0.1, 2.179E-05
DataValue, 0.016, -0.1, 9.152E-05
DataValue, 0.028, -0.1, 0.00016756
DataValue, 0.04, -0.1, 0.00024752000000000004
DataValue, 0.052000000000000005, -0.1, 0.00033322
DataValue, 0.064, -0.1, 0.00042422
DataValue, 0.076, -0.1, 0.0005199
DataValue, 0.088000000000000009, -0.1, 0.0006212
DataValue, 0.1, -0.1, 0.00072822
DataValue, 0.1, -0.2, 0.0010702
DataValue, 0.088000000000000009, -0.2, 0.00092680000000000008
DataValue, 0.076, -0.2, 0.0007881
DataValue, 0.064, -0.2, 0.00065170000000000007
DataValue, 0.052000000000000005, -0.2, 0.00051924
DataValue, 0.04, -0.2, 0.00039218
DataValue, 0.028, -0.2, 0.00026878000000000004
DataValue, 0.016, -0.2, 0.00014996
DataValue, 0.004, -0.2, 3.6086E-05
DataValue, -0.008, -0.2, -7.3548000000000008E-05
DataValue, -0.02, -0.2, -0.00017726000000000002
DataValue, -0.032, -0.2, -0.00027658
DataValue, -0.044000000000000004, -0.2, -0.00037136000000000005
DataValue, -0.056, -0.2, -0.00046148
