
SetupTitle, (c2) Transfer curve in LGP
PrimitiveTest, I/V Sweep
TestParameter, Context.MainFrame, B1500A
TestParameter, Channel.UnitType, SMU, SMU
TestParameter, Channel.Unit, SMU1:HR/AS, SMU2:HR/AS
TestParameter, Channel.IName, Ig, Id
TestParameter, Channel.VName, Vg, Vd
TestParameter, Channel.Mode, V, V
TestParameter, Channel.Func, VAR1, VAR2
TestParameter, Channel.Index, 
TestParameter, Channel.Time, 
TestParameter, Measurement.Port.Unit, SMU1:HR/AS, SMU2:HR/AS
TestParameter, Measurement.Port.SeriesResistor, NONE, NONE
TestParameter, Measurement.Port.Filter, ON, ON
TestParameter, Measurement.Port.OutputVoltageComparison, 0, 0
TestParameter, Measurement.Primary.Locus, Double
TestParameter, Measurement.Primary.Scale, LINEAR
TestParameter, Measurement.Primary.Start, 0.1
TestParameter, Measurement.Primary.Stop, -0.4
TestParameter, Measurement.Primary.Step, -0.01
TestParameter, Measurement.Primary.Compliance, 0.1
TestParameter, Measurement.Primary.PowerCompliance, 1
TestParameter, Measurement.Aborting.Condition, SKIP AT ANY ABNORMAL
TestParameter, Measurement.PostOutput.Value, START
TestParameter, Measurement.PostOutput.Retention, OFF
TestParameter, Measurement.Secondary.Start, -0.25
TestParameter, Measurement.Secondary.Count, 5
TestParameter, Measurement.Secondary.Step, 0
TestParameter, Measurement.Secondary.Compliance, 0.1
TestParameter, Measurement.Secondary.PowerCompliance, 1
TestParameter, Measurement.Bias.Source, 0.1, -0.25
TestParameter, Measurement.Bias.Compliance, 0.1, 0.1
TestParameter, Measurement.Monitor.Unit, SMU1:HR/AS, SMU2:HR/AS
TestParameter, Measurement.Monitor.Adc, HR ADC, HR ADC
TestParameter, Measurement.Monitor.Measurement, Compliance Side, Compliance Side
TestParameter, Measurement.Monitor.RangingMode, LIMITED, LIMITED
TestParameter, Measurement.Monitor.RangeBoundary, 1nA, 1nA
TestParameter, Measurement.Monitor.RangeRating, BY FULL RANGE, BY FULL RANGE
TestParameter, Measurement.Monitor.RangeRatingCoeff, 50, 50
TestParameter, Measurement.Timing.Hold, 0
TestParameter, Measurement.Timing.Delay, 0
TestParameter, Measurement.Adc.HighSpeed.Mode, AUTO
TestParameter, Measurement.Adc.HighSpeed.Coeff, 1
TestParameter, Measurement.Adc.HighResolution.AutoZero, OFF
TestParameter, Measurement.Adc.HighResolution.Mode, AUTO
TestParameter, Measurement.Adc.HighResolution.Coeff, 6
TestParameter, Measurement.WaitTime.Source.Coeff, 1
TestParameter, Measurement.WaitTime.Source.Offset, 0
TestParameter, Measurement.WaitTime.Monitor.Coeff, 1
TestParameter, Measurement.WaitTime.Monitor.Offset, 0
TestParameter, Output.Graph.Enabled, true
TestParameter, Output.Graph.AutoScaling, false
TestParameter, Output.Graph.XAxis.Data, Vg
TestParameter, Output.Graph.XAxis.Scale, Linear
TestParameter, Output.Graph.XAxis.Left, 0.60000000000000009
TestParameter, Output.Graph.XAxis.Right, -0.60000000000000009
TestParameter, Output.Graph.XAxis.RunTimeAutoScale, true
TestParameter, Output.Graph.YAxis.Data, Id
TestParameter, Output.Graph.YAxis.Scale, Linear
TestParameter, Output.Graph.YAxis.Bottom, -0.1
TestParameter, Output.Graph.YAxis.Top, 0.1
TestParameter, Output.Graph.YAxis.Group, 
TestParameter, Output.Graph.YAxis.RunTimeAutoScale, true
TestParameter, Output.List.Data, Vd, Vg, Id
TestParameter, AutoAnalysis.Interpolation, false
TestParameter, AutoAnalysis.Var2StepCount, 1
TestParameter, AutoAnalysis.Var2StepScript, 
TestParameter, AutoAnalysis.Line1.Enabled, false
TestParameter, AutoAnalysis.Line1.Type, 1
TestParameter, AutoAnalysis.Line1.Fix, True
TestParameter, AutoAnalysis.Line1.YAxis, 0
TestParameter, AutoAnalysis.Line1.Point1.Type, 0
TestParameter, AutoAnalysis.Line1.Point1.XY.X, 
TestParameter, AutoAnalysis.Line1.Point1.XY.Y, 
TestParameter, AutoAnalysis.Line1.Point1.Data.Var, 
TestParameter, AutoAnalysis.Line1.Point1.Data.Condition, 
TestParameter, AutoAnalysis.Line1.Point1.Data.Start, false
TestParameter, AutoAnalysis.Line1.Point1.Data.StartVar, 
TestParameter, AutoAnalysis.Line1.Point1.Data.StartCondition, 
TestParameter, AutoAnalysis.Line1.Point2.Type, 0
TestParameter, AutoAnalysis.Line1.Point2.XY.X, 
TestParameter, AutoAnalysis.Line1.Point2.XY.Y, 
TestParameter, AutoAnalysis.Line1.Point2.Data.Var, 
TestParameter, AutoAnalysis.Line1.Point2.Data.Condition, 
TestParameter, AutoAnalysis.Line1.Point2.Data.Start, false
TestParameter, AutoAnalysis.Line1.Point2.Data.StartVar, 
TestParameter, AutoAnalysis.Line1.Point2.Data.StartCondition, 
TestParameter, AutoAnalysis.Line1.GradientExpr, 0
TestParameter, AutoAnalysis.Line2.Enabled, false
TestParameter, AutoAnalysis.Line2.Type, 1
TestParameter, AutoAnalysis.Line2.Fix, True
TestParameter, AutoAnalysis.Line2.YAxis, 0
TestParameter, AutoAnalysis.Line2.Point1.Type, 0
TestParameter, AutoAnalysis.Line2.Point1.XY.X, 
TestParameter, AutoAnalysis.Line2.Point1.XY.Y, 
TestParameter, AutoAnalysis.Line2.Point1.Data.Var, 
TestParameter, AutoAnalysis.Line2.Point1.Data.Condition, 
TestParameter, AutoAnalysis.Line2.Point1.Data.Start, false
TestParameter, AutoAnalysis.Line2.Point1.Data.StartVar, 
TestParameter, AutoAnalysis.Line2.Point1.Data.StartCondition, 
TestParameter, AutoAnalysis.Line2.Point2.Type, 0
TestParameter, AutoAnalysis.Line2.Point2.XY.X, 
TestParameter, AutoAnalysis.Line2.Point2.XY.Y, 
TestParameter, AutoAnalysis.Line2.Point2.Data.Var, 
TestParameter, AutoAnalysis.Line2.Point2.Data.Condition, 
TestParameter, AutoAnalysis.Line2.Point2.Data.Start, false
TestParameter, AutoAnalysis.Line2.Point2.Data.StartVar, 
TestParameter, AutoAnalysis.Line2.Point2.Data.StartCondition, 
TestParameter, AutoAnalysis.Line2.GradientExpr, 0
TestParameter, AutoAnalysis.Marker.Enabled, false
TestParameter, AutoAnalysis.Marker.Data.Var, 
TestParameter, AutoAnalysis.Marker.Data.Condition, 
TestParameter, AutoAnalysis.Marker.Data.Start, false
TestParameter, AutoAnalysis.Marker.Data.StartVar, 
TestParameter, AutoAnalysis.Marker.Data.StartCondition, 
MetaData, TestRecord.EntryPoint, true
MetaData, TestRecord.RecordTime, 11/20/2024 01:34:52
MetaData, TestRecord.TestTarget, 
MetaData, TestRecord.IterationIndex, 3
MetaData, TestRecord.Preservation, true
MetaData, TestRecord.Flag, 
MetaData, TestRecord.Remarks, s20c6
MetaData, TestRecord.LinkKey, 1e189e1f-c520-411a-af49-a77a549e4eff
MetaData, TestRecord.Parameters, 
Dimension1, 102, 102, 102
Dimension2, 5, 5, 5
DataName, Vg, Vd, Id
DataValue, 0.1, -0.25, -1.2888000000000001E-05
DataValue, 0.090000000000000011, -0.25, -1.5994E-05
DataValue, 0.08, -0.25, -1.9676E-05
DataValue, 0.07, -0.25, -2.415E-05
DataValue, 0.060000000000000005, -0.25, -2.9584E-05
DataValue, 0.05, -0.25, -3.567E-05
DataValue, 0.04, -0.25, -4.2718E-05
DataValue, 0.030000000000000002, -0.25, -5.1024000000000005E-05
DataValue, 0.02, -0.25, -6.0208000000000004E-05
DataValue, 0.01, -0.25, -7.0498E-05
DataValue, 0, -0.25, -8.2406E-05
DataValue, -0.01, -0.25, -9.5432E-05
DataValue, -0.02, -0.25, -0.00010960600000000001
DataValue, -0.030000000000000002, -0.25, -0.00012828
DataValue, -0.04, -0.25, -0.00014544000000000002
DataValue, -0.05, -0.25, -0.00016416
DataValue, -0.060000000000000005, -0.25, -0.00018448000000000002
DataValue, -0.07, -0.25, -0.00020712
DataValue, -0.08, -0.25, -0.00023114
DataValue, -0.090000000000000011, -0.25, -0.00025652
DataValue, -0.1, -0.25, -0.00028464
DataValue, -0.11, -0.25, -0.00031438
DataValue, -0.12000000000000001, -0.25, -0.00034518
DataValue, -0.13, -0.25, -0.00037856
DataValue, -0.14, -0.25, -0.00041410000000000004
DataValue, -0.15, -0.25, -0.00045040000000000005
DataValue, -0.16, -0.25, -0.0004891
DataValue, -0.17, -0.25, -0.00053026000000000006
DataValue, -0.18000000000000002, -0.25, -0.00057170000000000007
DataValue, -0.19, -0.25, -0.000615
DataValue, -0.2, -0.25, -0.00066112000000000007
DataValue, -0.21000000000000002, -0.25, -0.00070772
DataValue, -0.22, -0.25, -0.0007554
DataValue, -0.23, -0.25, -0.00080568
DataValue, -0.24000000000000002, -0.25, -0.0008568400000000001
DataValue, -0.25, -0.25, -0.00090842000000000006
DataValue, -0.26, -0.25, -0.00096220000000000008
DataValue, -0.27, -0.25, -0.00101706
DataValue, -0.28, -0.25, -0.00107044
DataValue, -0.29000000000000004, -0.25, -0.00112586
DataValue, -0.3, -0.25, -0.001194
DataValue, -0.31, -0.25, -0.0012482
DataValue, -0.32, -0.25, -0.0013052
DataValue, -0.33, -0.25, -0.0013624
DataValue, -0.34, -0.25, -0.001418
DataValue, -0.35000000000000003, -0.25, -0.0014758
DataValue, -0.36000000000000004, -0.25, -0.0015336
DataValue, -0.37, -0.25, -0.00159
DataValue, -0.38, -0.25, -0.0016460000000000001
DataValue, -0.39, -0.25, -0.0017046000000000001
DataValue, -0.4, -0.25, -0.0017604
DataValue, -0.4, -0.25, -0.0017622
DataValue, -0.39, -0.25, -0.0017132
DataValue, -0.38, -0.25, -0.0016634
DataValue, -0.37, -0.25, -0.0016116000000000001
DataValue, -0.36000000000000004, -0.25, -0.001557
DataValue, -0.35000000000000003, -0.25, -0.0015022
DataValue, -0.34, -0.25, -0.0014482
DataValue, -0.33, -0.25, -0.0013926000000000001
DataValue, -0.32, -0.25, -0.0013362
DataValue, -0.31, -0.25, -0.001281
DataValue, -0.3, -0.25, -0.0012258
DataValue, -0.29000000000000004, -0.25, -0.0011696
DataValue, -0.28, -0.25, -0.0011136
DataValue, -0.27, -0.25, -0.0010606
DataValue, -0.26, -0.25, -0.0010066
DataValue, -0.25, -0.25, -0.00095056
DataValue, -0.24000000000000002, -0.25, -0.00090006
DataValue, -0.23, -0.25, -0.00084796
DataValue, -0.22, -0.25, -0.0007977
DataValue, -0.21000000000000002, -0.25, -0.00074946000000000008
DataValue, -0.2, -0.25, -0.00070128000000000009
DataValue, -0.19, -0.25, -0.00065428
DataValue, -0.18000000000000002, -0.25, -0.00060916000000000008
DataValue, -0.17, -0.25, -0.00056646000000000008
DataValue, -0.16, -0.25, -0.00052388
DataValue, -0.15, -0.25, -0.00048324
DataValue, -0.14, -0.25, -0.00044526
DataValue, -0.13, -0.25, -0.00040862
DataValue, -0.12000000000000001, -0.25, -0.00037226
DataValue, -0.11, -0.25, -0.00033942
DataValue, -0.1, -0.25, -0.00030846000000000004
DataValue, -0.090000000000000011, -0.25, -0.00027824
DataValue, -0.08, -0.25, -0.0002504
DataValue, -0.07, -0.25, -0.00022454000000000002
DataValue, -0.060000000000000005, -0.25, -0.00020078
DataValue, -0.05, -0.25, -0.00017816000000000002
DataValue, -0.04, -0.25, -0.0001574
DataValue, -0.030000000000000002, -0.25, -0.00013886
DataValue, -0.02, -0.25, -0.00012142000000000001
DataValue, -0.01, -0.25, -0.00010514000000000001
DataValue, 0, -0.25, -9.0520000000000007E-05
DataValue, 0.01, -0.25, -7.7442000000000008E-05
DataValue, 0.02, -0.25, -6.6118E-05
DataValue, 0.030000000000000002, -0.25, -5.5864E-05
DataValue, 0.04, -0.25, -4.7024E-05
DataValue, 0.05, -0.25, -3.917E-05
DataValue, 0.060000000000000005, -0.25, -3.2112E-05
DataValue, 0.07, -0.25, -2.6164000000000002E-05
DataValue, 0.08, -0.25, -2.1122000000000002E-05
DataValue, 0.090000000000000011, -0.25, -1.6684E-05
DataValue, 0.1, -0.25, -1.2990000000000001E-05
DataValue, 0.1, -0.25, -1.0792000000000001E-05
DataValue, 0.090000000000000011, -0.25, -1.338E-05
DataValue, 0.08, -0.25, -1.6666E-05
DataValue, 0.07, -0.25, -2.0806E-05
DataValue, 0.060000000000000005, -0.25, -2.5492000000000003E-05
DataValue, 0.05, -0.25, -3.0986E-05
DataValue, 0.04, -0.25, -3.7646E-05
DataValue, 0.030000000000000002, -0.25, -4.5E-05
DataValue, 0.02, -0.25, -5.3402E-05
DataValue, 0.01, -0.25, -6.323E-05
DataValue, 0, -0.25, -7.4278E-05
DataValue, -0.01, -0.25, -8.613E-05
DataValue, -0.02, -0.25, -9.9772E-05
DataValue, -0.030000000000000002, -0.25, -0.00011722
DataValue, -0.04, -0.25, -0.00013330000000000002
DataValue, -0.05, -0.25, -0.00015102
DataValue, -0.060000000000000005, -0.25, -0.00017102
DataValue, -0.07, -0.25, -0.00019280000000000002
DataValue, -0.08, -0.25, -0.00021622
DataValue, -0.090000000000000011, -0.25, -0.00024090000000000003
DataValue, -0.1, -0.25, -0.0002683
DataValue, -0.11, -0.25, -0.00029822000000000003
DataValue, -0.12000000000000001, -0.25, -0.00032848
DataValue, -0.13, -0.25, -0.0003619
DataValue, -0.14, -0.25, -0.0003969
DataValue, -0.15, -0.25, -0.000433
DataValue, -0.16, -0.25, -0.00047212
DataValue, -0.17, -0.25, -0.00051302
DataValue, -0.18000000000000002, -0.25, -0.00055454000000000007
DataValue, -0.19, -0.25, -0.00059872000000000007
DataValue, -0.2, -0.25, -0.00064504
DataValue, -0.21000000000000002, -0.25, -0.00069184
DataValue, -0.22, -0.25, -0.00074044000000000009
DataValue, -0.23, -0.25, -0.00079156000000000007
DataValue, -0.24000000000000002, -0.25, -0.0008426000000000001
DataValue, -0.25, -0.25, -0.00089486
DataValue, -0.26, -0.25, -0.00094964000000000008
DataValue, -0.27, -0.25, -0.00100444
DataValue, -0.28, -0.25, -0.00105932
DataValue, -0.29000000000000004, -0.25, -0.0011169
DataValue, -0.3, -0.25, -0.0011858
DataValue, -0.31, -0.25, -0.0012418
DataValue, -0.32, -0.25, -0.0012994
DataValue, -0.33, -0.25, -0.0013554
DataValue, -0.34, -0.25, -0.0014138
DataValue, -0.35000000000000003, -0.25, -0.0014722000000000001
DataValue, -0.36000000000000004, -0.25, -0.0015292
DataValue, -0.37, -0.25, -0.0015868
DataValue, -0.38, -0.25, -0.0016452
DataValue, -0.39, -0.25, -0.0017012
DataValue, -0.4, -0.25, -0.001757
DataValue, -0.4, -0.25, -0.0017608
DataValue, -0.39, -0.25, -0.0017134000000000001
DataValue, -0.38, -0.25, -0.0016614
DataValue, -0.37, -0.25, -0.001609
DataValue, -0.36000000000000004, -0.25, -0.0015564
DataValue, -0.35000000000000003, -0.25, -0.0015012
DataValue, -0.34, -0.25, -0.0014454000000000001
DataValue, -0.33, -0.25, -0.0013904
DataValue, -0.32, -0.25, -0.0013348000000000001
DataValue, -0.31, -0.25, -0.0012776
DataValue, -0.3, -0.25, -0.0012218
DataValue, -0.29000000000000004, -0.25, -0.0011668
DataValue, -0.28, -0.25, -0.0011104
DataValue, -0.27, -0.25, -0.001055
DataValue, -0.26, -0.25, -0.0010014
DataValue, -0.25, -0.25, -0.00094442000000000007
DataValue, -0.24000000000000002, -0.25, -0.00089364
DataValue, -0.23, -0.25, -0.00084214
DataValue, -0.22, -0.25, -0.00079024
DataValue, -0.21000000000000002, -0.25, -0.00074190000000000009
DataValue, -0.2, -0.25, -0.00069398000000000007
DataValue, -0.19, -0.25, -0.00064634
DataValue, -0.18000000000000002, -0.25, -0.00060126
DataValue, -0.17, -0.25, -0.00055792
DataValue, -0.16, -0.25, -0.00051498000000000006
DataValue, -0.15, -0.25, -0.00047442000000000003
DataValue, -0.14, -0.25, -0.00043630000000000003
DataValue, -0.13, -0.25, -0.00039886
DataValue, -0.12000000000000001, -0.25, -0.00036352000000000004
DataValue, -0.11, -0.25, -0.00033104
DataValue, -0.1, -0.25, -0.00029952
DataValue, -0.090000000000000011, -0.25, -0.00026972000000000004
DataValue, -0.08, -0.25, -0.00024268000000000003
DataValue, -0.07, -0.25, -0.00021718
DataValue, -0.060000000000000005, -0.25, -0.00019294
DataValue, -0.05, -0.25, -0.00017116
DataValue, -0.04, -0.25, -0.00015122
DataValue, -0.030000000000000002, -0.25, -0.00013234
DataValue, -0.02, -0.25, -0.00011516
DataValue, -0.01, -0.25, -0.00010024
DataValue, 0, -0.25, -8.5520000000000008E-05
DataValue, 0.01, -0.25, -7.3766E-05
DataValue, 0.02, -0.25, -6.2732000000000009E-05
DataValue, 0.030000000000000002, -0.25, -5.2926E-05
DataValue, 0.04, -0.25, -4.447E-05
DataValue, 0.05, -0.25, -3.6828E-05
DataValue, 0.060000000000000005, -0.25, -3.0206000000000002E-05
DataValue, 0.07, -0.25, -2.4562E-05
DataValue, 0.08, -0.25, -1.9852000000000002E-05
DataValue, 0.090000000000000011, -0.25, -1.5694E-05
DataValue, 0.1, -0.25, -1.2212000000000001E-05
DataValue, 0.1, -0.25, -1.0478E-05
DataValue, 0.090000000000000011, -0.25, -1.3104E-05
DataValue, 0.08, -0.25, -1.638E-05
DataValue, 0.07, -0.25, -2.0232000000000002E-05
DataValue, 0.060000000000000005, -0.25, -2.4836E-05
DataValue, 0.05, -0.25, -3.0318E-05
DataValue, 0.04, -0.25, -3.6684E-05
DataValue, 0.030000000000000002, -0.25, -4.3848000000000004E-05
DataValue, 0.02, -0.25, -5.2152000000000005E-05
DataValue, 0.01, -0.25, -6.1816E-05
DataValue, 0, -0.25, -7.2448000000000008E-05
DataValue, -0.01, -0.25, -8.426000000000001E-05
DataValue, -0.02, -0.25, -9.8252000000000007E-05
DataValue, -0.030000000000000002, -0.25, -0.000112948
DataValue, -0.04, -0.25, -0.00013348
DataValue, -0.05, -0.25, -0.00015062000000000002
DataValue, -0.060000000000000005, -0.25, -0.00017030000000000002
DataValue, -0.07, -0.25, -0.00019204
DataValue, -0.08, -0.25, -0.00021446
DataValue, -0.090000000000000011, -0.25, -0.00023924000000000002
DataValue, -0.1, -0.25, -0.00026682
DataValue, -0.11, -0.25, -0.00029534
DataValue, -0.12000000000000001, -0.25, -0.00032566
DataValue, -0.13, -0.25, -0.00035898
DataValue, -0.14, -0.25, -0.00039372
DataValue, -0.15, -0.25, -0.00043038
DataValue, -0.16, -0.25, -0.00046840000000000006
DataValue, -0.17, -0.25, -0.00050912000000000006
DataValue, -0.18000000000000002, -0.25, -0.00055126
DataValue, -0.19, -0.25, -0.00059432000000000007
DataValue, -0.2, -0.25, -0.00064004
DataValue, -0.21000000000000002, -0.25, -0.00068862
DataValue, -0.22, -0.25, -0.00073630000000000006
DataValue, -0.23, -0.25, -0.00078590000000000008
DataValue, -0.24000000000000002, -0.25, -0.0008386200000000001
DataValue, -0.25, -0.25, -0.00089146000000000006
DataValue, -0.26, -0.25, -0.00094466
DataValue, -0.27, -0.25, -0.0010003400000000002
DataValue, -0.28, -0.25, -0.00105678
DataValue, -0.29000000000000004, -0.25, -0.0011138200000000002
DataValue, -0.3, -0.25, -0.001185
DataValue, -0.31, -0.25, -0.0012396
DataValue, -0.32, -0.25, -0.0012956
DataValue, -0.33, -0.25, -0.0013544
DataValue, -0.34, -0.25, -0.0014122
DataValue, -0.35000000000000003, -0.25, -0.0014698
DataValue, -0.36000000000000004, -0.25, -0.0015272
DataValue, -0.37, -0.25, -0.0015854
DataValue, -0.38, -0.25, -0.0016424
DataValue, -0.39, -0.25, -0.001698
DataValue, -0.4, -0.25, -0.0017548
DataValue, -0.4, -0.25, -0.0017578000000000001
DataValue, -0.39, -0.25, -0.0017106
DataValue, -0.38, -0.25, -0.0016588
DataValue, -0.37, -0.25, -0.0016066000000000001
DataValue, -0.36000000000000004, -0.25, -0.0015538
DataValue, -0.35000000000000003, -0.25, -0.0014988
DataValue, -0.34, -0.25, -0.0014428
DataValue, -0.33, -0.25, -0.0013882
DataValue, -0.32, -0.25, -0.0013324
DataValue, -0.31, -0.25, -0.0012748
DataValue, -0.3, -0.25, -0.0012192
DataValue, -0.29000000000000004, -0.25, -0.0011642
DataValue, -0.28, -0.25, -0.0011082
DataValue, -0.27, -0.25, -0.0010524
DataValue, -0.26, -0.25, -0.00099654
DataValue, -0.25, -0.25, -0.00094334000000000009
DataValue, -0.24000000000000002, -0.25, -0.00089004
DataValue, -0.23, -0.25, -0.00083982
DataValue, -0.22, -0.25, -0.00078908000000000005
DataValue, -0.21000000000000002, -0.25, -0.00073842
DataValue, -0.2, -0.25, -0.0006909
DataValue, -0.19, -0.25, -0.00064468
DataValue, -0.18000000000000002, -0.25, -0.00059842
DataValue, -0.17, -0.25, -0.00055436
DataValue, -0.16, -0.25, -0.00051282
DataValue, -0.15, -0.25, -0.00047212
DataValue, -0.14, -0.25, -0.00043292000000000005
DataValue, -0.13, -0.25, -0.00039604
DataValue, -0.12000000000000001, -0.25, -0.00036154000000000004
DataValue, -0.11, -0.25, -0.00032818
DataValue, -0.1, -0.25, -0.00029618
DataValue, -0.090000000000000011, -0.25, -0.00026778
DataValue, -0.08, -0.25, -0.00024060000000000002
DataValue, -0.07, -0.25, -0.00021470000000000002
DataValue, -0.060000000000000005, -0.25, -0.00019108000000000002
DataValue, -0.05, -0.25, -0.00016958
DataValue, -0.04, -0.25, -0.00014918
DataValue, -0.030000000000000002, -0.25, -0.00013076
DataValue, -0.02, -0.25, -0.00011414
DataValue, -0.01, -0.25, -9.7992E-05
DataValue, 0, -0.25, -8.451E-05
DataValue, 0.01, -0.25, -7.276E-05
DataValue, 0.02, -0.25, -6.1954E-05
DataValue, 0.030000000000000002, -0.25, -5.1934E-05
DataValue, 0.04, -0.25, -4.3622000000000003E-05
DataValue, 0.05, -0.25, -3.6356E-05
DataValue, 0.060000000000000005, -0.25, -2.9788E-05
DataValue, 0.07, -0.25, -2.4152000000000002E-05
DataValue, 0.08, -0.25, -1.9442E-05
DataValue, 0.090000000000000011, -0.25, -1.5438E-05
DataValue, 0.1, -0.25, -1.2098E-05
DataValue, 0.1, -0.25, -1.06E-05
DataValue, 0.090000000000000011, -0.25, -1.3108E-05
DataValue, 0.08, -0.25, -1.6462E-05
DataValue, 0.07, -0.25, -2.0386E-05
DataValue, 0.060000000000000005, -0.25, -2.4916E-05
DataValue, 0.05, -0.25, -3.0484E-05
DataValue, 0.04, -0.25, -3.6864E-05
