
SetupTitle, (c1) Output curve in LGP
PrimitiveTest, I/V Sweep
TestParameter, Context.MainFrame, B1500A
TestParameter, Channel.UnitType, SMU, SMU
TestParameter, Channel.Unit, SMU1:HR/AS, SMU2:HR/AS
TestParameter, Channel.IName, Ig, Id
TestParameter, Channel.VName, Vg, Vd
TestParameter, Channel.Mode, V, V
TestParameter, Channel.Func, VAR2, VAR1
TestParameter, Channel.Index, 
TestParameter, Channel.Time, 
TestParameter, Measurement.Port.Unit, SMU1:HR/AS, SMU2:HR/AS
TestParameter, Measurement.Port.SeriesResistor, NONE, NONE
TestParameter, Measurement.Port.Filter, ON, ON
TestParameter, Measurement.Port.OutputVoltageComparison, 0, 0
TestParameter, Measurement.Primary.Locus, Double
TestParameter, Measurement.Primary.Scale, LINEAR
TestParameter, Measurement.Primary.Start, 0.1
TestParameter, Measurement.Primary.Stop, -0.5
TestParameter, Measurement.Primary.Step, -0.012
TestParameter, Measurement.Primary.Compliance, 0.1
TestParameter, Measurement.Primary.PowerCompliance, 0
TestParameter, Measurement.Aborting.Condition, CONTINUE AT ANY
TestParameter, Measurement.PostOutput.Value, START
TestParameter, Measurement.PostOutput.Retention, OFF
TestParameter, Measurement.Secondary.Start, 0.1
TestParameter, Measurement.Secondary.Count, 6
TestParameter, Measurement.Secondary.Step, -0.1
TestParameter, Measurement.Secondary.Compliance, 0.0001
TestParameter, Measurement.Secondary.PowerCompliance, 0
TestParameter, Measurement.Bias.Source, 0.1, 0.1
TestParameter, Measurement.Bias.Compliance, 0.0001, 0.1
TestParameter, Measurement.Monitor.Unit, SMU1:HR/AS, SMU2:HR/AS
TestParameter, Measurement.Monitor.Adc, HR ADC, HR ADC
TestParameter, Measurement.Monitor.Measurement, Compliance Side, Compliance Side
TestParameter, Measurement.Monitor.RangingMode, LIMITED, LIMITED
TestParameter, Measurement.Monitor.RangeBoundary, 1nA, 1nA
TestParameter, Measurement.Monitor.RangeRating, BY FULL RANGE, BY FULL RANGE
TestParameter, Measurement.Monitor.RangeRatingCoeff, 50, 50
TestParameter, Measurement.Timing.Hold, 0
TestParameter, Measurement.Timing.Delay, 0
TestParameter, Measurement.Adc.HighSpeed.Mode, AUTO
TestParameter, Measurement.Adc.HighSpeed.Coeff, 1
TestParameter, Measurement.Adc.HighResolution.AutoZero, OFF
TestParameter, Measurement.Adc.HighResolution.Mode, AUTO
TestParameter, Measurement.Adc.HighResolution.Coeff, 6
TestParameter, Measurement.WaitTime.Source.Coeff, 1
TestParameter, Measurement.WaitTime.Source.Offset, 0
TestParameter, Measurement.WaitTime.Monitor.Coeff, 1
TestParameter, Measurement.WaitTime.Monitor.Offset, 0
TestParameter, Output.Graph.Enabled, true
TestParameter, Output.Graph.AutoScaling, false
TestParameter, Output.Graph.XAxis.Data, Vd
TestParameter, Output.Graph.XAxis.Scale, Linear
TestParameter, Output.Graph.XAxis.Left, 0
TestParameter, Output.Graph.XAxis.Right, -0.5
TestParameter, Output.Graph.XAxis.RunTimeAutoScale, true
TestParameter, Output.Graph.YAxis.Data, Id
TestParameter, Output.Graph.YAxis.Scale, Linear
TestParameter, Output.Graph.YAxis.Bottom, -0.1
TestParameter, Output.Graph.YAxis.Top, 0.1
TestParameter, Output.Graph.YAxis.Group, 
TestParameter, Output.Graph.YAxis.RunTimeAutoScale, true
TestParameter, Output.List.Data, Vd, Vg, Id
TestParameter, AutoAnalysis.Interpolation, false
TestParameter, AutoAnalysis.Var2StepCount, 1
TestParameter, AutoAnalysis.Var2StepScript, 
TestParameter, AutoAnalysis.Line1.Enabled, false
TestParameter, AutoAnalysis.Line1.Type, 1
TestParameter, AutoAnalysis.Line1.Fix, True
TestParameter, AutoAnalysis.Line1.YAxis, 0
TestParameter, AutoAnalysis.Line1.Point1.Type, 0
TestParameter, AutoAnalysis.Line1.Point1.XY.X, 
TestParameter, AutoAnalysis.Line1.Point1.XY.Y, 
TestParameter, AutoAnalysis.Line1.Point1.Data.Var, 
TestParameter, AutoAnalysis.Line1.Point1.Data.Condition, 
TestParameter, AutoAnalysis.Line1.Point1.Data.Start, false
TestParameter, AutoAnalysis.Line1.Point1.Data.StartVar, 
TestParameter, AutoAnalysis.Line1.Point1.Data.StartCondition, 
TestParameter, AutoAnalysis.Line1.Point2.Type, 0
TestParameter, AutoAnalysis.Line1.Point2.XY.X, 
TestParameter, AutoAnalysis.Line1.Point2.XY.Y, 
TestParameter, AutoAnalysis.Line1.Point2.Data.Var, 
TestParameter, AutoAnalysis.Line1.Point2.Data.Condition, 
TestParameter, AutoAnalysis.Line1.Point2.Data.Start, false
TestParameter, AutoAnalysis.Line1.Point2.Data.StartVar, 
TestParameter, AutoAnalysis.Line1.Point2.Data.StartCondition, 
TestParameter, AutoAnalysis.Line1.GradientExpr, 0
TestParameter, AutoAnalysis.Line2.Enabled, false
TestParameter, AutoAnalysis.Line2.Type, 1
TestParameter, AutoAnalysis.Line2.Fix, True
TestParameter, AutoAnalysis.Line2.YAxis, 0
TestParameter, AutoAnalysis.Line2.Point1.Type, 0
TestParameter, AutoAnalysis.Line2.Point1.XY.X, 
TestParameter, AutoAnalysis.Line2.Point1.XY.Y, 
TestParameter, AutoAnalysis.Line2.Point1.Data.Var, 
TestParameter, AutoAnalysis.Line2.Point1.Data.Condition, 
TestParameter, AutoAnalysis.Line2.Point1.Data.Start, false
TestParameter, AutoAnalysis.Line2.Point1.Data.StartVar, 
TestParameter, AutoAnalysis.Line2.Point1.Data.StartCondition, 
TestParameter, AutoAnalysis.Line2.Point2.Type, 0
TestParameter, AutoAnalysis.Line2.Point2.XY.X, 
TestParameter, AutoAnalysis.Line2.Point2.XY.Y, 
TestParameter, AutoAnalysis.Line2.Point2.Data.Var, 
TestParameter, AutoAnalysis.Line2.Point2.Data.Condition, 
TestParameter, AutoAnalysis.Line2.Point2.Data.Start, false
TestParameter, AutoAnalysis.Line2.Point2.Data.StartVar, 
TestParameter, AutoAnalysis.Line2.Point2.Data.StartCondition, 
TestParameter, AutoAnalysis.Line2.GradientExpr, 0
TestParameter, AutoAnalysis.Marker.Enabled, false
TestParameter, AutoAnalysis.Marker.Data.Var, 
TestParameter, AutoAnalysis.Marker.Data.Condition, 
TestParameter, AutoAnalysis.Marker.Data.Start, false
TestParameter, AutoAnalysis.Marker.Data.StartVar, 
TestParameter, AutoAnalysis.Marker.Data.StartCondition, 
MetaData, TestRecord.EntryPoint, true
MetaData, TestRecord.RecordTime, 11/20/2024 01:23:03
MetaData, TestRecord.TestTarget, 
MetaData, TestRecord.IterationIndex, 17
MetaData, TestRecord.Preservation, true
MetaData, TestRecord.Flag, 
MetaData, TestRecord.Remarks, s20c3
MetaData, TestRecord.LinkKey, 829aff1f-874a-4462-94dd-360e80ec2b56
MetaData, TestRecord.Parameters, 
Dimension1, 102, 102, 102
Dimension2, 6, 6, 6
DataName, Vd, Vg, Id
DataValue, 0.1, 0.1, 5.4974E-05
DataValue, 0.088000000000000009, 0.1, 4.4666E-05
DataValue, 0.076, 0.1, 3.5502E-05
DataValue, 0.064, 0.1, 2.7236E-05
DataValue, 0.052000000000000005, 0.1, 2.0136E-05
DataValue, 0.04, 0.1, 1.4176000000000001E-05
DataValue, 0.028, 0.1, 8.7972000000000011E-06
DataValue, 0.016, 0.1, 4.614E-06
DataValue, 0.004, 0.1, 1.0156E-06
DataValue, -0.008, 0.1, -1.9347000000000003E-06
DataValue, -0.02, 0.1, -4.0920000000000008E-06
DataValue, -0.032, 0.1, -5.9553E-06
DataValue, -0.044000000000000004, 0.1, -7.2722000000000004E-06
DataValue, -0.056, 0.1, -8.142000000000001E-06
DataValue, -0.068, 0.1, -8.8994000000000016E-06
DataValue, -0.08, 0.1, -9.3186000000000009E-06
DataValue, -0.092, 0.1, -9.4945E-06
DataValue, -0.10400000000000001, 0.1, -9.7345000000000014E-06
DataValue, -0.116, 0.1, -9.7677000000000014E-06
DataValue, -0.128, 0.1, -9.7200000000000018E-06
DataValue, -0.14, 0.1, -9.7984000000000009E-06
DataValue, -0.152, 0.1, -9.7156E-06
DataValue, -0.164, 0.1, -9.6197E-06
DataValue, -0.17600000000000002, 0.1, -9.6698E-06
DataValue, -0.188, 0.1, -9.5729000000000011E-06
DataValue, -0.2, 0.1, -9.4791E-06
DataValue, -0.21200000000000002, 0.1, -9.5341E-06
DataValue, -0.224, 0.1, -9.4378000000000014E-06
DataValue, -0.23600000000000002, 0.1, -9.3544000000000014E-06
DataValue, -0.248, 0.1, -9.4178000000000015E-06
DataValue, -0.26, 0.1, -9.3201E-06
DataValue, -0.272, 0.1, -9.2494000000000016E-06
DataValue, -0.28400000000000003, 0.1, -9.3187000000000011E-06
DataValue, -0.29600000000000004, 0.1, -9.2253000000000013E-06
DataValue, -0.308, 0.1, -9.1632E-06
DataValue, -0.32, 0.1, -9.2393000000000015E-06
DataValue, -0.332, 0.1, -9.139400000000001E-06
DataValue, -0.34400000000000003, 0.1, -9.1040000000000013E-06
DataValue, -0.35600000000000004, 0.1, -9.1689000000000013E-06
DataValue, -0.368, 0.1, -9.0548E-06
DataValue, -0.38, 0.1, -9.0329000000000012E-06
DataValue, -0.392, 0.1, -9.1083E-06
DataValue, -0.404, 0.1, -9.0300000000000016E-06
DataValue, -0.41600000000000004, 0.1, -8.9792E-06
DataValue, -0.42800000000000005, 0.1, -9.0629000000000009E-06
DataValue, -0.44, 0.1, -9.0101E-06
DataValue, -0.452, 0.1, -8.9307E-06
DataValue, -0.464, 0.1, -9.0103E-06
DataValue, -0.47600000000000003, 0.1, -9.0001E-06
DataValue, -0.48800000000000004, 0.1, -8.8901000000000015E-06
DataValue, -0.5, 0.1, -8.9510000000000012E-06
DataValue, -0.5, 0.1, -8.984900000000001E-06
DataValue, -0.48800000000000004, 0.1, -8.9088E-06
DataValue, -0.47600000000000003, 0.1, -8.8541E-06
DataValue, -0.464, 0.1, -8.9235E-06
DataValue, -0.452, 0.1, -8.8947000000000014E-06
DataValue, -0.44, 0.1, -8.8011000000000012E-06
DataValue, -0.42800000000000005, 0.1, -8.8790000000000009E-06
DataValue, -0.41600000000000004, 0.1, -8.8688E-06
DataValue, -0.404, 0.1, -8.7706E-06
DataValue, -0.392, 0.1, -8.8127000000000012E-06
DataValue, -0.38, 0.1, -8.8483000000000013E-06
DataValue, -0.368, 0.1, -8.7349000000000017E-06
DataValue, -0.35600000000000004, 0.1, -8.7544E-06
DataValue, -0.34400000000000003, 0.1, -8.8169E-06
DataValue, -0.332, 0.1, -8.7109000000000016E-06
DataValue, -0.32, 0.1, -8.6886E-06
DataValue, -0.308, 0.1, -8.777E-06
DataValue, -0.29600000000000004, 0.1, -8.7011E-06
DataValue, -0.28400000000000003, 0.1, -8.6428000000000013E-06
DataValue, -0.272, 0.1, -8.7164E-06
DataValue, -0.26, 0.1, -8.6862000000000016E-06
DataValue, -0.248, 0.1, -8.5879000000000012E-06
DataValue, -0.23600000000000002, 0.1, -8.6514000000000016E-06
DataValue, -0.224, 0.1, -8.641100000000001E-06
DataValue, -0.21200000000000002, 0.1, -8.5142E-06
DataValue, -0.2, 0.1, -8.5300000000000013E-06
DataValue, -0.188, 0.1, -8.5468000000000009E-06
DataValue, -0.17600000000000002, 0.1, -8.4094000000000012E-06
DataValue, -0.164, 0.1, -8.3708000000000012E-06
DataValue, -0.152, 0.1, -8.3977000000000009E-06
DataValue, -0.14, 0.1, -8.2422E-06
DataValue, -0.128, 0.1, -8.145100000000001E-06
DataValue, -0.116, 0.1, -8.0920000000000015E-06
DataValue, -0.10400000000000001, 0.1, -7.874700000000001E-06
DataValue, -0.092, 0.1, -7.5781000000000012E-06
DataValue, -0.08, 0.1, -7.3461000000000007E-06
DataValue, -0.068, 0.1, -6.9111000000000006E-06
DataValue, -0.056, 0.1, -6.2447000000000005E-06
DataValue, -0.044000000000000004, 0.1, -5.5381E-06
DataValue, -0.032, 0.1, -4.5414E-06
DataValue, -0.02, 0.1, -3.102E-06
DataValue, -0.008, 0.1, -1.4202000000000002E-06
DataValue, 0.004, 0.1, 8.4026E-07
DataValue, 0.016, 0.1, 3.5845E-06
DataValue, 0.028, 0.1, 7.1063000000000009E-06
DataValue, 0.04, 0.1, 1.1315100000000001E-05
DataValue, 0.052000000000000005, 0.1, 1.6518E-05
DataValue, 0.064, 0.1, 2.2532E-05
DataValue, 0.076, 0.1, 2.9482E-05
DataValue, 0.088000000000000009, 0.1, 3.7460000000000004E-05
DataValue, 0.1, 0.1, 4.6866E-05
DataValue, 0.1, 0, 0.00014122
DataValue, 0.088000000000000009, 0, 0.00011814
DataValue, 0.076, 0, 9.6476E-05
DataValue, 0.064, 0, 7.7012E-05
DataValue, 0.052000000000000005, 0, 5.8988000000000005E-05
DataValue, 0.04, 0, 4.2706E-05
DataValue, 0.028, 0, 2.819E-05
DataValue, 0.016, 0, 1.5186E-05
DataValue, 0.004, 0, 3.4237000000000004E-06
DataValue, -0.008, 0, -6.7122000000000007E-06
DataValue, -0.02, 0, -1.5738E-05
DataValue, -0.032, 0, -2.3474E-05
DataValue, -0.044000000000000004, 0, -3.0296000000000003E-05
DataValue, -0.056, 0, -3.6144E-05
DataValue, -0.068, 0, -4.0894E-05
DataValue, -0.08, 0, -4.4958E-05
DataValue, -0.092, 0, -4.8404E-05
DataValue, -0.10400000000000001, 0, -5.1008000000000004E-05
DataValue, -0.116, 0, -5.3070000000000005E-05
DataValue, -0.128, 0, -5.4796E-05
DataValue, -0.14, 0, -5.6136E-05
DataValue, -0.152, 0, -5.6906E-05
DataValue, -0.164, 0, -5.7692E-05
DataValue, -0.17600000000000002, 0, -5.8262E-05
DataValue, -0.188, 0, -5.8466E-05
DataValue, -0.2, 0, -5.8686E-05
DataValue, -0.21200000000000002, 0, -5.8976E-05
DataValue, -0.224, 0, -5.8956E-05
DataValue, -0.23600000000000002, 0, -5.8976E-05
DataValue, -0.248, 0, -5.9158000000000005E-05
DataValue, -0.26, 0, -5.9186E-05
DataValue, -0.272, 0, -5.9128E-05
DataValue, -0.28400000000000003, 0, -5.9196E-05
DataValue, -0.29600000000000004, 0, -5.9348E-05
DataValue, -0.308, 0, -5.9346000000000004E-05
DataValue, -0.32, 0, -5.9252E-05
DataValue, -0.332, 0, -5.9374000000000004E-05
DataValue, -0.34400000000000003, 0, -5.9476000000000005E-05
DataValue, -0.35600000000000004, 0, -5.9414000000000004E-05
DataValue, -0.368, 0, -5.936E-05
DataValue, -0.38, 0, -5.9466E-05
DataValue, -0.392, 0, -5.9518E-05
DataValue, -0.404, 0, -5.9428E-05
DataValue, -0.41600000000000004, 0, -5.9454000000000004E-05
DataValue, -0.42800000000000005, 0, -5.9588E-05
DataValue, -0.44, 0, -5.9586E-05
DataValue, -0.452, 0, -5.9492E-05
DataValue, -0.464, 0, -5.956E-05
DataValue, -0.47600000000000003, 0, -5.9696E-05
DataValue, -0.48800000000000004, 0, -5.9664E-05
DataValue, -0.5, 0, -5.957E-05
DataValue, -0.5, 0, -5.9586E-05
DataValue, -0.48800000000000004, 0, -5.9668000000000005E-05
DataValue, -0.47600000000000003, 0, -5.9678E-05
DataValue, -0.464, 0, -5.9536E-05
DataValue, -0.452, 0, -5.9552E-05
DataValue, -0.44, 0, -5.9666E-05
DataValue, -0.42800000000000005, 0, -5.9584000000000004E-05
DataValue, -0.41600000000000004, 0, -5.9488000000000004E-05
DataValue, -0.404, 0, -5.9558E-05
DataValue, -0.392, 0, -5.9588E-05
DataValue, -0.38, 0, -5.9458E-05
DataValue, -0.368, 0, -5.9548E-05
DataValue, -0.35600000000000004, 0, -5.9576E-05
DataValue, -0.34400000000000003, 0, -5.9404E-05
DataValue, -0.332, 0, -5.9398E-05
DataValue, -0.32, 0, -5.946E-05
DataValue, -0.308, 0, -5.9304E-05
DataValue, -0.29600000000000004, 0, -5.9158000000000005E-05
DataValue, -0.28400000000000003, 0, -5.9212E-05
DataValue, -0.272, 0, -5.9102000000000004E-05
DataValue, -0.26, 0, -5.8846000000000005E-05
DataValue, -0.248, 0, -5.8790000000000005E-05
DataValue, -0.23600000000000002, 0, -5.8734000000000004E-05
DataValue, -0.224, 0, -5.8462000000000004E-05
DataValue, -0.21200000000000002, 0, -5.8174E-05
DataValue, -0.2, 0, -5.8012E-05
DataValue, -0.188, 0, -5.7602E-05
DataValue, -0.17600000000000002, 0, -5.7014E-05
DataValue, -0.164, 0, -5.6462E-05
DataValue, -0.152, 0, -5.5740000000000005E-05
DataValue, -0.14, 0, -5.4602000000000003E-05
DataValue, -0.128, 0, -5.3252000000000004E-05
DataValue, -0.116, 0, -5.1694000000000003E-05
DataValue, -0.10400000000000001, 0, -4.9548E-05
DataValue, -0.092, 0, -4.6824000000000004E-05
DataValue, -0.08, 0, -4.3686E-05
DataValue, -0.068, 0, -3.9852000000000004E-05
DataValue, -0.056, 0, -3.5108E-05
DataValue, -0.044000000000000004, 0, -2.9468E-05
DataValue, -0.032, 0, -2.3026E-05
DataValue, -0.02, 0, -1.549E-05
DataValue, -0.008, 0, -6.6269000000000009E-06
DataValue, 0.004, 0, 3.3735000000000004E-06
DataValue, 0.016, 0, 1.524E-05
DataValue, 0.028, 0, 2.8286E-05
DataValue, 0.04, 0, 4.2874E-05
DataValue, 0.052000000000000005, 0, 5.9324E-05
DataValue, 0.064, 0, 7.7636E-05
DataValue, 0.076, 0, 9.7656E-05
DataValue, 0.088000000000000009, 0, 0.00012122000000000001
DataValue, 0.1, 0, 0.00014546
DataValue, 0.1, -0.1, 0.00029780000000000003
DataValue, 0.088000000000000009, -0.1, 0.00025324
DataValue, 0.076, -0.1, 0.00021098000000000002
DataValue, 0.064, -0.1, 0.00017156000000000002
DataValue, 0.052000000000000005, -0.1, 0.00013426
DataValue, 0.04, -0.1, 9.9282E-05
DataValue, 0.028, -0.1, 6.6892E-05
DataValue, 0.016, -0.1, 3.648E-05
DataValue, 0.004, -0.1, 8.7456000000000014E-06
DataValue, -0.008, -0.1, -1.7238E-05
DataValue, -0.02, -0.1, -4.0796E-05
DataValue, -0.032, -0.1, -6.2474E-05
DataValue, -0.044000000000000004, -0.1, -8.2394E-05
DataValue, -0.056, -0.1, -0.00010026
DataValue, -0.068, -0.1, -0.00011562000000000001
DataValue, -0.08, -0.1, -0.00013010000000000002
DataValue, -0.092, -0.1, -0.00014318000000000002
DataValue, -0.10400000000000001, -0.1, -0.00015468
DataValue, -0.116, -0.1, -0.00016456
DataValue, -0.128, -0.1, -0.00017328000000000002
DataValue, -0.14, -0.1, -0.000181
DataValue, -0.152, -0.1, -0.00018732000000000002
DataValue, -0.164, -0.1, -0.00019252
DataValue, -0.17600000000000002, -0.1, -0.00019732000000000002
DataValue, -0.188, -0.1, -0.00020122
DataValue, -0.2, -0.1, -0.00020382
DataValue, -0.21200000000000002, -0.1, -0.00020628
DataValue, -0.224, -0.1, -0.00020830000000000002
DataValue, -0.23600000000000002, -0.1, -0.00020950000000000002
DataValue, -0.248, -0.1, -0.00021082000000000002
DataValue, -0.26, -0.1, -0.00021184
DataValue, -0.272, -0.1, -0.00021224000000000001
DataValue, -0.28400000000000003, -0.1, -0.00021272
DataValue, -0.29600000000000004, -0.1, -0.0002133
DataValue, -0.308, -0.1, -0.00021336
DataValue, -0.32, -0.1, -0.00021346
DataValue, -0.332, -0.1, -0.00021394
DataValue, -0.34400000000000003, -0.1, -0.00021404
DataValue, -0.35600000000000004, -0.1, -0.00021392
DataValue, -0.368, -0.1, -0.0002143
DataValue, -0.38, -0.1, -0.00021448000000000002
DataValue, -0.392, -0.1, -0.00021434
DataValue, -0.404, -0.1, -0.0002145
DataValue, -0.41600000000000004, -0.1, -0.00021486
DataValue, -0.42800000000000005, -0.1, -0.00021492
DataValue, -0.44, -0.1, -0.00021480000000000002
DataValue, -0.452, -0.1, -0.00021496000000000002
DataValue, -0.464, -0.1, -0.00021526000000000002
DataValue, -0.47600000000000003, -0.1, -0.00021518
DataValue, -0.48800000000000004, -0.1, -0.00021504
DataValue, -0.5, -0.1, -0.00021532000000000002
DataValue, -0.5, -0.1, -0.00021538000000000002
DataValue, -0.48800000000000004, -0.1, -0.00021516000000000002
DataValue, -0.47600000000000003, -0.1, -0.00021488
DataValue, -0.464, -0.1, -0.00021488
DataValue, -0.452, -0.1, -0.00021496000000000002
DataValue, -0.44, -0.1, -0.00021466
DataValue, -0.42800000000000005, -0.1, -0.0002144
DataValue, -0.41600000000000004, -0.1, -0.00021444000000000001
DataValue, -0.404, -0.1, -0.0002144
DataValue, -0.392, -0.1, -0.00021400000000000003
DataValue, -0.38, -0.1, -0.00021368
DataValue, -0.368, -0.1, -0.00021364000000000002
DataValue, -0.35600000000000004, -0.1, -0.00021346
DataValue, -0.34400000000000003, -0.1, -0.00021294
DataValue, -0.332, -0.1, -0.00021252
DataValue, -0.32, -0.1, -0.00021242
DataValue, -0.308, -0.1, -0.00021206000000000003
DataValue, -0.29600000000000004, -0.1, -0.00021138000000000003
DataValue, -0.28400000000000003, -0.1, -0.00021096000000000003
DataValue, -0.272, -0.1, -0.00021030000000000002
DataValue, -0.26, -0.1, -0.00020912
DataValue, -0.248, -0.1, -0.00020816
DataValue, -0.23600000000000002, -0.1, -0.00020692
DataValue, -0.224, -0.1, -0.00020490000000000002
DataValue, -0.21200000000000002, -0.1, -0.00020284
DataValue, -0.2, -0.1, -0.00020048
DataValue, -0.188, -0.1, -0.00019710000000000002
DataValue, -0.17600000000000002, -0.1, -0.00019324
DataValue, -0.164, -0.1, -0.00018912
DataValue, -0.152, -0.1, -0.00018352
DataValue, -0.14, -0.1, -0.00017700000000000002
DataValue, -0.128, -0.1, -0.00016976
DataValue, -0.116, -0.1, -0.00016144
DataValue, -0.10400000000000001, -0.1, -0.00015162000000000002
DataValue, -0.092, -0.1, -0.0001404
DataValue, -0.08, -0.1, -0.00012798
DataValue, -0.068, -0.1, -0.00011408
DataValue, -0.056, -0.1, -9.8636000000000009E-05
DataValue, -0.044000000000000004, -0.1, -8.104E-05
DataValue, -0.032, -0.1, -6.1788E-05
DataValue, -0.02, -0.1, -4.0332E-05
DataValue, -0.008, -0.1, -1.6882000000000002E-05
DataValue, 0.004, -0.1, 8.5411E-06
DataValue, 0.016, -0.1, 3.6804E-05
DataValue, 0.028, -0.1, 6.6856E-05
DataValue, 0.04, -0.1, 9.9492E-05
DataValue, 0.052000000000000005, -0.1, 0.00013542
DataValue, 0.064, -0.1, 0.00017332
DataValue, 0.076, -0.1, 0.00021358000000000003
DataValue, 0.088000000000000009, -0.1, 0.00025638
DataValue, 0.1, -0.1, 0.00030238000000000004
DataValue, 0.1, -0.2, 0.00049102
DataValue, 0.088000000000000009, -0.2, 0.00042344
DataValue, 0.076, -0.2, 0.00035748
DataValue, 0.064, -0.2, 0.00029386
DataValue, 0.052000000000000005, -0.2, 0.00023322000000000002
DataValue, 0.04, -0.2, 0.00017488
