
SetupTitle, (c1) Output curve in LGP
PrimitiveTest, I/V Sweep
TestParameter, Context.MainFrame, B1500A
TestParameter, Channel.UnitType, SMU, SMU
TestParameter, Channel.Unit, SMU1:HR/AS, SMU2:HR/AS
TestParameter, Channel.IName, Ig, Id
TestParameter, Channel.VName, Vg, Vd
TestParameter, Channel.Mode, V, V
TestParameter, Channel.Func, VAR2, VAR1
TestParameter, Channel.Index, 
TestParameter, Channel.Time, 
TestParameter, Measurement.Port.Unit, SMU1:HR/AS, SMU2:HR/AS
TestParameter, Measurement.Port.SeriesResistor, NONE, NONE
TestParameter, Measurement.Port.Filter, ON, ON
TestParameter, Measurement.Port.OutputVoltageComparison, 0, 0
TestParameter, Measurement.Primary.Locus, Double
TestParameter, Measurement.Primary.Scale, LINEAR
TestParameter, Measurement.Primary.Start, 0.1
TestParameter, Measurement.Primary.Stop, -0.5
TestParameter, Measurement.Primary.Step, -0.012
TestParameter, Measurement.Primary.Compliance, 0.1
TestParameter, Measurement.Primary.PowerCompliance, 0
TestParameter, Measurement.Aborting.Condition, CONTINUE AT ANY
TestParameter, Measurement.PostOutput.Value, START
TestParameter, Measurement.PostOutput.Retention, OFF
TestParameter, Measurement.Secondary.Start, 0.1
TestParameter, Measurement.Secondary.Count, 6
TestParameter, Measurement.Secondary.Step, -0.1
TestParameter, Measurement.Secondary.Compliance, 0.0001
TestParameter, Measurement.Secondary.PowerCompliance, 0
TestParameter, Measurement.Bias.Source, 0.1, 0.1
TestParameter, Measurement.Bias.Compliance, 0.0001, 0.1
TestParameter, Measurement.Monitor.Unit, SMU1:HR/AS, SMU2:HR/AS
TestParameter, Measurement.Monitor.Adc, HR ADC, HR ADC
TestParameter, Measurement.Monitor.Measurement, Compliance Side, Compliance Side
TestParameter, Measurement.Monitor.RangingMode, LIMITED, LIMITED
TestParameter, Measurement.Monitor.RangeBoundary, 1nA, 1nA
TestParameter, Measurement.Monitor.RangeRating, BY FULL RANGE, BY FULL RANGE
TestParameter, Measurement.Monitor.RangeRatingCoeff, 50, 50
TestParameter, Measurement.Timing.Hold, 0
TestParameter, Measurement.Timing.Delay, 0
TestParameter, Measurement.Adc.HighSpeed.Mode, AUTO
TestParameter, Measurement.Adc.HighSpeed.Coeff, 1
TestParameter, Measurement.Adc.HighResolution.AutoZero, OFF
TestParameter, Measurement.Adc.HighResolution.Mode, AUTO
TestParameter, Measurement.Adc.HighResolution.Coeff, 6
TestParameter, Measurement.WaitTime.Source.Coeff, 1
TestParameter, Measurement.WaitTime.Source.Offset, 0
TestParameter, Measurement.WaitTime.Monitor.Coeff, 1
TestParameter, Measurement.WaitTime.Monitor.Offset, 0
TestParameter, Output.Graph.Enabled, true
TestParameter, Output.Graph.AutoScaling, false
TestParameter, Output.Graph.XAxis.Data, Vd
TestParameter, Output.Graph.XAxis.Scale, Linear
TestParameter, Output.Graph.XAxis.Left, 0
TestParameter, Output.Graph.XAxis.Right, -0.5
TestParameter, Output.Graph.XAxis.RunTimeAutoScale, true
TestParameter, Output.Graph.YAxis.Data, Id
TestParameter, Output.Graph.YAxis.Scale, Linear
TestParameter, Output.Graph.YAxis.Bottom, -0.1
TestParameter, Output.Graph.YAxis.Top, 0.1
TestParameter, Output.Graph.YAxis.Group, 
TestParameter, Output.Graph.YAxis.RunTimeAutoScale, true
TestParameter, Output.List.Data, Vd, Vg, Id
TestParameter, AutoAnalysis.Interpolation, false
TestParameter, AutoAnalysis.Var2StepCount, 1
TestParameter, AutoAnalysis.Var2StepScript, 
TestParameter, AutoAnalysis.Line1.Enabled, false
TestParameter, AutoAnalysis.Line1.Type, 1
TestParameter, AutoAnalysis.Line1.Fix, True
TestParameter, AutoAnalysis.Line1.YAxis, 0
TestParameter, AutoAnalysis.Line1.Point1.Type, 0
TestParameter, AutoAnalysis.Line1.Point1.XY.X, 
TestParameter, AutoAnalysis.Line1.Point1.XY.Y, 
TestParameter, AutoAnalysis.Line1.Point1.Data.Var, 
TestParameter, AutoAnalysis.Line1.Point1.Data.Condition, 
TestParameter, AutoAnalysis.Line1.Point1.Data.Start, false
TestParameter, AutoAnalysis.Line1.Point1.Data.StartVar, 
TestParameter, AutoAnalysis.Line1.Point1.Data.StartCondition, 
TestParameter, AutoAnalysis.Line1.Point2.Type, 0
TestParameter, AutoAnalysis.Line1.Point2.XY.X, 
TestParameter, AutoAnalysis.Line1.Point2.XY.Y, 
TestParameter, AutoAnalysis.Line1.Point2.Data.Var, 
TestParameter, AutoAnalysis.Line1.Point2.Data.Condition, 
TestParameter, AutoAnalysis.Line1.Point2.Data.Start, false
TestParameter, AutoAnalysis.Line1.Point2.Data.StartVar, 
TestParameter, AutoAnalysis.Line1.Point2.Data.StartCondition, 
TestParameter, AutoAnalysis.Line1.GradientExpr, 0
TestParameter, AutoAnalysis.Line2.Enabled, false
TestParameter, AutoAnalysis.Line2.Type, 1
TestParameter, AutoAnalysis.Line2.Fix, True
TestParameter, AutoAnalysis.Line2.YAxis, 0
TestParameter, AutoAnalysis.Line2.Point1.Type, 0
TestParameter, AutoAnalysis.Line2.Point1.XY.X, 
TestParameter, AutoAnalysis.Line2.Point1.XY.Y, 
TestParameter, AutoAnalysis.Line2.Point1.Data.Var, 
TestParameter, AutoAnalysis.Line2.Point1.Data.Condition, 
TestParameter, AutoAnalysis.Line2.Point1.Data.Start, false
TestParameter, AutoAnalysis.Line2.Point1.Data.StartVar, 
TestParameter, AutoAnalysis.Line2.Point1.Data.StartCondition, 
TestParameter, AutoAnalysis.Line2.Point2.Type, 0
TestParameter, AutoAnalysis.Line2.Point2.XY.X, 
TestParameter, AutoAnalysis.Line2.Point2.XY.Y, 
TestParameter, AutoAnalysis.Line2.Point2.Data.Var, 
TestParameter, AutoAnalysis.Line2.Point2.Data.Condition, 
TestParameter, AutoAnalysis.Line2.Point2.Data.Start, false
TestParameter, AutoAnalysis.Line2.Point2.Data.StartVar, 
TestParameter, AutoAnalysis.Line2.Point2.Data.StartCondition, 
TestParameter, AutoAnalysis.Line2.GradientExpr, 0
TestParameter, AutoAnalysis.Marker.Enabled, false
TestParameter, AutoAnalysis.Marker.Data.Var, 
TestParameter, AutoAnalysis.Marker.Data.Condition, 
TestParameter, AutoAnalysis.Marker.Data.Start, false
TestParameter, AutoAnalysis.Marker.Data.StartVar, 
TestParameter, AutoAnalysis.Marker.Data.StartCondition, 
MetaData, TestRecord.EntryPoint, true
MetaData, TestRecord.RecordTime, 11/20/2024 01:21:53
MetaData, TestRecord.TestTarget, 
MetaData, TestRecord.IterationIndex, 16
MetaData, TestRecord.Preservation, true
MetaData, TestRecord.Flag, 
MetaData, TestRecord.Remarks, s20c2
MetaData, TestRecord.LinkKey, 0fefccbf-3190-4cda-acd4-25fb773ed127
MetaData, TestRecord.Parameters, 
Dimension1, 102, 102, 102
Dimension2, 6, 6, 6
DataName, Vd, Vg, Id
DataValue, 0.1, 0.1, 6.1148E-05
DataValue, 0.088000000000000009, 0.1, 4.9364000000000004E-05
DataValue, 0.076, 0.1, 3.9082E-05
DataValue, 0.064, 0.1, 2.993E-05
DataValue, 0.052000000000000005, 0.1, 2.1936E-05
DataValue, 0.04, 0.1, 1.5308E-05
DataValue, 0.028, 0.1, 9.4740000000000011E-06
DataValue, 0.016, 0.1, 4.8882000000000009E-06
DataValue, 0.004, 0.1, 1.1061E-06
DataValue, -0.008, 0.1, -2.0343E-06
DataValue, -0.02, 0.1, -4.3163000000000005E-06
DataValue, -0.032, 0.1, -6.1208000000000008E-06
DataValue, -0.044000000000000004, 0.1, -7.5186000000000012E-06
DataValue, -0.056, 0.1, -8.359100000000001E-06
DataValue, -0.068, 0.1, -9.0063E-06
DataValue, -0.08, 0.1, -9.4718000000000014E-06
DataValue, -0.092, 0.1, -9.6128E-06
DataValue, -0.10400000000000001, 0.1, -9.765E-06
DataValue, -0.116, 0.1, -9.8732E-06
DataValue, -0.128, 0.1, -9.7824000000000014E-06
DataValue, -0.14, 0.1, -9.8002000000000015E-06
DataValue, -0.152, 0.1, -9.8118000000000015E-06
DataValue, -0.164, 0.1, -9.6715E-06
DataValue, -0.17600000000000002, 0.1, -9.6753E-06
DataValue, -0.188, 0.1, -9.6742000000000013E-06
DataValue, -0.2, 0.1, -9.5361000000000018E-06
DataValue, -0.21200000000000002, 0.1, -9.5487E-06
DataValue, -0.224, 0.1, -9.5508000000000018E-06
DataValue, -0.23600000000000002, 0.1, -9.4219E-06
DataValue, -0.248, 0.1, -9.4382E-06
DataValue, -0.26, 0.1, -9.4463000000000014E-06
DataValue, -0.272, 0.1, -9.3207E-06
DataValue, -0.28400000000000003, 0.1, -9.3495000000000009E-06
DataValue, -0.29600000000000004, 0.1, -9.3515E-06
DataValue, -0.308, 0.1, -9.2370000000000015E-06
DataValue, -0.32, 0.1, -9.277700000000001E-06
DataValue, -0.332, 0.1, -9.2813E-06
DataValue, -0.34400000000000003, 0.1, -9.1687E-06
DataValue, -0.35600000000000004, 0.1, -9.2145000000000013E-06
DataValue, -0.368, 0.1, -9.2162000000000016E-06
DataValue, -0.38, 0.1, -9.1070000000000011E-06
DataValue, -0.392, 0.1, -9.1708E-06
DataValue, -0.404, 0.1, -9.1574000000000015E-06
DataValue, -0.41600000000000004, 0.1, -9.058E-06
DataValue, -0.42800000000000005, 0.1, -9.1276E-06
DataValue, -0.44, 0.1, -9.1091E-06
DataValue, -0.452, 0.1, -9.0131E-06
DataValue, -0.464, 0.1, -9.0894000000000014E-06
DataValue, -0.47600000000000003, 0.1, -9.0883E-06
DataValue, -0.48800000000000004, 0.1, -8.9819000000000012E-06
DataValue, -0.5, 0.1, -9.0438000000000014E-06
DataValue, -0.5, 0.1, -9.0726E-06
DataValue, -0.48800000000000004, 0.1, -8.964800000000001E-06
DataValue, -0.47600000000000003, 0.1, -8.9640000000000009E-06
DataValue, -0.464, 0.1, -9.0249E-06
DataValue, -0.452, 0.1, -8.9232000000000012E-06
DataValue, -0.44, 0.1, -8.9263000000000013E-06
DataValue, -0.42800000000000005, 0.1, -8.9861E-06
DataValue, -0.41600000000000004, 0.1, -8.8835E-06
DataValue, -0.404, 0.1, -8.8893000000000014E-06
DataValue, -0.392, 0.1, -8.9433000000000013E-06
DataValue, -0.38, 0.1, -8.841200000000001E-06
DataValue, -0.368, 0.1, -8.8560000000000013E-06
DataValue, -0.35600000000000004, 0.1, -8.9018000000000017E-06
DataValue, -0.34400000000000003, 0.1, -8.8014E-06
DataValue, -0.332, 0.1, -8.824E-06
DataValue, -0.32, 0.1, -8.8668000000000012E-06
DataValue, -0.308, 0.1, -8.7618000000000014E-06
DataValue, -0.29600000000000004, 0.1, -8.7863000000000009E-06
DataValue, -0.28400000000000003, 0.1, -8.8383000000000014E-06
DataValue, -0.272, 0.1, -8.7406E-06
DataValue, -0.26, 0.1, -8.7459E-06
DataValue, -0.248, 0.1, -8.7779000000000011E-06
DataValue, -0.23600000000000002, 0.1, -8.6644000000000013E-06
DataValue, -0.224, 0.1, -8.689000000000001E-06
DataValue, -0.21200000000000002, 0.1, -8.7026E-06
DataValue, -0.2, 0.1, -8.5756000000000014E-06
DataValue, -0.188, 0.1, -8.5943E-06
DataValue, -0.17600000000000002, 0.1, -8.5834000000000015E-06
DataValue, -0.164, 0.1, -8.4324E-06
DataValue, -0.152, 0.1, -8.4332E-06
DataValue, -0.14, 0.1, -8.3897E-06
DataValue, -0.128, 0.1, -8.1981E-06
DataValue, -0.116, 0.1, -8.1373000000000008E-06
DataValue, -0.10400000000000001, 0.1, -7.9939000000000015E-06
DataValue, -0.092, 0.1, -7.6747000000000012E-06
DataValue, -0.08, 0.1, -7.4408000000000008E-06
DataValue, -0.068, 0.1, -7.0344000000000008E-06
DataValue, -0.056, 0.1, -6.3763E-06
DataValue, -0.044000000000000004, 0.1, -5.6854000000000007E-06
DataValue, -0.032, 0.1, -4.6625000000000007E-06
DataValue, -0.02, 0.1, -3.2039000000000004E-06
DataValue, -0.008, 0.1, -1.4934000000000002E-06
DataValue, 0.004, 0.1, 8.699E-07
DataValue, 0.016, 0.1, 3.8969000000000008E-06
DataValue, 0.028, 0.1, 7.4818000000000009E-06
DataValue, 0.04, 0.1, 1.2316E-05
DataValue, 0.052000000000000005, 0.1, 1.7758000000000002E-05
DataValue, 0.064, 0.1, 2.4188E-05
DataValue, 0.076, 0.1, 3.1972E-05
DataValue, 0.088000000000000009, 0.1, 4.1110000000000005E-05
DataValue, 0.1, 0.1, 5.1486E-05
DataValue, 0.1, 0, 0.00016286000000000002
DataValue, 0.088000000000000009, 0, 0.00013606
DataValue, 0.076, 0, 0.00011116000000000001
DataValue, 0.064, 0, 8.8588E-05
DataValue, 0.052000000000000005, 0, 6.7844E-05
DataValue, 0.04, 0, 4.9236E-05
DataValue, 0.028, 0, 3.2508E-05
DataValue, 0.016, 0, 1.7324000000000002E-05
DataValue, 0.004, 0, 4.0803000000000006E-06
DataValue, -0.008, 0, -7.8157E-06
DataValue, -0.02, 0, -1.7934E-05
DataValue, -0.032, 0, -2.6904000000000002E-05
DataValue, -0.044000000000000004, 0, -3.471E-05
DataValue, -0.056, 0, -4.1164E-05
DataValue, -0.068, 0, -4.6586000000000004E-05
DataValue, -0.08, 0, -5.1252E-05
DataValue, -0.092, 0, -5.4886E-05
DataValue, -0.10400000000000001, 0, -5.7708000000000004E-05
DataValue, -0.116, 0, -6.0096E-05
DataValue, -0.128, 0, -6.1896E-05
DataValue, -0.14, 0, -6.3076E-05
DataValue, -0.152, 0, -6.4062E-05
DataValue, -0.164, 0, -6.4834E-05
DataValue, -0.17600000000000002, 0, -6.52E-05
DataValue, -0.188, 0, -6.5438E-05
DataValue, -0.2, 0, -6.578E-05
DataValue, -0.21200000000000002, 0, -6.5884000000000008E-05
DataValue, -0.224, 0, -6.5834000000000007E-05
DataValue, -0.23600000000000002, 0, -6.5972E-05
DataValue, -0.248, 0, -6.6100000000000007E-05
DataValue, -0.26, 0, -6.5976E-05
DataValue, -0.272, 0, -6.5964000000000007E-05
DataValue, -0.28400000000000003, 0, -6.612E-05
DataValue, -0.29600000000000004, 0, -6.6076000000000009E-05
DataValue, -0.308, 0, -6.5994E-05
DataValue, -0.32, 0, -6.6142E-05
DataValue, -0.332, 0, -6.6204E-05
DataValue, -0.34400000000000003, 0, -6.6074E-05
DataValue, -0.35600000000000004, 0, -6.6118E-05
DataValue, -0.368, 0, -6.6258E-05
DataValue, -0.38, 0, -6.6158E-05
DataValue, -0.392, 0, -6.6104E-05
DataValue, -0.404, 0, -6.6238E-05
DataValue, -0.41600000000000004, 0, -6.6252E-05
DataValue, -0.42800000000000005, 0, -6.6128E-05
DataValue, -0.44, 0, -6.6236000000000008E-05
DataValue, -0.452, 0, -6.6348000000000009E-05
DataValue, -0.464, 0, -6.6244E-05
DataValue, -0.47600000000000003, 0, -6.6214E-05
DataValue, -0.48800000000000004, 0, -6.6348000000000009E-05
DataValue, -0.5, 0, -6.6358E-05
DataValue, -0.5, 0, -6.627E-05
DataValue, -0.48800000000000004, 0, -6.6192E-05
DataValue, -0.47600000000000003, 0, -6.6322E-05
DataValue, -0.464, 0, -6.63E-05
DataValue, -0.452, 0, -6.6148E-05
DataValue, -0.44, 0, -6.626E-05
DataValue, -0.42800000000000005, 0, -6.6332E-05
DataValue, -0.41600000000000004, 0, -6.618E-05
DataValue, -0.404, 0, -6.6146E-05
DataValue, -0.392, 0, -6.6256E-05
DataValue, -0.38, 0, -6.6164E-05
DataValue, -0.368, 0, -6.604E-05
DataValue, -0.35600000000000004, 0, -6.6142E-05
DataValue, -0.34400000000000003, 0, -6.6124E-05
DataValue, -0.332, 0, -6.5944E-05
DataValue, -0.32, 0, -6.5918E-05
DataValue, -0.308, 0, -6.5974E-05
DataValue, -0.29600000000000004, 0, -6.5786E-05
DataValue, -0.28400000000000003, 0, -6.561E-05
DataValue, -0.272, 0, -6.5630000000000007E-05
DataValue, -0.26, 0, -6.5458E-05
DataValue, -0.248, 0, -6.519E-05
DataValue, -0.23600000000000002, 0, -6.5096E-05
DataValue, -0.224, 0, -6.4992E-05
DataValue, -0.21200000000000002, 0, -6.4656E-05
DataValue, -0.2, 0, -6.426E-05
DataValue, -0.188, 0, -6.3976E-05
DataValue, -0.17600000000000002, 0, -6.3430000000000008E-05
DataValue, -0.164, 0, -6.2644E-05
DataValue, -0.152, 0, -6.1856E-05
DataValue, -0.14, 0, -6.089E-05
DataValue, -0.128, 0, -5.9352000000000004E-05
DataValue, -0.116, 0, -5.7468E-05
DataValue, -0.10400000000000001, 0, -5.5306E-05
DataValue, -0.092, 0, -5.2528E-05
DataValue, -0.08, 0, -4.8954E-05
DataValue, -0.068, 0, -4.4596000000000005E-05
DataValue, -0.056, 0, -3.9494E-05
DataValue, -0.044000000000000004, 0, -3.3376E-05
DataValue, -0.032, 0, -2.5966000000000002E-05
DataValue, -0.02, 0, -1.7366E-05
DataValue, -0.008, 0, -7.6212000000000008E-06
DataValue, 0.004, 0, 3.9774E-06
DataValue, 0.016, 0, 1.7136E-05
DataValue, 0.028, 0, 3.206E-05
DataValue, 0.04, 0, 4.8894E-05
DataValue, 0.052000000000000005, 0, 6.7508E-05
DataValue, 0.064, 0, 8.8134000000000007E-05
DataValue, 0.076, 0, 0.000111188
DataValue, 0.088000000000000009, 0, 0.00013812
DataValue, 0.1, 0, 0.00016582
DataValue, 0.1, -0.1, 0.00033898
DataValue, 0.088000000000000009, -0.1, 0.00028890000000000003
DataValue, 0.076, -0.1, 0.0002413
DataValue, 0.064, -0.1, 0.00019584000000000002
DataValue, 0.052000000000000005, -0.1, 0.00015342
DataValue, 0.04, -0.1, 0.0001139
DataValue, 0.028, -0.1, 7.6418E-05
DataValue, 0.016, -0.1, 4.2042E-05
DataValue, 0.004, -0.1, 9.8617E-06
DataValue, -0.008, -0.1, -1.959E-05
DataValue, -0.02, -0.1, -4.7048E-05
DataValue, -0.032, -0.1, -7.1846E-05
DataValue, -0.044000000000000004, -0.1, -9.4552E-05
DataValue, -0.056, -0.1, -0.00011468
DataValue, -0.068, -0.1, -0.00013350000000000002
DataValue, -0.08, -0.1, -0.00015016
DataValue, -0.092, -0.1, -0.00016484
DataValue, -0.10400000000000001, -0.1, -0.00017802
DataValue, -0.116, -0.1, -0.00018962000000000002
DataValue, -0.128, -0.1, -0.00019938
DataValue, -0.14, -0.1, -0.00020772000000000002
DataValue, -0.152, -0.1, -0.00021514
DataValue, -0.164, -0.1, -0.00022096000000000003
DataValue, -0.17600000000000002, -0.1, -0.00022598
DataValue, -0.188, -0.1, -0.00023032
DataValue, -0.2, -0.1, -0.00023342000000000003
DataValue, -0.21200000000000002, -0.1, -0.00023586
DataValue, -0.224, -0.1, -0.00023822
DataValue, -0.23600000000000002, -0.1, -0.00023968
DataValue, -0.248, -0.1, -0.00024060000000000002
DataValue, -0.26, -0.1, -0.00024170000000000002
DataValue, -0.272, -0.1, -0.00024246
DataValue, -0.28400000000000003, -0.1, -0.00024258000000000003
DataValue, -0.29600000000000004, -0.1, -0.00024306000000000002
DataValue, -0.308, -0.1, -0.00024356
DataValue, -0.32, -0.1, -0.00024342000000000002
DataValue, -0.332, -0.1, -0.00024356
DataValue, -0.34400000000000003, -0.1, -0.00024400000000000002
DataValue, -0.35600000000000004, -0.1, -0.00024398
DataValue, -0.368, -0.1, -0.00024392
DataValue, -0.38, -0.1, -0.00024432
DataValue, -0.392, -0.1, -0.00024448
DataValue, -0.404, -0.1, -0.00024422
DataValue, -0.41600000000000004, -0.1, -0.00024464
DataValue, -0.42800000000000005, -0.1, -0.00024484
DataValue, -0.44, -0.1, -0.00024464
DataValue, -0.452, -0.1, -0.00024476
DataValue, -0.464, -0.1, -0.00024512000000000004
DataValue, -0.47600000000000003, -0.1, -0.00024496
DataValue, -0.48800000000000004, -0.1, -0.0002449
DataValue, -0.5, -0.1, -0.00024524000000000003
DataValue, -0.5, -0.1, -0.00024528
DataValue, -0.48800000000000004, -0.1, -0.000245
DataValue, -0.47600000000000003, -0.1, -0.00024470000000000004
DataValue, -0.464, -0.1, -0.00024480000000000004
DataValue, -0.452, -0.1, -0.00024486
DataValue, -0.44, -0.1, -0.00024440000000000003
DataValue, -0.42800000000000005, -0.1, -0.0002442
DataValue, -0.41600000000000004, -0.1, -0.00024430000000000003
DataValue, -0.404, -0.1, -0.00024412000000000001
DataValue, -0.392, -0.1, -0.00024362
DataValue, -0.38, -0.1, -0.00024336000000000003
DataValue, -0.368, -0.1, -0.00024338000000000002
DataValue, -0.35600000000000004, -0.1, -0.00024296000000000002
DataValue, -0.34400000000000003, -0.1, -0.00024234000000000001
DataValue, -0.332, -0.1, -0.00024218000000000002
DataValue, -0.32, -0.1, -0.00024194
DataValue, -0.308, -0.1, -0.00024132000000000003
DataValue, -0.29600000000000004, -0.1, -0.00024052
DataValue, -0.28400000000000003, -0.1, -0.00024002000000000002
DataValue, -0.272, -0.1, -0.00023936
DataValue, -0.26, -0.1, -0.00023814000000000002
DataValue, -0.248, -0.1, -0.00023668000000000002
DataValue, -0.23600000000000002, -0.1, -0.00023536000000000002
DataValue, -0.224, -0.1, -0.00023364000000000002
DataValue, -0.21200000000000002, -0.1, -0.00023098000000000001
DataValue, -0.2, -0.1, -0.00022796
DataValue, -0.188, -0.1, -0.00022478000000000003
DataValue, -0.17600000000000002, -0.1, -0.00022060000000000002
DataValue, -0.164, -0.1, -0.00021526000000000002
DataValue, -0.152, -0.1, -0.00020920000000000002
DataValue, -0.14, -0.1, -0.00020232
DataValue, -0.128, -0.1, -0.00019408
DataValue, -0.116, -0.1, -0.00018422000000000002
DataValue, -0.10400000000000001, -0.1, -0.00017318000000000002
DataValue, -0.092, -0.1, -0.00016072000000000002
DataValue, -0.08, -0.1, -0.00014654000000000002
DataValue, -0.068, -0.1, -0.00013028
DataValue, -0.056, -0.1, -0.0001123
DataValue, -0.044000000000000004, -0.1, -9.2864E-05
DataValue, -0.032, -0.1, -7.0478E-05
DataValue, -0.02, -0.1, -4.6052E-05
DataValue, -0.008, -0.1, -1.9476E-05
DataValue, 0.004, -0.1, 9.9541000000000018E-06
DataValue, 0.016, -0.1, 4.1874E-05
DataValue, 0.028, -0.1, 7.6496000000000008E-05
DataValue, 0.04, -0.1, 0.00011356200000000001
DataValue, 0.052000000000000005, -0.1, 0.00015428000000000002
DataValue, 0.064, -0.1, 0.00019696
DataValue, 0.076, -0.1, 0.00024300000000000003
DataValue, 0.088000000000000009, -0.1, 0.00029166
DataValue, 0.1, -0.1, 0.00034306
DataValue, 0.1, -0.2, 0.00054882
DataValue, 0.088000000000000009, -0.2, 0.00047302000000000005
DataValue, 0.076, -0.2, 0.00040014
DataValue, 0.064, -0.2, 0.00032930000000000004
DataValue, 0.052000000000000005, -0.2, 0.00026104000000000004
DataValue, 0.04, -0.2, 0.00019624
