
SetupTitle, (c2) Transfer curve in LGP
PrimitiveTest, I/V Sweep
TestParameter, Context.MainFrame, B1500A
TestParameter, Channel.UnitType, SMU, SMU
TestParameter, Channel.Unit, SMU1:HR/AS, SMU2:HR/AS
TestParameter, Channel.IName, Ig, Id
TestParameter, Channel.VName, Vg, Vd
TestParameter, Channel.Mode, V, V
TestParameter, Channel.Func, VAR1, VAR2
TestParameter, Channel.Index, 
TestParameter, Channel.Time, 
TestParameter, Measurement.Port.Unit, SMU1:HR/AS, SMU2:HR/AS
TestParameter, Measurement.Port.SeriesResistor, NONE, NONE
TestParameter, Measurement.Port.Filter, ON, ON
TestParameter, Measurement.Port.OutputVoltageComparison, 0, 0
TestParameter, Measurement.Primary.Locus, Double
TestParameter, Measurement.Primary.Scale, LINEAR
TestParameter, Measurement.Primary.Start, 0.1
TestParameter, Measurement.Primary.Stop, -0.4
TestParameter, Measurement.Primary.Step, -0.01
TestParameter, Measurement.Primary.Compliance, 0.1
TestParameter, Measurement.Primary.PowerCompliance, 1
TestParameter, Measurement.Aborting.Condition, SKIP AT ANY ABNORMAL
TestParameter, Measurement.PostOutput.Value, START
TestParameter, Measurement.PostOutput.Retention, OFF
TestParameter, Measurement.Secondary.Start, -0.25
TestParameter, Measurement.Secondary.Count, 5
TestParameter, Measurement.Secondary.Step, 0
TestParameter, Measurement.Secondary.Compliance, 0.1
TestParameter, Measurement.Secondary.PowerCompliance, 1
TestParameter, Measurement.Bias.Source, 0.1, -0.25
TestParameter, Measurement.Bias.Compliance, 0.1, 0.1
TestParameter, Measurement.Monitor.Unit, SMU1:HR/AS, SMU2:HR/AS
TestParameter, Measurement.Monitor.Adc, HR ADC, HR ADC
TestParameter, Measurement.Monitor.Measurement, Compliance Side, Compliance Side
TestParameter, Measurement.Monitor.RangingMode, LIMITED, LIMITED
TestParameter, Measurement.Monitor.RangeBoundary, 1nA, 1nA
TestParameter, Measurement.Monitor.RangeRating, BY FULL RANGE, BY FULL RANGE
TestParameter, Measurement.Monitor.RangeRatingCoeff, 50, 50
TestParameter, Measurement.Timing.Hold, 0
TestParameter, Measurement.Timing.Delay, 0
TestParameter, Measurement.Adc.HighSpeed.Mode, AUTO
TestParameter, Measurement.Adc.HighSpeed.Coeff, 1
TestParameter, Measurement.Adc.HighResolution.AutoZero, OFF
TestParameter, Measurement.Adc.HighResolution.Mode, AUTO
TestParameter, Measurement.Adc.HighResolution.Coeff, 6
TestParameter, Measurement.WaitTime.Source.Coeff, 1
TestParameter, Measurement.WaitTime.Source.Offset, 0
TestParameter, Measurement.WaitTime.Monitor.Coeff, 1
TestParameter, Measurement.WaitTime.Monitor.Offset, 0
TestParameter, Output.Graph.Enabled, true
TestParameter, Output.Graph.AutoScaling, false
TestParameter, Output.Graph.XAxis.Data, Vg
TestParameter, Output.Graph.XAxis.Scale, Linear
TestParameter, Output.Graph.XAxis.Left, 0.60000000000000009
TestParameter, Output.Graph.XAxis.Right, -0.60000000000000009
TestParameter, Output.Graph.XAxis.RunTimeAutoScale, true
TestParameter, Output.Graph.YAxis.Data, Id
TestParameter, Output.Graph.YAxis.Scale, Linear
TestParameter, Output.Graph.YAxis.Bottom, -0.1
TestParameter, Output.Graph.YAxis.Top, 0.1
TestParameter, Output.Graph.YAxis.Group, 
TestParameter, Output.Graph.YAxis.RunTimeAutoScale, true
TestParameter, Output.List.Data, Vd, Vg, Id
TestParameter, AutoAnalysis.Interpolation, false
TestParameter, AutoAnalysis.Var2StepCount, 1
TestParameter, AutoAnalysis.Var2StepScript, 
TestParameter, AutoAnalysis.Line1.Enabled, false
TestParameter, AutoAnalysis.Line1.Type, 1
TestParameter, AutoAnalysis.Line1.Fix, True
TestParameter, AutoAnalysis.Line1.YAxis, 0
TestParameter, AutoAnalysis.Line1.Point1.Type, 0
TestParameter, AutoAnalysis.Line1.Point1.XY.X, 
TestParameter, AutoAnalysis.Line1.Point1.XY.Y, 
TestParameter, AutoAnalysis.Line1.Point1.Data.Var, 
TestParameter, AutoAnalysis.Line1.Point1.Data.Condition, 
TestParameter, AutoAnalysis.Line1.Point1.Data.Start, false
TestParameter, AutoAnalysis.Line1.Point1.Data.StartVar, 
TestParameter, AutoAnalysis.Line1.Point1.Data.StartCondition, 
TestParameter, AutoAnalysis.Line1.Point2.Type, 0
TestParameter, AutoAnalysis.Line1.Point2.XY.X, 
TestParameter, AutoAnalysis.Line1.Point2.XY.Y, 
TestParameter, AutoAnalysis.Line1.Point2.Data.Var, 
TestParameter, AutoAnalysis.Line1.Point2.Data.Condition, 
TestParameter, AutoAnalysis.Line1.Point2.Data.Start, false
TestParameter, AutoAnalysis.Line1.Point2.Data.StartVar, 
TestParameter, AutoAnalysis.Line1.Point2.Data.StartCondition, 
TestParameter, AutoAnalysis.Line1.GradientExpr, 0
TestParameter, AutoAnalysis.Line2.Enabled, false
TestParameter, AutoAnalysis.Line2.Type, 1
TestParameter, AutoAnalysis.Line2.Fix, True
TestParameter, AutoAnalysis.Line2.YAxis, 0
TestParameter, AutoAnalysis.Line2.Point1.Type, 0
TestParameter, AutoAnalysis.Line2.Point1.XY.X, 
TestParameter, AutoAnalysis.Line2.Point1.XY.Y, 
TestParameter, AutoAnalysis.Line2.Point1.Data.Var, 
TestParameter, AutoAnalysis.Line2.Point1.Data.Condition, 
TestParameter, AutoAnalysis.Line2.Point1.Data.Start, false
TestParameter, AutoAnalysis.Line2.Point1.Data.StartVar, 
TestParameter, AutoAnalysis.Line2.Point1.Data.StartCondition, 
TestParameter, AutoAnalysis.Line2.Point2.Type, 0
TestParameter, AutoAnalysis.Line2.Point2.XY.X, 
TestParameter, AutoAnalysis.Line2.Point2.XY.Y, 
TestParameter, AutoAnalysis.Line2.Point2.Data.Var, 
TestParameter, AutoAnalysis.Line2.Point2.Data.Condition, 
TestParameter, AutoAnalysis.Line2.Point2.Data.Start, false
TestParameter, AutoAnalysis.Line2.Point2.Data.StartVar, 
TestParameter, AutoAnalysis.Line2.Point2.Data.StartCondition, 
TestParameter, AutoAnalysis.Line2.GradientExpr, 0
TestParameter, AutoAnalysis.Marker.Enabled, false
TestParameter, AutoAnalysis.Marker.Data.Var, 
TestParameter, AutoAnalysis.Marker.Data.Condition, 
TestParameter, AutoAnalysis.Marker.Data.Start, false
TestParameter, AutoAnalysis.Marker.Data.StartVar, 
TestParameter, AutoAnalysis.Marker.Data.StartCondition, 
MetaData, TestRecord.EntryPoint, true
MetaData, TestRecord.RecordTime, 12/22/2024 04:44:34
MetaData, TestRecord.TestTarget, 
MetaData, TestRecord.IterationIndex, 2
MetaData, TestRecord.Preservation, true
MetaData, TestRecord.Flag, 
MetaData, TestRecord.Remarks, s21c4
MetaData, TestRecord.LinkKey, 2db2e718-e4b8-4775-8364-411735728ac8
MetaData, TestRecord.Parameters, 
Dimension1, 102, 102, 102
Dimension2, 5, 5, 5
DataName, Vg, Vd, Id
DataValue, 0.1, -0.25, -9.6924E-06
DataValue, 0.090000000000000011, -0.25, -1.1020800000000001E-05
DataValue, 0.08, -0.25, -1.24E-05
DataValue, 0.07, -0.25, -1.4068E-05
DataValue, 0.060000000000000005, -0.25, -1.5888E-05
DataValue, 0.05, -0.25, -1.7882E-05
DataValue, 0.04, -0.25, -2.0194E-05
DataValue, 0.030000000000000002, -0.25, -2.2648E-05
DataValue, 0.02, -0.25, -2.5292E-05
DataValue, 0.01, -0.25, -2.8226E-05
DataValue, 0, -0.25, -3.1404E-05
DataValue, -0.01, -0.25, -3.4872E-05
DataValue, -0.02, -0.25, -3.8412000000000004E-05
DataValue, -0.030000000000000002, -0.25, -4.2392000000000003E-05
DataValue, -0.04, -0.25, -4.663E-05
DataValue, -0.05, -0.25, -5.1064000000000004E-05
DataValue, -0.060000000000000005, -0.25, -5.5896E-05
DataValue, -0.07, -0.25, -6.105E-05
DataValue, -0.08, -0.25, -6.6388E-05
DataValue, -0.090000000000000011, -0.25, -7.2042E-05
DataValue, -0.1, -0.25, -7.8274E-05
DataValue, -0.11, -0.25, -8.4624000000000008E-05
DataValue, -0.12000000000000001, -0.25, -9.1348000000000007E-05
DataValue, -0.13, -0.25, -9.8246000000000008E-05
DataValue, -0.14, -0.25, -0.00010557000000000001
DataValue, -0.15, -0.25, -0.000113268
DataValue, -0.16, -0.25, -0.00012340000000000002
DataValue, -0.17, -0.25, -0.00013134
DataValue, -0.18000000000000002, -0.25, -0.0001398
DataValue, -0.19, -0.25, -0.00014834
DataValue, -0.2, -0.25, -0.00015732000000000002
DataValue, -0.21000000000000002, -0.25, -0.0001666
DataValue, -0.22, -0.25, -0.00017636
DataValue, -0.23, -0.25, -0.0001864
DataValue, -0.24000000000000002, -0.25, -0.00019618
DataValue, -0.25, -0.25, -0.00020662000000000002
DataValue, -0.26, -0.25, -0.00021702
DataValue, -0.27, -0.25, -0.00022792000000000003
DataValue, -0.28, -0.25, -0.00023862000000000002
DataValue, -0.29000000000000004, -0.25, -0.00024968
DataValue, -0.3, -0.25, -0.00026030000000000004
DataValue, -0.31, -0.25, -0.00027124
DataValue, -0.32, -0.25, -0.00028218000000000004
DataValue, -0.33, -0.25, -0.00029294
DataValue, -0.34, -0.25, -0.0003036
DataValue, -0.35000000000000003, -0.25, -0.00031442000000000004
DataValue, -0.36000000000000004, -0.25, -0.00032526
DataValue, -0.37, -0.25, -0.0003352
DataValue, -0.38, -0.25, -0.00034520000000000004
DataValue, -0.39, -0.25, -0.00035496000000000003
DataValue, -0.4, -0.25, -0.0003642
DataValue, -0.4, -0.25, -0.00036520000000000004
DataValue, -0.39, -0.25, -0.00035776000000000004
DataValue, -0.38, -0.25, -0.00034952000000000003
DataValue, -0.37, -0.25, -0.00034106
DataValue, -0.36000000000000004, -0.25, -0.00033212000000000004
DataValue, -0.35000000000000003, -0.25, -0.00032248000000000004
DataValue, -0.34, -0.25, -0.00031334
DataValue, -0.33, -0.25, -0.00030354000000000004
DataValue, -0.32, -0.25, -0.0002931
DataValue, -0.31, -0.25, -0.00028274
DataValue, -0.3, -0.25, -0.00027226
DataValue, -0.29000000000000004, -0.25, -0.00026232
DataValue, -0.28, -0.25, -0.00025152000000000003
DataValue, -0.27, -0.25, -0.00024090000000000003
DataValue, -0.26, -0.25, -0.00023096000000000003
DataValue, -0.25, -0.25, -0.00022064
DataValue, -0.24000000000000002, -0.25, -0.00021
DataValue, -0.23, -0.25, -0.0002001
DataValue, -0.22, -0.25, -0.00018968
DataValue, -0.21000000000000002, -0.25, -0.0001799
DataValue, -0.2, -0.25, -0.00017022
DataValue, -0.19, -0.25, -0.00016058
DataValue, -0.18000000000000002, -0.25, -0.00015114000000000002
DataValue, -0.17, -0.25, -0.00014186
DataValue, -0.16, -0.25, -0.00013338
DataValue, -0.15, -0.25, -0.00012496
DataValue, -0.14, -0.25, -0.0001166
DataValue, -0.13, -0.25, -0.00010886000000000001
DataValue, -0.12000000000000001, -0.25, -0.00010144
DataValue, -0.11, -0.25, -9.3442E-05
DataValue, -0.1, -0.25, -8.6704E-05
DataValue, -0.090000000000000011, -0.25, -8.0046E-05
DataValue, -0.08, -0.25, -7.3816E-05
DataValue, -0.07, -0.25, -6.7882E-05
DataValue, -0.060000000000000005, -0.25, -6.2278E-05
DataValue, -0.05, -0.25, -5.6984E-05
DataValue, -0.04, -0.25, -5.204E-05
DataValue, -0.030000000000000002, -0.25, -4.7294000000000005E-05
DataValue, -0.02, -0.25, -4.2992000000000004E-05
DataValue, -0.01, -0.25, -3.8612E-05
DataValue, 0, -0.25, -3.4828E-05
DataValue, 0.01, -0.25, -3.1334E-05
DataValue, 0.02, -0.25, -2.7918E-05
DataValue, 0.030000000000000002, -0.25, -2.4828E-05
DataValue, 0.04, -0.25, -2.2022E-05
DataValue, 0.05, -0.25, -1.9442E-05
DataValue, 0.060000000000000005, -0.25, -1.7036E-05
DataValue, 0.07, -0.25, -1.483E-05
DataValue, 0.08, -0.25, -1.2958E-05
DataValue, 0.090000000000000011, -0.25, -1.1178E-05
DataValue, 0.1, -0.25, -9.3884000000000015E-06
DataValue, 0.1, -0.25, -8.5009E-06
DataValue, 0.090000000000000011, -0.25, -9.6967000000000015E-06
DataValue, 0.08, -0.25, -1.1093E-05
DataValue, 0.07, -0.25, -1.3026E-05
DataValue, 0.060000000000000005, -0.25, -1.4656E-05
DataValue, 0.05, -0.25, -1.6622E-05
DataValue, 0.04, -0.25, -1.8748E-05
DataValue, 0.030000000000000002, -0.25, -2.1048000000000002E-05
DataValue, 0.02, -0.25, -2.366E-05
DataValue, 0.01, -0.25, -2.6482E-05
DataValue, 0, -0.25, -2.9606E-05
DataValue, -0.01, -0.25, -3.293E-05
DataValue, -0.02, -0.25, -3.651E-05
DataValue, -0.030000000000000002, -0.25, -4.0294000000000004E-05
DataValue, -0.04, -0.25, -4.4464E-05
DataValue, -0.05, -0.25, -4.8914E-05
DataValue, -0.060000000000000005, -0.25, -5.3582E-05
DataValue, -0.07, -0.25, -5.8646E-05
DataValue, -0.08, -0.25, -6.3996E-05
DataValue, -0.090000000000000011, -0.25, -6.9826E-05
DataValue, -0.1, -0.25, -7.5952000000000007E-05
DataValue, -0.11, -0.25, -8.2228E-05
DataValue, -0.12000000000000001, -0.25, -8.8950000000000007E-05
DataValue, -0.13, -0.25, -9.5948E-05
DataValue, -0.14, -0.25, -0.000103386
DataValue, -0.15, -0.25, -0.000111248
DataValue, -0.16, -0.25, -0.00012206000000000001
DataValue, -0.17, -0.25, -0.00012966
DataValue, -0.18000000000000002, -0.25, -0.0001382
DataValue, -0.19, -0.25, -0.00014670000000000002
DataValue, -0.2, -0.25, -0.00015606000000000002
DataValue, -0.21000000000000002, -0.25, -0.00016542
DataValue, -0.22, -0.25, -0.00017516000000000002
DataValue, -0.23, -0.25, -0.00018500000000000002
DataValue, -0.24000000000000002, -0.25, -0.00019508
DataValue, -0.25, -0.25, -0.0002057
DataValue, -0.26, -0.25, -0.00021648000000000001
DataValue, -0.27, -0.25, -0.00022696
DataValue, -0.28, -0.25, -0.0002376
DataValue, -0.29000000000000004, -0.25, -0.00024876
DataValue, -0.3, -0.25, -0.00026000000000000003
DataValue, -0.31, -0.25, -0.00027084
DataValue, -0.32, -0.25, -0.00028176000000000004
DataValue, -0.33, -0.25, -0.00029262
DataValue, -0.34, -0.25, -0.00030372
DataValue, -0.35000000000000003, -0.25, -0.0003142
DataValue, -0.36000000000000004, -0.25, -0.00032496
DataValue, -0.37, -0.25, -0.0003346
DataValue, -0.38, -0.25, -0.00034452
DataValue, -0.39, -0.25, -0.00035416
DataValue, -0.4, -0.25, -0.00036326
DataValue, -0.4, -0.25, -0.00036362000000000005
DataValue, -0.39, -0.25, -0.00035636
DataValue, -0.38, -0.25, -0.0003484
DataValue, -0.37, -0.25, -0.00033976000000000004
DataValue, -0.36000000000000004, -0.25, -0.00033054000000000004
DataValue, -0.35000000000000003, -0.25, -0.00032128
DataValue, -0.34, -0.25, -0.00031184
DataValue, -0.33, -0.25, -0.00030186000000000004
DataValue, -0.32, -0.25, -0.00029204000000000003
DataValue, -0.31, -0.25, -0.00028218000000000004
DataValue, -0.3, -0.25, -0.00027154
DataValue, -0.29000000000000004, -0.25, -0.00026124000000000004
DataValue, -0.28, -0.25, -0.00025068000000000003
DataValue, -0.27, -0.25, -0.00024026
DataValue, -0.26, -0.25, -0.0002298
DataValue, -0.25, -0.25, -0.00021936000000000001
DataValue, -0.24000000000000002, -0.25, -0.00020918
DataValue, -0.23, -0.25, -0.00019886
DataValue, -0.22, -0.25, -0.00018898000000000002
DataValue, -0.21000000000000002, -0.25, -0.00017872000000000002
DataValue, -0.2, -0.25, -0.00016916
DataValue, -0.19, -0.25, -0.00016002
DataValue, -0.18000000000000002, -0.25, -0.00015024
DataValue, -0.17, -0.25, -0.00014138
DataValue, -0.16, -0.25, -0.0001325
DataValue, -0.15, -0.25, -0.00012404
DataValue, -0.14, -0.25, -0.00011562000000000001
DataValue, -0.13, -0.25, -0.00010802000000000001
DataValue, -0.12000000000000001, -0.25, -0.00010046000000000001
DataValue, -0.11, -0.25, -9.2378E-05
DataValue, -0.1, -0.25, -8.5810000000000007E-05
DataValue, -0.090000000000000011, -0.25, -7.9222000000000008E-05
DataValue, -0.08, -0.25, -7.2986000000000009E-05
DataValue, -0.07, -0.25, -6.7104E-05
DataValue, -0.060000000000000005, -0.25, -6.156E-05
DataValue, -0.05, -0.25, -5.6148000000000005E-05
DataValue, -0.04, -0.25, -5.1138000000000004E-05
DataValue, -0.030000000000000002, -0.25, -4.6436E-05
DataValue, -0.02, -0.25, -4.2146E-05
DataValue, -0.01, -0.25, -3.8008E-05
DataValue, 0, -0.25, -3.4158E-05
DataValue, 0.01, -0.25, -3.0622E-05
DataValue, 0.02, -0.25, -2.7434000000000002E-05
DataValue, 0.030000000000000002, -0.25, -2.4342000000000002E-05
DataValue, 0.04, -0.25, -2.1582E-05
DataValue, 0.05, -0.25, -1.9002000000000002E-05
DataValue, 0.060000000000000005, -0.25, -1.6582E-05
DataValue, 0.07, -0.25, -1.4522000000000001E-05
DataValue, 0.08, -0.25, -1.2568E-05
DataValue, 0.090000000000000011, -0.25, -1.0884000000000001E-05
DataValue, 0.1, -0.25, -9.177E-06
DataValue, 0.1, -0.25, -8.2155000000000012E-06
DataValue, 0.090000000000000011, -0.25, -9.4795000000000013E-06
DataValue, 0.08, -0.25, -1.0841500000000001E-05
DataValue, 0.07, -0.25, -1.2650000000000001E-05
DataValue, 0.060000000000000005, -0.25, -1.4332000000000001E-05
DataValue, 0.05, -0.25, -1.6192E-05
DataValue, 0.04, -0.25, -1.8242E-05
DataValue, 0.030000000000000002, -0.25, -2.0596E-05
DataValue, 0.02, -0.25, -2.3152E-05
DataValue, 0.01, -0.25, -2.5954000000000003E-05
DataValue, 0, -0.25, -2.8988E-05
DataValue, -0.01, -0.25, -3.2224E-05
DataValue, -0.02, -0.25, -3.5632E-05
DataValue, -0.030000000000000002, -0.25, -3.956E-05
DataValue, -0.04, -0.25, -4.3716E-05
DataValue, -0.05, -0.25, -4.8112E-05
DataValue, -0.060000000000000005, -0.25, -5.2874E-05
DataValue, -0.07, -0.25, -5.7826000000000005E-05
DataValue, -0.08, -0.25, -6.3176E-05
DataValue, -0.090000000000000011, -0.25, -6.9008E-05
DataValue, -0.1, -0.25, -7.4962E-05
DataValue, -0.11, -0.25, -8.1344E-05
DataValue, -0.12000000000000001, -0.25, -8.7842E-05
DataValue, -0.13, -0.25, -9.4984E-05
DataValue, -0.14, -0.25, -0.00010269000000000001
DataValue, -0.15, -0.25, -0.00011018200000000001
DataValue, -0.16, -0.25, -0.00012092
DataValue, -0.17, -0.25, -0.00012894
DataValue, -0.18000000000000002, -0.25, -0.00013732000000000002
DataValue, -0.19, -0.25, -0.0001462
DataValue, -0.2, -0.25, -0.00015528000000000002
DataValue, -0.21000000000000002, -0.25, -0.00016498
DataValue, -0.22, -0.25, -0.0001745
DataValue, -0.23, -0.25, -0.00018438000000000002
DataValue, -0.24000000000000002, -0.25, -0.00019488
DataValue, -0.25, -0.25, -0.00020514
DataValue, -0.26, -0.25, -0.00021534
DataValue, -0.27, -0.25, -0.00022604000000000003
DataValue, -0.28, -0.25, -0.00023676
DataValue, -0.29000000000000004, -0.25, -0.00024754000000000003
DataValue, -0.3, -0.25, -0.0002587
DataValue, -0.31, -0.25, -0.0002696
DataValue, -0.32, -0.25, -0.00028040000000000004
DataValue, -0.33, -0.25, -0.00029178
DataValue, -0.34, -0.25, -0.00030258
DataValue, -0.35000000000000003, -0.25, -0.00031318000000000003
DataValue, -0.36000000000000004, -0.25, -0.00032334000000000003
DataValue, -0.37, -0.25, -0.00033322
DataValue, -0.38, -0.25, -0.00034346
DataValue, -0.39, -0.25, -0.00035302
DataValue, -0.4, -0.25, -0.00036264
DataValue, -0.4, -0.25, -0.00036324
DataValue, -0.39, -0.25, -0.00035594
DataValue, -0.38, -0.25, -0.0003477
DataValue, -0.37, -0.25, -0.00033876
DataValue, -0.36000000000000004, -0.25, -0.00033002000000000004
DataValue, -0.35000000000000003, -0.25, -0.00032028000000000004
DataValue, -0.34, -0.25, -0.00031094
DataValue, -0.33, -0.25, -0.00030136000000000003
DataValue, -0.32, -0.25, -0.00029136
DataValue, -0.31, -0.25, -0.00028134000000000004
DataValue, -0.3, -0.25, -0.00027086
DataValue, -0.29000000000000004, -0.25, -0.00026030000000000004
DataValue, -0.28, -0.25, -0.00024982
DataValue, -0.27, -0.25, -0.00023974
DataValue, -0.26, -0.25, -0.00022942
DataValue, -0.25, -0.25, -0.000219
DataValue, -0.24000000000000002, -0.25, -0.0002086
DataValue, -0.23, -0.25, -0.00019818
DataValue, -0.22, -0.25, -0.00018854
DataValue, -0.21000000000000002, -0.25, -0.00017828
DataValue, -0.2, -0.25, -0.00016842000000000002
DataValue, -0.19, -0.25, -0.00015918
DataValue, -0.18000000000000002, -0.25, -0.00014976
DataValue, -0.17, -0.25, -0.00014046000000000002
DataValue, -0.16, -0.25, -0.00013188000000000002
DataValue, -0.15, -0.25, -0.0001236
DataValue, -0.14, -0.25, -0.0001149
DataValue, -0.13, -0.25, -0.00010722000000000001
DataValue, -0.12000000000000001, -0.25, -9.9024E-05
DataValue, -0.11, -0.25, -9.1974E-05
DataValue, -0.1, -0.25, -8.5232E-05
DataValue, -0.090000000000000011, -0.25, -7.87E-05
DataValue, -0.08, -0.25, -7.2432E-05
DataValue, -0.07, -0.25, -6.6586E-05
DataValue, -0.060000000000000005, -0.25, -6.0936E-05
DataValue, -0.05, -0.25, -5.5512E-05
DataValue, -0.04, -0.25, -5.0666E-05
DataValue, -0.030000000000000002, -0.25, -4.602E-05
DataValue, -0.02, -0.25, -4.1568E-05
DataValue, -0.01, -0.25, -3.7454000000000004E-05
DataValue, 0, -0.25, -3.3662000000000004E-05
DataValue, 0.01, -0.25, -3.0098000000000002E-05
DataValue, 0.02, -0.25, -2.6854E-05
DataValue, 0.030000000000000002, -0.25, -2.3836E-05
DataValue, 0.04, -0.25, -2.1114E-05
DataValue, 0.05, -0.25, -1.8536E-05
DataValue, 0.060000000000000005, -0.25, -1.6238E-05
DataValue, 0.07, -0.25, -1.4258E-05
DataValue, 0.08, -0.25, -1.2376E-05
DataValue, 0.090000000000000011, -0.25, -1.0664E-05
DataValue, 0.1, -0.25, -8.9966000000000012E-06
DataValue, 0.1, -0.25, -7.961200000000001E-06
DataValue, 0.090000000000000011, -0.25, -9.0835E-06
DataValue, 0.08, -0.25, -1.0424E-05
