
SetupTitle, (c1) Output curve in LGP
PrimitiveTest, I/V Sweep
TestParameter, Context.MainFrame, B1500A
TestParameter, Channel.UnitType, SMU, SMU
TestParameter, Channel.Unit, SMU1:HR/AS, SMU2:HR/AS
TestParameter, Channel.IName, Ig, Id
TestParameter, Channel.VName, Vg, Vd
TestParameter, Channel.Mode, V, V
TestParameter, Channel.Func, VAR2, VAR1
TestParameter, Channel.Index, 
TestParameter, Channel.Time, 
TestParameter, Measurement.Port.Unit, SMU1:HR/AS, SMU2:HR/AS
TestParameter, Measurement.Port.SeriesResistor, NONE, NONE
TestParameter, Measurement.Port.Filter, ON, ON
TestParameter, Measurement.Port.OutputVoltageComparison, 0, 0
TestParameter, Measurement.Primary.Locus, Double
TestParameter, Measurement.Primary.Scale, LINEAR
TestParameter, Measurement.Primary.Start, 0.1
TestParameter, Measurement.Primary.Stop, -0.5
TestParameter, Measurement.Primary.Step, -0.012
TestParameter, Measurement.Primary.Compliance, 0.1
TestParameter, Measurement.Primary.PowerCompliance, 0
TestParameter, Measurement.Aborting.Condition, CONTINUE AT ANY
TestParameter, Measurement.PostOutput.Value, START
TestParameter, Measurement.PostOutput.Retention, OFF
TestParameter, Measurement.Secondary.Start, 0.1
TestParameter, Measurement.Secondary.Count, 6
TestParameter, Measurement.Secondary.Step, -0.1
TestParameter, Measurement.Secondary.Compliance, 0.0001
TestParameter, Measurement.Secondary.PowerCompliance, 0
TestParameter, Measurement.Bias.Source, 0.1, 0.1
TestParameter, Measurement.Bias.Compliance, 0.0001, 0.1
TestParameter, Measurement.Monitor.Unit, SMU1:HR/AS, SMU2:HR/AS
TestParameter, Measurement.Monitor.Adc, HR ADC, HR ADC
TestParameter, Measurement.Monitor.Measurement, Compliance Side, Compliance Side
TestParameter, Measurement.Monitor.RangingMode, LIMITED, LIMITED
TestParameter, Measurement.Monitor.RangeBoundary, 1nA, 1nA
TestParameter, Measurement.Monitor.RangeRating, BY FULL RANGE, BY FULL RANGE
TestParameter, Measurement.Monitor.RangeRatingCoeff, 50, 50
TestParameter, Measurement.Timing.Hold, 0
TestParameter, Measurement.Timing.Delay, 0
TestParameter, Measurement.Adc.HighSpeed.Mode, AUTO
TestParameter, Measurement.Adc.HighSpeed.Coeff, 1
TestParameter, Measurement.Adc.HighResolution.AutoZero, OFF
TestParameter, Measurement.Adc.HighResolution.Mode, AUTO
TestParameter, Measurement.Adc.HighResolution.Coeff, 6
TestParameter, Measurement.WaitTime.Source.Coeff, 1
TestParameter, Measurement.WaitTime.Source.Offset, 0
TestParameter, Measurement.WaitTime.Monitor.Coeff, 1
TestParameter, Measurement.WaitTime.Monitor.Offset, 0
TestParameter, Output.Graph.Enabled, true
TestParameter, Output.Graph.AutoScaling, false
TestParameter, Output.Graph.XAxis.Data, Vd
TestParameter, Output.Graph.XAxis.Scale, Linear
TestParameter, Output.Graph.XAxis.Left, 0
TestParameter, Output.Graph.XAxis.Right, -0.5
TestParameter, Output.Graph.XAxis.RunTimeAutoScale, true
TestParameter, Output.Graph.YAxis.Data, Id
TestParameter, Output.Graph.YAxis.Scale, Linear
TestParameter, Output.Graph.YAxis.Bottom, -0.1
TestParameter, Output.Graph.YAxis.Top, 0.1
TestParameter, Output.Graph.YAxis.Group, 
TestParameter, Output.Graph.YAxis.RunTimeAutoScale, true
TestParameter, Output.List.Data, Vd, Vg, Id
TestParameter, AutoAnalysis.Interpolation, false
TestParameter, AutoAnalysis.Var2StepCount, 1
TestParameter, AutoAnalysis.Var2StepScript, 
TestParameter, AutoAnalysis.Line1.Enabled, false
TestParameter, AutoAnalysis.Line1.Type, 1
TestParameter, AutoAnalysis.Line1.Fix, True
TestParameter, AutoAnalysis.Line1.YAxis, 0
TestParameter, AutoAnalysis.Line1.Point1.Type, 0
TestParameter, AutoAnalysis.Line1.Point1.XY.X, 
TestParameter, AutoAnalysis.Line1.Point1.XY.Y, 
TestParameter, AutoAnalysis.Line1.Point1.Data.Var, 
TestParameter, AutoAnalysis.Line1.Point1.Data.Condition, 
TestParameter, AutoAnalysis.Line1.Point1.Data.Start, false
TestParameter, AutoAnalysis.Line1.Point1.Data.StartVar, 
TestParameter, AutoAnalysis.Line1.Point1.Data.StartCondition, 
TestParameter, AutoAnalysis.Line1.Point2.Type, 0
TestParameter, AutoAnalysis.Line1.Point2.XY.X, 
TestParameter, AutoAnalysis.Line1.Point2.XY.Y, 
TestParameter, AutoAnalysis.Line1.Point2.Data.Var, 
TestParameter, AutoAnalysis.Line1.Point2.Data.Condition, 
TestParameter, AutoAnalysis.Line1.Point2.Data.Start, false
TestParameter, AutoAnalysis.Line1.Point2.Data.StartVar, 
TestParameter, AutoAnalysis.Line1.Point2.Data.StartCondition, 
TestParameter, AutoAnalysis.Line1.GradientExpr, 0
TestParameter, AutoAnalysis.Line2.Enabled, false
TestParameter, AutoAnalysis.Line2.Type, 1
TestParameter, AutoAnalysis.Line2.Fix, True
TestParameter, AutoAnalysis.Line2.YAxis, 0
TestParameter, AutoAnalysis.Line2.Point1.Type, 0
TestParameter, AutoAnalysis.Line2.Point1.XY.X, 
TestParameter, AutoAnalysis.Line2.Point1.XY.Y, 
TestParameter, AutoAnalysis.Line2.Point1.Data.Var, 
TestParameter, AutoAnalysis.Line2.Point1.Data.Condition, 
TestParameter, AutoAnalysis.Line2.Point1.Data.Start, false
TestParameter, AutoAnalysis.Line2.Point1.Data.StartVar, 
TestParameter, AutoAnalysis.Line2.Point1.Data.StartCondition, 
TestParameter, AutoAnalysis.Line2.Point2.Type, 0
TestParameter, AutoAnalysis.Line2.Point2.XY.X, 
TestParameter, AutoAnalysis.Line2.Point2.XY.Y, 
TestParameter, AutoAnalysis.Line2.Point2.Data.Var, 
TestParameter, AutoAnalysis.Line2.Point2.Data.Condition, 
TestParameter, AutoAnalysis.Line2.Point2.Data.Start, false
TestParameter, AutoAnalysis.Line2.Point2.Data.StartVar, 
TestParameter, AutoAnalysis.Line2.Point2.Data.StartCondition, 
TestParameter, AutoAnalysis.Line2.GradientExpr, 0
TestParameter, AutoAnalysis.Marker.Enabled, false
TestParameter, AutoAnalysis.Marker.Data.Var, 
TestParameter, AutoAnalysis.Marker.Data.Condition, 
TestParameter, AutoAnalysis.Marker.Data.Start, false
TestParameter, AutoAnalysis.Marker.Data.StartVar, 
TestParameter, AutoAnalysis.Marker.Data.StartCondition, 
MetaData, TestRecord.EntryPoint, true
MetaData, TestRecord.RecordTime, 12/22/2024 04:38:39
MetaData, TestRecord.TestTarget, 
MetaData, TestRecord.IterationIndex, 1
MetaData, TestRecord.Preservation, true
MetaData, TestRecord.Flag, 
MetaData, TestRecord.Remarks, s21c2
MetaData, TestRecord.LinkKey, 97cf4b55-0588-47db-9572-2259067be9fd
MetaData, TestRecord.Parameters, 
Dimension1, 102, 102, 102
Dimension2, 6, 6, 6
DataName, Vd, Vg, Id
DataValue, 0.1, 0.1, 0.00010764
DataValue, 0.088000000000000009, 0.1, 8.91E-05
DataValue, 0.076, 0.1, 7.2424E-05
DataValue, 0.064, 0.1, 5.7176E-05
DataValue, 0.052000000000000005, 0.1, 4.339E-05
DataValue, 0.04, 0.1, 3.1086E-05
DataValue, 0.028, 0.1, 2.0284E-05
DataValue, 0.016, 0.1, 1.0744E-05
DataValue, 0.004, 0.1, 2.4265000000000004E-06
DataValue, -0.008, 0.1, -4.6263E-06
DataValue, -0.02, 0.1, -1.0701200000000002E-05
DataValue, -0.032, 0.1, -1.5168000000000001E-05
DataValue, -0.044000000000000004, 0.1, -1.9346E-05
DataValue, -0.056, 0.1, -2.2718000000000002E-05
DataValue, -0.068, 0.1, -2.537E-05
DataValue, -0.08, 0.1, -2.7434000000000002E-05
DataValue, -0.092, 0.1, -2.9028E-05
DataValue, -0.10400000000000001, 0.1, -3.0198E-05
DataValue, -0.116, 0.1, -3.095E-05
DataValue, -0.128, 0.1, -3.1516E-05
DataValue, -0.14, 0.1, -3.1938E-05
DataValue, -0.152, 0.1, -3.2174E-05
DataValue, -0.164, 0.1, -3.223E-05
DataValue, -0.17600000000000002, 0.1, -3.232E-05
DataValue, -0.188, 0.1, -3.2354E-05
DataValue, -0.2, 0.1, -3.2284E-05
DataValue, -0.21200000000000002, 0.1, -3.23E-05
DataValue, -0.224, 0.1, -3.2302000000000003E-05
DataValue, -0.23600000000000002, 0.1, -3.2252E-05
DataValue, -0.248, 0.1, -3.2128E-05
DataValue, -0.26, 0.1, -3.2092000000000004E-05
DataValue, -0.272, 0.1, -3.2088E-05
DataValue, -0.28400000000000003, 0.1, -3.201E-05
DataValue, -0.29600000000000004, 0.1, -3.1906E-05
DataValue, -0.308, 0.1, -3.1914E-05
DataValue, -0.32, 0.1, -3.1902E-05
DataValue, -0.332, 0.1, -3.1828E-05
DataValue, -0.34400000000000003, 0.1, -3.173E-05
DataValue, -0.35600000000000004, 0.1, -3.1724E-05
DataValue, -0.368, 0.1, -3.1672000000000004E-05
DataValue, -0.38, 0.1, -3.1544E-05
DataValue, -0.392, 0.1, -3.1528E-05
DataValue, -0.404, 0.1, -3.1522E-05
DataValue, -0.41600000000000004, 0.1, -3.1434000000000004E-05
DataValue, -0.42800000000000005, 0.1, -3.1378000000000003E-05
DataValue, -0.44, 0.1, -3.1386E-05
DataValue, -0.452, 0.1, -3.136E-05
DataValue, -0.464, 0.1, -3.128E-05
DataValue, -0.47600000000000003, 0.1, -3.1236000000000004E-05
DataValue, -0.48800000000000004, 0.1, -3.1208000000000003E-05
DataValue, -0.5, 0.1, -3.1196000000000004E-05
DataValue, -0.5, 0.1, -3.1138E-05
DataValue, -0.48800000000000004, 0.1, -3.1032000000000004E-05
DataValue, -0.47600000000000003, 0.1, -3.0986E-05
DataValue, -0.464, 0.1, -3.0964000000000004E-05
DataValue, -0.452, 0.1, -3.088E-05
DataValue, -0.44, 0.1, -3.0768E-05
DataValue, -0.42800000000000005, 0.1, -3.0778E-05
DataValue, -0.41600000000000004, 0.1, -3.0682E-05
DataValue, -0.404, 0.1, -3.0592E-05
DataValue, -0.392, 0.1, -3.0516E-05
DataValue, -0.38, 0.1, -3.0548E-05
DataValue, -0.368, 0.1, -3.0472000000000002E-05
DataValue, -0.35600000000000004, 0.1, -3.0350000000000002E-05
DataValue, -0.34400000000000003, 0.1, -3.03E-05
DataValue, -0.332, 0.1, -3.0306E-05
DataValue, -0.32, 0.1, -3.0158E-05
DataValue, -0.308, 0.1, -3.0048E-05
DataValue, -0.29600000000000004, 0.1, -3.0026E-05
DataValue, -0.28400000000000003, 0.1, -2.9908000000000002E-05
DataValue, -0.272, 0.1, -2.9774E-05
DataValue, -0.26, 0.1, -2.9672E-05
DataValue, -0.248, 0.1, -2.958E-05
DataValue, -0.23600000000000002, 0.1, -2.9436E-05
DataValue, -0.224, 0.1, -2.9276000000000002E-05
DataValue, -0.21200000000000002, 0.1, -2.909E-05
DataValue, -0.2, 0.1, -2.8968E-05
DataValue, -0.188, 0.1, -2.881E-05
DataValue, -0.17600000000000002, 0.1, -2.8506E-05
DataValue, -0.164, 0.1, -2.822E-05
DataValue, -0.152, 0.1, -2.7984000000000002E-05
DataValue, -0.14, 0.1, -2.748E-05
DataValue, -0.128, 0.1, -2.6902E-05
DataValue, -0.116, 0.1, -2.6304E-05
DataValue, -0.10400000000000001, 0.1, -2.5438E-05
DataValue, -0.092, 0.1, -2.4314E-05
DataValue, -0.08, 0.1, -2.2932E-05
DataValue, -0.068, 0.1, -2.1142000000000002E-05
DataValue, -0.056, 0.1, -1.8968000000000002E-05
DataValue, -0.044000000000000004, 0.1, -1.6230000000000002E-05
DataValue, -0.032, 0.1, -1.2788E-05
DataValue, -0.02, 0.1, -8.8569000000000015E-06
DataValue, -0.008, 0.1, -3.8198E-06
DataValue, 0.004, 0.1, 2.0415000000000003E-06
DataValue, 0.016, 0.1, 9.0451000000000009E-06
DataValue, 0.028, 0.1, 1.7354E-05
DataValue, 0.04, 0.1, 2.674E-05
DataValue, 0.052000000000000005, 0.1, 3.7486E-05
DataValue, 0.064, 0.1, 4.9574000000000003E-05
DataValue, 0.076, 0.1, 6.3296E-05
DataValue, 0.088000000000000009, 0.1, 7.8736E-05
DataValue, 0.1, 0.1, 9.5882E-05
DataValue, 0.1, 0, 0.0002243
DataValue, 0.088000000000000009, 0, 0.00018994000000000001
DataValue, 0.076, 0, 0.00015732000000000002
DataValue, 0.064, 0, 0.00012686000000000002
DataValue, 0.052000000000000005, 0, 9.8638E-05
DataValue, 0.04, 0, 7.2556E-05
DataValue, 0.028, 0, 4.8524000000000005E-05
DataValue, 0.016, 0, 2.6414E-05
DataValue, 0.004, 0, 6.1767000000000005E-06
DataValue, -0.008, 0, -1.2166E-05
DataValue, -0.02, 0, -2.8804E-05
DataValue, -0.032, 0, -4.3654E-05
DataValue, -0.044000000000000004, 0, -5.7088E-05
DataValue, -0.056, 0, -6.9044E-05
DataValue, -0.068, 0, -7.9474E-05
DataValue, -0.08, 0, -8.862E-05
DataValue, -0.092, 0, -9.6624E-05
DataValue, -0.10400000000000001, 0, -0.000103422
DataValue, -0.116, 0, -0.00010914
DataValue, -0.128, 0, -0.00011274000000000001
DataValue, -0.14, 0, -0.00011728
DataValue, -0.152, 0, -0.00012066000000000001
DataValue, -0.164, 0, -0.00012354
DataValue, -0.17600000000000002, 0, -0.00012598
DataValue, -0.188, 0, -0.00012778
DataValue, -0.2, 0, -0.0001292
DataValue, -0.21200000000000002, 0, -0.00013042000000000002
DataValue, -0.224, 0, -0.00013130000000000002
DataValue, -0.23600000000000002, 0, -0.00013194000000000001
DataValue, -0.248, 0, -0.00013246000000000002
DataValue, -0.26, 0, -0.00013296
DataValue, -0.272, 0, -0.00013328
DataValue, -0.28400000000000003, 0, -0.00013366000000000002
DataValue, -0.29600000000000004, 0, -0.00013392000000000002
DataValue, -0.308, 0, -0.00013416
DataValue, -0.32, 0, -0.00013432
DataValue, -0.332, 0, -0.00013454
DataValue, -0.34400000000000003, 0, -0.00013468
DataValue, -0.35600000000000004, 0, -0.00013470000000000002
DataValue, -0.368, 0, -0.00013488
DataValue, -0.38, 0, -0.0001351
DataValue, -0.392, 0, -0.0001352
DataValue, -0.404, 0, -0.00013528000000000002
DataValue, -0.41600000000000004, 0, -0.00013544000000000002
DataValue, -0.42800000000000005, 0, -0.00013550000000000001
DataValue, -0.44, 0, -0.00013542
DataValue, -0.452, 0, -0.00013562
DataValue, -0.464, 0, -0.00013568
DataValue, -0.47600000000000003, 0, -0.00013570000000000002
DataValue, -0.48800000000000004, 0, -0.00013570000000000002
DataValue, -0.5, 0, -0.00013580000000000002
DataValue, -0.5, 0, -0.00013578
DataValue, -0.48800000000000004, 0, -0.00013550000000000001
DataValue, -0.47600000000000003, 0, -0.00013526
DataValue, -0.464, 0, -0.0001351
DataValue, -0.452, 0, -0.00013504
DataValue, -0.44, 0, -0.00013484
DataValue, -0.42800000000000005, 0, -0.00013454
DataValue, -0.41600000000000004, 0, -0.00013436
DataValue, -0.404, 0, -0.00013416
DataValue, -0.392, 0, -0.0001339
DataValue, -0.38, 0, -0.00013374
DataValue, -0.368, 0, -0.00013354
DataValue, -0.35600000000000004, 0, -0.0001332
DataValue, -0.34400000000000003, 0, -0.0001327
DataValue, -0.332, 0, -0.00013248
DataValue, -0.32, 0, -0.00013224000000000002
DataValue, -0.308, 0, -0.0001318
DataValue, -0.29600000000000004, 0, -0.00013130000000000002
DataValue, -0.28400000000000003, 0, -0.0001309
DataValue, -0.272, 0, -0.00013038
DataValue, -0.26, 0, -0.00012978000000000002
DataValue, -0.248, 0, -0.00012912
DataValue, -0.23600000000000002, 0, -0.00012838000000000001
DataValue, -0.224, 0, -0.00012752
DataValue, -0.21200000000000002, 0, -0.00012626
DataValue, -0.2, 0, -0.00012498
DataValue, -0.188, 0, -0.00012344
DataValue, -0.17600000000000002, 0, -0.00012156000000000001
DataValue, -0.164, 0, -0.00011916
DataValue, -0.152, 0, -0.00011652
DataValue, -0.14, 0, -0.00011324000000000001
DataValue, -0.128, 0, -0.00010922
DataValue, -0.116, 0, -0.00010446000000000001
DataValue, -0.10400000000000001, 0, -9.9568E-05
DataValue, -0.092, 0, -9.2696000000000008E-05
DataValue, -0.08, 0, -8.507E-05
DataValue, -0.068, 0, -7.6416000000000008E-05
DataValue, -0.056, 0, -6.6476E-05
DataValue, -0.044000000000000004, 0, -5.5028E-05
DataValue, -0.032, 0, -4.2210000000000004E-05
DataValue, -0.02, 0, -2.799E-05
DataValue, -0.008, 0, -1.1882E-05
DataValue, 0.004, 0, 6.0486000000000008E-06
DataValue, 0.016, 0, 2.6266000000000002E-05
DataValue, 0.028, 0, 4.8138E-05
DataValue, 0.04, 0, 7.2244000000000008E-05
DataValue, 0.052000000000000005, 0, 9.851E-05
DataValue, 0.064, 0, 0.00012814
DataValue, 0.076, 0, 0.00015884000000000002
DataValue, 0.088000000000000009, 0, 0.0001923
DataValue, 0.1, 0, 0.00022808000000000003
DataValue, 0.1, -0.1, 0.0004043
DataValue, 0.088000000000000009, -0.1, 0.00034692
DataValue, 0.076, -0.1, 0.00029152000000000003
DataValue, 0.064, -0.1, 0.00023854
DataValue, 0.052000000000000005, -0.1, 0.00018834
DataValue, 0.04, -0.1, 0.00014046000000000002
DataValue, 0.028, -0.1, 9.5254E-05
DataValue, 0.016, -0.1, 5.269E-05
DataValue, 0.004, -0.1, 1.2406000000000001E-05
DataValue, -0.008, -0.1, -2.5174E-05
DataValue, -0.02, -0.1, -6.0212E-05
DataValue, -0.032, -0.1, -9.31E-05
DataValue, -0.044000000000000004, -0.1, -0.00012304000000000002
DataValue, -0.056, -0.1, -0.00015118
DataValue, -0.068, -0.1, -0.00017712
DataValue, -0.08, -0.1, -0.00020106
DataValue, -0.092, -0.1, -0.00022278
DataValue, -0.10400000000000001, -0.1, -0.00024248000000000002
DataValue, -0.116, -0.1, -0.00026040000000000004
DataValue, -0.128, -0.1, -0.00027666
DataValue, -0.14, -0.1, -0.00029094
DataValue, -0.152, -0.1, -0.00030384000000000005
DataValue, -0.164, -0.1, -0.00031522
DataValue, -0.17600000000000002, -0.1, -0.00032500000000000004
DataValue, -0.188, -0.1, -0.00033376
DataValue, -0.2, -0.1, -0.0003413
DataValue, -0.21200000000000002, -0.1, -0.00034796
DataValue, -0.224, -0.1, -0.00035334
DataValue, -0.23600000000000002, -0.1, -0.00035818000000000004
DataValue, -0.248, -0.1, -0.00036206000000000004
DataValue, -0.26, -0.1, -0.00036524
DataValue, -0.272, -0.1, -0.00036808
DataValue, -0.28400000000000003, -0.1, -0.0003706
DataValue, -0.29600000000000004, -0.1, -0.00037238
DataValue, -0.308, -0.1, -0.00037400000000000004
DataValue, -0.32, -0.1, -0.00037558000000000003
DataValue, -0.332, -0.1, -0.00037660000000000005
DataValue, -0.34400000000000003, -0.1, -0.0003775
DataValue, -0.35600000000000004, -0.1, -0.00037860000000000004
DataValue, -0.368, -0.1, -0.00037924000000000003
DataValue, -0.38, -0.1, -0.00037976000000000004
DataValue, -0.392, -0.1, -0.00038038000000000004
DataValue, -0.404, -0.1, -0.00038102000000000003
DataValue, -0.41600000000000004, -0.1, -0.00038110000000000005
DataValue, -0.42800000000000005, -0.1, -0.00038178
DataValue, -0.44, -0.1, -0.00038226000000000004
DataValue, -0.452, -0.1, -0.00038242
DataValue, -0.464, -0.1, -0.00038278000000000005
DataValue, -0.47600000000000003, -0.1, -0.00038314
DataValue, -0.48800000000000004, -0.1, -0.00038334
DataValue, -0.5, -0.1, -0.00038364000000000003
DataValue, -0.5, -0.1, -0.00038322000000000003
DataValue, -0.48800000000000004, -0.1, -0.00038246000000000005
DataValue, -0.47600000000000003, -0.1, -0.00038148
DataValue, -0.464, -0.1, -0.00038056
DataValue, -0.452, -0.1, -0.00038008000000000003
DataValue, -0.44, -0.1, -0.0003792
DataValue, -0.42800000000000005, -0.1, -0.00037828000000000004
DataValue, -0.41600000000000004, -0.1, -0.00037734000000000004
DataValue, -0.404, -0.1, -0.00037698
DataValue, -0.392, -0.1, -0.00037568000000000004
DataValue, -0.38, -0.1, -0.0003746
DataValue, -0.368, -0.1, -0.00037368000000000004
DataValue, -0.35600000000000004, -0.1, -0.00037246
DataValue, -0.34400000000000003, -0.1, -0.00037096000000000004
DataValue, -0.332, -0.1, -0.00036960000000000004
DataValue, -0.32, -0.1, -0.00036802000000000004
DataValue, -0.308, -0.1, -0.00036608
DataValue, -0.29600000000000004, -0.1, -0.00036408
DataValue, -0.28400000000000003, -0.1, -0.00036176000000000003
DataValue, -0.272, -0.1, -0.00035894000000000003
DataValue, -0.26, -0.1, -0.00035572
DataValue, -0.248, -0.1, -0.00035198
DataValue, -0.23600000000000002, -0.1, -0.00034782000000000004
DataValue, -0.224, -0.1, -0.00034326
DataValue, -0.21200000000000002, -0.1, -0.00033752
DataValue, -0.2, -0.1, -0.00033096000000000004
DataValue, -0.188, -0.1, -0.00032364000000000004
DataValue, -0.17600000000000002, -0.1, -0.00031508
DataValue, -0.164, -0.1, -0.00030526
DataValue, -0.152, -0.1, -0.00029428
DataValue, -0.14, -0.1, -0.00028196
DataValue, -0.128, -0.1, -0.00026816000000000003
DataValue, -0.116, -0.1, -0.00025282
DataValue, -0.10400000000000001, -0.1, -0.0002355
DataValue, -0.092, -0.1, -0.00021658000000000002
DataValue, -0.08, -0.1, -0.00019576
DataValue, -0.068, -0.1, -0.00017266000000000002
DataValue, -0.056, -0.1, -0.00014768000000000002
DataValue, -0.044000000000000004, -0.1, -0.00012056000000000001
DataValue, -0.032, -0.1, -9.119E-05
DataValue, -0.02, -0.1, -5.9068000000000004E-05
DataValue, -0.008, -0.1, -2.476E-05
DataValue, 0.004, -0.1, 1.2266E-05
DataValue, 0.016, -0.1, 5.2016000000000005E-05
DataValue, 0.028, -0.1, 9.415E-05
DataValue, 0.04, -0.1, 0.00014024
DataValue, 0.052000000000000005, -0.1, 0.00018798
DataValue, 0.064, -0.1, 0.00023878000000000001
DataValue, 0.076, -0.1, 0.00029228
DataValue, 0.088000000000000009, -0.1, 0.00034844000000000005
DataValue, 0.1, -0.1, 0.00040760000000000004
DataValue, 0.1, -0.2, 0.00060004
DataValue, 0.088000000000000009, -0.2, 0.00052066
DataValue, 0.076, -0.2, 0.00044272
DataValue, 0.064, -0.2, 0.00036628
DataValue, 0.052000000000000005, -0.2, 0.00029258
DataValue, 0.04, -0.2, 0.00022076000000000002
DataValue, 0.028, -0.2, 0.00015112
DataValue, 0.016, -0.2, 8.4758E-05
DataValue, 0.004, -0.2, 2.0344E-05
DataValue, -0.008, -0.2, -4.1482E-05
DataValue, -0.02, -0.2, -0.000100226
DataValue, -0.032, -0.2, -0.00015604
