
SetupTitle, (c1) Output curve in LGP
PrimitiveTest, I/V Sweep
TestParameter, Context.MainFrame, B1500A
TestParameter, Channel.UnitType, SMU, SMU
TestParameter, Channel.Unit, SMU1:HR/AS, SMU2:HR/AS
TestParameter, Channel.IName, Ig, Id
TestParameter, Channel.VName, Vg, Vd
TestParameter, Channel.Mode, V, V
TestParameter, Channel.Func, VAR2, VAR1
TestParameter, Channel.Index, 
TestParameter, Channel.Time, 
TestParameter, Measurement.Port.Unit, SMU1:HR/AS, SMU2:HR/AS
TestParameter, Measurement.Port.SeriesResistor, NONE, NONE
TestParameter, Measurement.Port.Filter, ON, ON
TestParameter, Measurement.Port.OutputVoltageComparison, 0, 0
TestParameter, Measurement.Primary.Locus, Double
TestParameter, Measurement.Primary.Scale, LINEAR
TestParameter, Measurement.Primary.Start, 0.1
TestParameter, Measurement.Primary.Stop, -0.5
TestParameter, Measurement.Primary.Step, -0.012
TestParameter, Measurement.Primary.Compliance, 0.1
TestParameter, Measurement.Primary.PowerCompliance, 0
TestParameter, Measurement.Aborting.Condition, CONTINUE AT ANY
TestParameter, Measurement.PostOutput.Value, START
TestParameter, Measurement.PostOutput.Retention, OFF
TestParameter, Measurement.Secondary.Start, 0.1
TestParameter, Measurement.Secondary.Count, 6
TestParameter, Measurement.Secondary.Step, -0.1
TestParameter, Measurement.Secondary.Compliance, 0.0001
TestParameter, Measurement.Secondary.PowerCompliance, 0
TestParameter, Measurement.Bias.Source, 0.1, 0.1
TestParameter, Measurement.Bias.Compliance, 0.0001, 0.1
TestParameter, Measurement.Monitor.Unit, SMU1:HR/AS, SMU2:HR/AS
TestParameter, Measurement.Monitor.Adc, HR ADC, HR ADC
TestParameter, Measurement.Monitor.Measurement, Compliance Side, Compliance Side
TestParameter, Measurement.Monitor.RangingMode, LIMITED, LIMITED
TestParameter, Measurement.Monitor.RangeBoundary, 1nA, 1nA
TestParameter, Measurement.Monitor.RangeRating, BY FULL RANGE, BY FULL RANGE
TestParameter, Measurement.Monitor.RangeRatingCoeff, 50, 50
TestParameter, Measurement.Timing.Hold, 0
TestParameter, Measurement.Timing.Delay, 0
TestParameter, Measurement.Adc.HighSpeed.Mode, AUTO
TestParameter, Measurement.Adc.HighSpeed.Coeff, 1
TestParameter, Measurement.Adc.HighResolution.AutoZero, OFF
TestParameter, Measurement.Adc.HighResolution.Mode, AUTO
TestParameter, Measurement.Adc.HighResolution.Coeff, 6
TestParameter, Measurement.WaitTime.Source.Coeff, 1
TestParameter, Measurement.WaitTime.Source.Offset, 0
TestParameter, Measurement.WaitTime.Monitor.Coeff, 1
TestParameter, Measurement.WaitTime.Monitor.Offset, 0
TestParameter, Output.Graph.Enabled, true
TestParameter, Output.Graph.AutoScaling, false
TestParameter, Output.Graph.XAxis.Data, Vd
TestParameter, Output.Graph.XAxis.Scale, Linear
TestParameter, Output.Graph.XAxis.Left, 0
TestParameter, Output.Graph.XAxis.Right, -0.5
TestParameter, Output.Graph.XAxis.RunTimeAutoScale, true
TestParameter, Output.Graph.YAxis.Data, Id
TestParameter, Output.Graph.YAxis.Scale, Linear
TestParameter, Output.Graph.YAxis.Bottom, -0.1
TestParameter, Output.Graph.YAxis.Top, 0.1
TestParameter, Output.Graph.YAxis.Group, 
TestParameter, Output.Graph.YAxis.RunTimeAutoScale, true
TestParameter, Output.List.Data, Vd, Vg, Id
TestParameter, AutoAnalysis.Interpolation, false
TestParameter, AutoAnalysis.Var2StepCount, 1
TestParameter, AutoAnalysis.Var2StepScript, 
TestParameter, AutoAnalysis.Line1.Enabled, false
TestParameter, AutoAnalysis.Line1.Type, 1
TestParameter, AutoAnalysis.Line1.Fix, True
TestParameter, AutoAnalysis.Line1.YAxis, 0
TestParameter, AutoAnalysis.Line1.Point1.Type, 0
TestParameter, AutoAnalysis.Line1.Point1.XY.X, 
TestParameter, AutoAnalysis.Line1.Point1.XY.Y, 
TestParameter, AutoAnalysis.Line1.Point1.Data.Var, 
TestParameter, AutoAnalysis.Line1.Point1.Data.Condition, 
TestParameter, AutoAnalysis.Line1.Point1.Data.Start, false
TestParameter, AutoAnalysis.Line1.Point1.Data.StartVar, 
TestParameter, AutoAnalysis.Line1.Point1.Data.StartCondition, 
TestParameter, AutoAnalysis.Line1.Point2.Type, 0
TestParameter, AutoAnalysis.Line1.Point2.XY.X, 
TestParameter, AutoAnalysis.Line1.Point2.XY.Y, 
TestParameter, AutoAnalysis.Line1.Point2.Data.Var, 
TestParameter, AutoAnalysis.Line1.Point2.Data.Condition, 
TestParameter, AutoAnalysis.Line1.Point2.Data.Start, false
TestParameter, AutoAnalysis.Line1.Point2.Data.StartVar, 
TestParameter, AutoAnalysis.Line1.Point2.Data.StartCondition, 
TestParameter, AutoAnalysis.Line1.GradientExpr, 0
TestParameter, AutoAnalysis.Line2.Enabled, false
TestParameter, AutoAnalysis.Line2.Type, 1
TestParameter, AutoAnalysis.Line2.Fix, True
TestParameter, AutoAnalysis.Line2.YAxis, 0
TestParameter, AutoAnalysis.Line2.Point1.Type, 0
TestParameter, AutoAnalysis.Line2.Point1.XY.X, 
TestParameter, AutoAnalysis.Line2.Point1.XY.Y, 
TestParameter, AutoAnalysis.Line2.Point1.Data.Var, 
TestParameter, AutoAnalysis.Line2.Point1.Data.Condition, 
TestParameter, AutoAnalysis.Line2.Point1.Data.Start, false
TestParameter, AutoAnalysis.Line2.Point1.Data.StartVar, 
TestParameter, AutoAnalysis.Line2.Point1.Data.StartCondition, 
TestParameter, AutoAnalysis.Line2.Point2.Type, 0
TestParameter, AutoAnalysis.Line2.Point2.XY.X, 
TestParameter, AutoAnalysis.Line2.Point2.XY.Y, 
TestParameter, AutoAnalysis.Line2.Point2.Data.Var, 
TestParameter, AutoAnalysis.Line2.Point2.Data.Condition, 
TestParameter, AutoAnalysis.Line2.Point2.Data.Start, false
TestParameter, AutoAnalysis.Line2.Point2.Data.StartVar, 
TestParameter, AutoAnalysis.Line2.Point2.Data.StartCondition, 
TestParameter, AutoAnalysis.Line2.GradientExpr, 0
TestParameter, AutoAnalysis.Marker.Enabled, false
TestParameter, AutoAnalysis.Marker.Data.Var, 
TestParameter, AutoAnalysis.Marker.Data.Condition, 
TestParameter, AutoAnalysis.Marker.Data.Start, false
TestParameter, AutoAnalysis.Marker.Data.StartVar, 
TestParameter, AutoAnalysis.Marker.Data.StartCondition, 
MetaData, TestRecord.EntryPoint, true
MetaData, TestRecord.RecordTime, 12/22/2024 04:44:58
MetaData, TestRecord.TestTarget, 
MetaData, TestRecord.IterationIndex, 1
MetaData, TestRecord.Preservation, true
MetaData, TestRecord.Flag, 
MetaData, TestRecord.Remarks, s21c4
MetaData, TestRecord.LinkKey, 4c1d510f-7357-4884-b431-1250d520cf34
MetaData, TestRecord.Parameters, 
Dimension1, 102, 102, 102
Dimension2, 6, 6, 6
DataName, Vd, Vg, Id
DataValue, 0.1, 0.1, 2.2628E-05
DataValue, 0.088000000000000009, 0.1, 1.8802E-05
DataValue, 0.076, 0.1, 1.5306000000000002E-05
DataValue, 0.064, 0.1, 1.2080000000000001E-05
DataValue, 0.052000000000000005, 0.1, 9.1844000000000014E-06
DataValue, 0.04, 0.1, 6.6094000000000006E-06
DataValue, 0.028, 0.1, 4.2842E-06
DataValue, 0.016, 0.1, 2.3208000000000003E-06
DataValue, 0.004, 0.1, 5.0074E-07
DataValue, -0.008, 0.1, -9.8402E-07
DataValue, -0.02, 0.1, -2.2491E-06
DataValue, -0.032, 0.1, -3.4160000000000004E-06
DataValue, -0.044000000000000004, 0.1, -4.3561000000000005E-06
DataValue, -0.056, 0.1, -5.1173E-06
DataValue, -0.068, 0.1, -5.8432E-06
DataValue, -0.08, 0.1, -6.3599000000000007E-06
DataValue, -0.092, 0.1, -6.7652000000000009E-06
DataValue, -0.10400000000000001, 0.1, -7.1682000000000011E-06
DataValue, -0.116, 0.1, -7.4167000000000005E-06
DataValue, -0.128, 0.1, -7.6130000000000006E-06
DataValue, -0.14, 0.1, -7.8342E-06
DataValue, -0.152, 0.1, -7.943E-06
DataValue, -0.164, 0.1, -7.9846000000000014E-06
DataValue, -0.17600000000000002, 0.1, -8.1214000000000016E-06
DataValue, -0.188, 0.1, -8.1234000000000009E-06
DataValue, -0.2, 0.1, -8.0997000000000014E-06
DataValue, -0.21200000000000002, 0.1, -8.1966E-06
DataValue, -0.224, 0.1, -8.2111E-06
DataValue, -0.23600000000000002, 0.1, -8.1948000000000016E-06
DataValue, -0.248, 0.1, -8.2469E-06
DataValue, -0.26, 0.1, -8.2720000000000014E-06
DataValue, -0.272, 0.1, -8.216E-06
DataValue, -0.28400000000000003, 0.1, -8.2493E-06
DataValue, -0.29600000000000004, 0.1, -8.2520000000000016E-06
DataValue, -0.308, 0.1, -8.239E-06
DataValue, -0.32, 0.1, -8.2093000000000012E-06
DataValue, -0.332, 0.1, -8.2567E-06
DataValue, -0.34400000000000003, 0.1, -8.2246E-06
DataValue, -0.35600000000000004, 0.1, -8.1872E-06
DataValue, -0.368, 0.1, -8.2434000000000014E-06
DataValue, -0.38, 0.1, -8.2079000000000015E-06
DataValue, -0.392, 0.1, -8.1851E-06
DataValue, -0.404, 0.1, -8.2111E-06
DataValue, -0.41600000000000004, 0.1, -8.2003E-06
DataValue, -0.42800000000000005, 0.1, -8.1544000000000011E-06
DataValue, -0.44, 0.1, -8.1768000000000011E-06
DataValue, -0.452, 0.1, -8.1923000000000012E-06
DataValue, -0.464, 0.1, -8.1391000000000014E-06
DataValue, -0.47600000000000003, 0.1, -8.1477000000000016E-06
DataValue, -0.48800000000000004, 0.1, -8.1746000000000013E-06
DataValue, -0.5, 0.1, -8.1085E-06
DataValue, -0.5, 0.1, -8.0861E-06
DataValue, -0.48800000000000004, 0.1, -8.0721E-06
DataValue, -0.47600000000000003, 0.1, -7.9801E-06
DataValue, -0.464, 0.1, -7.9928E-06
DataValue, -0.452, 0.1, -7.965100000000001E-06
DataValue, -0.44, 0.1, -7.8836E-06
DataValue, -0.42800000000000005, 0.1, -7.9E-06
DataValue, -0.41600000000000004, 0.1, -7.9015E-06
DataValue, -0.404, 0.1, -7.8073E-06
DataValue, -0.392, 0.1, -7.8205E-06
DataValue, -0.38, 0.1, -7.7813000000000012E-06
DataValue, -0.368, 0.1, -7.7235000000000015E-06
DataValue, -0.35600000000000004, 0.1, -7.7343000000000015E-06
DataValue, -0.34400000000000003, 0.1, -7.6998E-06
DataValue, -0.332, 0.1, -7.6266000000000008E-06
DataValue, -0.32, 0.1, -7.6444000000000009E-06
DataValue, -0.308, 0.1, -7.6249000000000005E-06
DataValue, -0.29600000000000004, 0.1, -7.5415000000000006E-06
DataValue, -0.28400000000000003, 0.1, -7.5356000000000012E-06
DataValue, -0.272, 0.1, -7.5200000000000008E-06
DataValue, -0.26, 0.1, -7.4155E-06
DataValue, -0.248, 0.1, -7.400300000000001E-06
DataValue, -0.23600000000000002, 0.1, -7.350500000000001E-06
DataValue, -0.224, 0.1, -7.2671000000000011E-06
DataValue, -0.21200000000000002, 0.1, -7.2476000000000007E-06
DataValue, -0.2, 0.1, -7.176E-06
DataValue, -0.188, 0.1, -7.031400000000001E-06
DataValue, -0.17600000000000002, 0.1, -6.9872000000000006E-06
DataValue, -0.164, 0.1, -6.887300000000001E-06
DataValue, -0.152, 0.1, -6.7224000000000011E-06
DataValue, -0.14, 0.1, -6.6015000000000011E-06
DataValue, -0.128, 0.1, -6.413E-06
DataValue, -0.116, 0.1, -6.1462000000000005E-06
DataValue, -0.10400000000000001, 0.1, -5.9109000000000004E-06
DataValue, -0.092, 0.1, -5.6178000000000007E-06
DataValue, -0.08, 0.1, -5.2E-06
DataValue, -0.068, 0.1, -4.7528000000000005E-06
DataValue, -0.056, 0.1, -4.2489E-06
DataValue, -0.044000000000000004, 0.1, -3.5633000000000003E-06
DataValue, -0.032, 0.1, -2.7878000000000002E-06
DataValue, -0.02, 0.1, -1.9166E-06
DataValue, -0.008, 0.1, -8.13E-07
DataValue, 0.004, 0.1, 4.0458E-07
DataValue, 0.016, 0.1, 1.9103E-06
DataValue, 0.028, 0.1, 3.6565000000000005E-06
DataValue, 0.04, 0.1, 5.6051000000000008E-06
DataValue, 0.052000000000000005, 0.1, 7.7717E-06
DataValue, 0.064, 0.1, 1.02811E-05
DataValue, 0.076, 0.1, 1.3388000000000001E-05
DataValue, 0.088000000000000009, 0.1, 1.648E-05
DataValue, 0.1, 0.1, 2.0018E-05
DataValue, 0.1, 0, 4.7466E-05
DataValue, 0.088000000000000009, 0, 4.0162E-05
DataValue, 0.076, 0, 3.317E-05
DataValue, 0.064, 0, 2.6674000000000002E-05
DataValue, 0.052000000000000005, 0, 2.0762000000000002E-05
DataValue, 0.04, 0, 1.5244E-05
DataValue, 0.028, 0, 1.0128E-05
DataValue, 0.016, 0, 5.5355000000000006E-06
DataValue, 0.004, 0, 1.2758000000000001E-06
DataValue, -0.008, 0, -2.5657000000000003E-06
DataValue, -0.02, 0, -5.9759000000000007E-06
DataValue, -0.032, 0, -9.1520000000000015E-06
DataValue, -0.044000000000000004, 0, -1.1816E-05
DataValue, -0.056, 0, -1.4378E-05
DataValue, -0.068, 0, -1.6672E-05
DataValue, -0.08, 0, -1.8652E-05
DataValue, -0.092, 0, -2.0338E-05
DataValue, -0.10400000000000001, 0, -2.1936E-05
DataValue, -0.116, 0, -2.324E-05
DataValue, -0.128, 0, -2.4410000000000002E-05
DataValue, -0.14, 0, -2.5446E-05
DataValue, -0.152, 0, -2.6368000000000002E-05
DataValue, -0.164, 0, -2.7086E-05
DataValue, -0.17600000000000002, 0, -2.7686000000000002E-05
DataValue, -0.188, 0, -2.8284000000000002E-05
DataValue, -0.2, 0, -2.8758E-05
DataValue, -0.21200000000000002, 0, -2.9078000000000002E-05
DataValue, -0.224, 0, -2.9436E-05
DataValue, -0.23600000000000002, 0, -2.973E-05
DataValue, -0.248, 0, -2.9936000000000003E-05
DataValue, -0.26, 0, -3.0188E-05
DataValue, -0.272, 0, -3.0432000000000003E-05
DataValue, -0.28400000000000003, 0, -3.0624000000000004E-05
DataValue, -0.29600000000000004, 0, -3.0794000000000004E-05
DataValue, -0.308, 0, -3.0936E-05
DataValue, -0.32, 0, -3.0988E-05
DataValue, -0.332, 0, -3.1066000000000004E-05
DataValue, -0.34400000000000003, 0, -3.1138E-05
DataValue, -0.35600000000000004, 0, -3.134E-05
DataValue, -0.368, 0, -3.1382E-05
DataValue, -0.38, 0, -3.1454E-05
DataValue, -0.392, 0, -3.1486E-05
DataValue, -0.404, 0, -3.1614E-05
DataValue, -0.41600000000000004, 0, -3.1598E-05
DataValue, -0.42800000000000005, 0, -3.1652E-05
DataValue, -0.44, 0, -3.1762E-05
DataValue, -0.452, 0, -3.1776E-05
DataValue, -0.464, 0, -3.1802E-05
DataValue, -0.47600000000000003, 0, -3.1848000000000004E-05
DataValue, -0.48800000000000004, 0, -3.1896E-05
DataValue, -0.5, 0, -3.1886E-05
DataValue, -0.5, 0, -3.1788E-05
DataValue, -0.48800000000000004, 0, -3.1706000000000004E-05
DataValue, -0.47600000000000003, 0, -3.1578E-05
DataValue, -0.464, 0, -3.1368E-05
DataValue, -0.452, 0, -3.1306E-05
DataValue, -0.44, 0, -3.1242000000000003E-05
DataValue, -0.42800000000000005, 0, -3.1156E-05
DataValue, -0.41600000000000004, 0, -3.1100000000000004E-05
DataValue, -0.404, 0, -3.0954E-05
DataValue, -0.392, 0, -3.0818E-05
DataValue, -0.38, 0, -3.0658000000000004E-05
DataValue, -0.368, 0, -3.0532E-05
DataValue, -0.35600000000000004, 0, -3.0454E-05
DataValue, -0.34400000000000003, 0, -3.021E-05
DataValue, -0.332, 0, -3.0026E-05
DataValue, -0.32, 0, -2.9948000000000002E-05
DataValue, -0.308, 0, -2.975E-05
DataValue, -0.29600000000000004, 0, -2.9484E-05
DataValue, -0.28400000000000003, 0, -2.9314E-05
DataValue, -0.272, 0, -2.9098E-05
DataValue, -0.26, 0, -2.8806E-05
DataValue, -0.248, 0, -2.8536000000000003E-05
DataValue, -0.23600000000000002, 0, -2.835E-05
DataValue, -0.224, 0, -2.8046000000000002E-05
DataValue, -0.21200000000000002, 0, -2.756E-05
DataValue, -0.2, 0, -2.7154E-05
DataValue, -0.188, 0, -2.6738E-05
DataValue, -0.17600000000000002, 0, -2.61E-05
DataValue, -0.164, 0, -2.5468E-05
DataValue, -0.152, 0, -2.4766E-05
DataValue, -0.14, 0, -2.395E-05
DataValue, -0.128, 0, -2.2944E-05
DataValue, -0.116, 0, -2.1852E-05
DataValue, -0.10400000000000001, 0, -2.0708000000000002E-05
DataValue, -0.092, 0, -1.9246000000000002E-05
DataValue, -0.08, 0, -1.7564E-05
DataValue, -0.068, 0, -1.5836000000000002E-05
DataValue, -0.056, 0, -1.3742E-05
DataValue, -0.044000000000000004, 0, -1.1334E-05
DataValue, -0.032, 0, -8.7935000000000014E-06
DataValue, -0.02, 0, -5.779800000000001E-06
DataValue, -0.008, 0, -2.4169E-06
DataValue, 0.004, 0, 1.2343000000000002E-06
DataValue, 0.016, 0, 5.3362000000000007E-06
DataValue, 0.028, 0, 9.923600000000001E-06
DataValue, 0.04, 0, 1.5122E-05
DataValue, 0.052000000000000005, 0, 2.0638E-05
DataValue, 0.064, 0, 2.6642E-05
DataValue, 0.076, 0, 3.3152000000000004E-05
DataValue, 0.088000000000000009, 0, 4.0254000000000005E-05
DataValue, 0.1, 0, 4.7998000000000004E-05
DataValue, 0.1, -0.1, 9.0046E-05
DataValue, 0.088000000000000009, -0.1, 7.7086E-05
DataValue, 0.076, -0.1, 6.475E-05
DataValue, 0.064, -0.1, 5.2846E-05
DataValue, 0.052000000000000005, -0.1, 4.161E-05
DataValue, 0.04, -0.1, 3.0964000000000004E-05
DataValue, 0.028, -0.1, 2.0956E-05
DataValue, 0.016, -0.1, 1.1512000000000001E-05
DataValue, 0.004, -0.1, 2.7697000000000003E-06
DataValue, -0.008, -0.1, -5.5179E-06
DataValue, -0.02, -0.1, -1.3034000000000001E-05
DataValue, -0.032, -0.1, -2.0228E-05
DataValue, -0.044000000000000004, -0.1, -2.6850000000000002E-05
DataValue, -0.056, -0.1, -3.2862E-05
DataValue, -0.068, -0.1, -3.8504E-05
DataValue, -0.08, -0.1, -4.3664E-05
DataValue, -0.092, -0.1, -4.8332000000000004E-05
DataValue, -0.10400000000000001, -0.1, -5.2566000000000005E-05
DataValue, -0.116, -0.1, -5.6596000000000005E-05
DataValue, -0.128, -0.1, -6.0158E-05
DataValue, -0.14, -0.1, -6.3350000000000008E-05
DataValue, -0.152, -0.1, -6.6112E-05
DataValue, -0.164, -0.1, -6.8808E-05
DataValue, -0.17600000000000002, -0.1, -7.1134E-05
DataValue, -0.188, -0.1, -7.3156E-05
DataValue, -0.2, -0.1, -7.4832E-05
DataValue, -0.21200000000000002, -0.1, -7.647E-05
DataValue, -0.224, -0.1, -7.7992000000000008E-05
DataValue, -0.23600000000000002, -0.1, -7.9192E-05
DataValue, -0.248, -0.1, -8.0336E-05
DataValue, -0.26, -0.1, -8.1422000000000007E-05
DataValue, -0.272, -0.1, -8.2378E-05
DataValue, -0.28400000000000003, -0.1, -8.3052E-05
DataValue, -0.29600000000000004, -0.1, -8.3786E-05
DataValue, -0.308, -0.1, -8.424E-05
DataValue, -0.32, -0.1, -8.479E-05
DataValue, -0.332, -0.1, -8.528E-05
DataValue, -0.34400000000000003, -0.1, -8.582E-05
DataValue, -0.35600000000000004, -0.1, -8.6054E-05
DataValue, -0.368, -0.1, -8.6488E-05
DataValue, -0.38, -0.1, -8.6858E-05
DataValue, -0.392, -0.1, -8.7244000000000007E-05
DataValue, -0.404, -0.1, -8.7480000000000009E-05
DataValue, -0.41600000000000004, -0.1, -8.7504000000000008E-05
DataValue, -0.42800000000000005, -0.1, -8.7984E-05
DataValue, -0.44, -0.1, -8.8428E-05
DataValue, -0.452, -0.1, -8.8282E-05
DataValue, -0.464, -0.1, -8.842E-05
DataValue, -0.47600000000000003, -0.1, -8.8666000000000008E-05
DataValue, -0.48800000000000004, -0.1, -8.8912E-05
DataValue, -0.5, -0.1, -8.8956000000000007E-05
DataValue, -0.5, -0.1, -8.9002E-05
DataValue, -0.48800000000000004, -0.1, -8.8484E-05
DataValue, -0.47600000000000003, -0.1, -8.8086E-05
DataValue, -0.464, -0.1, -8.762E-05
DataValue, -0.452, -0.1, -8.7304E-05
DataValue, -0.44, -0.1, -8.6886000000000008E-05
DataValue, -0.42800000000000005, -0.1, -8.6592E-05
DataValue, -0.41600000000000004, -0.1, -8.6184E-05
DataValue, -0.404, -0.1, -8.5858E-05
DataValue, -0.392, -0.1, -8.5408E-05
DataValue, -0.38, -0.1, -8.477E-05
DataValue, -0.368, -0.1, -8.458E-05
DataValue, -0.35600000000000004, -0.1, -8.3912E-05
DataValue, -0.34400000000000003, -0.1, -8.351200000000001E-05
DataValue, -0.332, -0.1, -8.2926E-05
DataValue, -0.32, -0.1, -8.2368000000000008E-05
DataValue, -0.308, -0.1, -8.1658E-05
DataValue, -0.29600000000000004, -0.1, -8.0868E-05
DataValue, -0.28400000000000003, -0.1, -8.0162000000000009E-05
DataValue, -0.272, -0.1, -7.9182E-05
DataValue, -0.26, -0.1, -7.8154E-05
DataValue, -0.248, -0.1, -7.7202E-05
DataValue, -0.23600000000000002, -0.1, -7.598E-05
DataValue, -0.224, -0.1, -7.4566E-05
DataValue, -0.21200000000000002, -0.1, -7.3142E-05
DataValue, -0.2, -0.1, -7.1786000000000007E-05
DataValue, -0.188, -0.1, -6.9874E-05
DataValue, -0.17600000000000002, -0.1, -6.7798E-05
DataValue, -0.164, -0.1, -6.5594E-05
DataValue, -0.152, -0.1, -6.3132E-05
DataValue, -0.14, -0.1, -6.0358E-05
DataValue, -0.128, -0.1, -5.7374E-05
DataValue, -0.116, -0.1, -5.4118E-05
DataValue, -0.10400000000000001, -0.1, -5.0414E-05
DataValue, -0.092, -0.1, -4.63E-05
DataValue, -0.08, -0.1, -4.194E-05
DataValue, -0.068, -0.1, -3.7056E-05
DataValue, -0.056, -0.1, -3.1622E-05
DataValue, -0.044000000000000004, -0.1, -2.5878000000000002E-05
DataValue, -0.032, -0.1, -1.9608E-05
DataValue, -0.02, -0.1, -1.2736E-05
DataValue, -0.008, -0.1, -5.3719E-06
DataValue, 0.004, -0.1, 2.6598000000000004E-06
DataValue, 0.016, -0.1, 1.1364600000000001E-05
DataValue, 0.028, -0.1, 2.076E-05
DataValue, 0.04, -0.1, 3.0722E-05
DataValue, 0.052000000000000005, -0.1, 4.1392E-05
DataValue, 0.064, -0.1, 5.2662000000000005E-05
DataValue, 0.076, -0.1, 6.4582E-05
DataValue, 0.088000000000000009, -0.1, 7.7258E-05
DataValue, 0.1, -0.1, 9.0652E-05
DataValue, 0.1, -0.2, 0.00013748000000000002
DataValue, 0.088000000000000009, -0.2, 0.00011906
DataValue, 0.076, -0.2, 0.00010108
DataValue, 0.064, -0.2, 8.3538E-05
DataValue, 0.052000000000000005, -0.2, 6.666E-05
DataValue, 0.04, -0.2, 5.0344000000000005E-05
DataValue, 0.028, -0.2, 3.446E-05
DataValue, 0.016, -0.2, 1.9204E-05
DataValue, 0.004, -0.2, 4.6633000000000007E-06
