,,,,,,,,,,,,,,,,,,,,,,,,,,,,
SetupTitle, 1_resume,,,,,,,,,,,,,,,,,,,,,,,,,,,
ApplicationTest, WGFMU Pattern Editor, Public,,,,,,,,,,,,,,,,,,,,,,,,,,
TestParameter, Name, ExecutionMode, Enable1, Channel1, OperationMode1, VForceRange1, InitMeasRange1, Enable2, Channel2, OperationMode2, VForceRange2, InitMeasRange2, RepeatCount, WaveformCh1, WaveformCh2, MeasurementEvent, Output_to_File_for_PatternValidation, Output_Enable, Output_Filename, DataDisplay_for_RunVector, DataDisplay_PatternValidation, DataDisplay_Mode, LogToFile, LogFile, WarningLevel, IForceRange1, IForceRange2, Result_Update_Interval_s
TestParameter, Value, Run Vector, Enable, WGFMU1:RS	RSWGFMU, Fast IV Vmeas, Auto, 10V (Vmeas), Enable, WGFMU2:RS	RSWGFMU, Fast IV Imeas, Auto, 10mA (Imeas), 32, , Disable, C:\WGFMUPatternEditor_Pattern.csv, , Disable, x(time)_y(meas), Disable, C:\WGFMUPatternEditor_Log.log, 2, 10mA, 10mA, 10,,,
MetaData, TestRecord.EntryPoint, true,,,,,,,,,,,,,,,,,,,,,,,,,,
MetaData, TestRecord.RecordTime, 05/19/2024 03:23:52,,,,,,,,,,,,,,,,,,,,,,,,,,
MetaData, TestRecord.TestTarget, ,,,,,,,,,,,,,,,,,,,,,,,,,,
MetaData, TestRecord.IterationIndex, 18,,,,,,,,,,,,,,,,,,,,,,,,,,
MetaData, TestRecord.Preservation, true,,,,,,,,,,,,,,,,,,,,,,,,,,
MetaData, TestRecord.Flag, ,,,,,,,,,,,,,,,,,,,,,,,,,,
MetaData, TestRecord.Remarks, ,,,,,,,,,,,,,,,,,,,,,,,,,,
MetaData, TestRecord.LinkKey, 149d6e37-cbbc-4fc6-b428-48931c70cd98,,,,,,,,,,,,,,,,,,,,,,,,,,
MetaData, TestRecord.Parameters, ,,,,,,,,,,,,,,,,,,,,,,,,,,
Dimension1, 32, 32, 32, 32, 32,,,,,,,,,,,,,,,,,,,,,,,
Dimension2, 1, 1, 1, 1, 1,,,,,,,,,,,,,,,,,,,,,,,
DataName, Time, MeasResult1_value, MeasResult2_value, MeasResult1_time, MeasResult2_time,,,,,,,,,,,,,,,,,,,,,,,
DataValue, 0.265, -0.24929898977279702, -0.0036642379127440005, 0.265, 0.265,,,,,,,,,,,,,,,,,,,,,,,
DataValue, 0.535, -0.24948924779892, -0.003648051759228, 0.535, 0.535,,,,,,,,,,,,,,,,,,,,,,,
DataValue, 0.805, -0.24958765506744401, -0.003641279181466, 0.805, 0.805,,,,,,,,,,,,,,,,,,,,,,,
DataValue, 1.0750000000000002, -0.24968807399272902, -0.0036372365430000003, 1.0750000000000002, 1.0750000000000002,,,,,,,,,,,,,,,,,,,,,,,
DataValue, 1.345, -0.24904571473598502, -0.0036340325605120002, 1.345, 1.345,,,,,,,,,,,,,,,,,,,,,,,
DataValue, 1.615, -0.24897798895835901, -0.0036310681607570005, 1.615, 1.615,,,,,,,,,,,,,,,,,,,,,,,
DataValue, 1.885, -0.24955493211746202, -0.0036285363603380002, 1.885, 1.885,,,,,,,,,,,,,,,,,,,,,,,
DataValue, 2.1550000000000002, -0.24940845370292702, -0.0036262890789660004, 2.1550000000000002, 2.1550000000000002,,,,,,,,,,,,,,,,,,,,,,,
DataValue, 2.4250000000000003, -0.249476715922356, -0.0036236089654270004, 2.4250000000000003, 2.4250000000000003,,,,,,,,,,,,,,,,,,,,,,,
DataValue, 2.6950000000000003, -0.2494116127491, -0.0036215481814, 2.6950000000000003, 2.6950000000000003,,,,,,,,,,,,,,,,,,,,,,,
DataValue, 2.9650000000000003, -0.24940897524356803, -0.00361934886314, 2.9650000000000003, 2.9650000000000003,,,,,,,,,,,,,,,,,,,,,,,
DataValue, 3.2350000000000003, -0.249309033155441, -0.0036173576954750004, 3.2350000000000003, 3.2350000000000003,,,,,,,,,,,,,,,,,,,,,,,
DataValue, 3.5050000000000003, -0.249311625957489, -0.0036149369552730005, 3.5050000000000003, 3.5050000000000003,,,,,,,,,,,,,,,,,,,,,,,
DataValue, 3.7750000000000004, -0.249009370803833, -0.0036134032998230005, 3.7750000000000004, 3.7750000000000004,,,,,,,,,,,,,,,,,,,,,,,
DataValue, 4.045, -0.24954244494438202, -0.0036113928072150003, 4.045, 4.045,,,,,,,,,,,,,,,,,,,,,,,
DataValue, 4.315, -0.249374806880951, -0.003609732724726, 4.315, 4.315,,,,,,,,,,,,,,,,,,,,,,,
DataValue, 4.585, -0.24914985895156902, -0.0036077240947630005, 4.585, 4.585,,,,,,,,,,,,,,,,,,,,,,,
DataValue, 4.855, -0.24936482310295102, -0.0036062409635630004, 4.855, 4.855,,,,,,,,,,,,,,,,,,,,,,,
DataValue, 5.125, -0.249269336462021, -0.0036044560838490005, 5.125, 5.125,,,,,,,,,,,,,,,,,,,,,,,
DataValue, 5.3950000000000005, -0.248998239636421, -0.003603115445003, 5.3950000000000005, 5.3950000000000005,,,,,,,,,,,,,,,,,,,,,,,
DataValue, 5.665, -0.249321490526199, -0.0036009699106220004, 5.665, 5.665,,,,,,,,,,,,,,,,,,,,,,,
DataValue, 5.9350000000000005, -0.249091774225235, -0.0035995435900990002, 5.9350000000000005, 5.9350000000000005,,,,,,,,,,,,,,,,,,,,,,,
DataValue, 6.205, -0.248835325241089, -0.0035976755898450004, 6.205, 6.205,,,,,,,,,,,,,,,,,,,,,,,
DataValue, 6.4750000000000005, -0.249384611845016, -0.0035963093396280004, 6.4750000000000005, 6.4750000000000005,,,,,,,,,,,,,,,,,,,,,,,
DataValue, 6.745, -0.248761624097824, -0.0035945880226790003, 6.745, 6.745,,,,,,,,,,,,,,,,,,,,,,,
DataValue, 7.0150000000000006, -0.24909104406833602, -0.003593520028517, 7.0150000000000006, 7.0150000000000006,,,,,,,,,,,,,,,,,,,,,,,
DataValue, 7.285, -0.24927397072315202, -0.0035915232729170003, 7.285, 7.285,,,,,,,,,,,,,,,,,,,,,,,
DataValue, 7.5550000000000006, -0.24937124550342601, -0.0035903810057790002, 7.5550000000000006, 7.5550000000000006,,,,,,,,,,,,,,,,,,,,,,,
DataValue, 7.825, -0.249259725213051, -0.003588639665395, 7.825, 7.825,,,,,,,,,,,,,,,,,,,,,,,
DataValue, 8.095, -0.24901102483272503, -0.0035875171888620004, 8.095, 8.095,,,,,,,,,,,,,,,,,,,,,,,
DataValue, 8.365, -0.249234110116959, -0.003585553029552, 8.365, 8.365,,,,,,,,,,,,,,,,,,,,,,,
DataValue, 8.635, -0.24886317551136003, -0.003584288060665, 8.635, 8.635,,,,,,,,,,,,,,,,,,,,,,,
SetupTitle, WGFMU Pattern Editor Child DataDisplay,,,,,,,,,,,,,,,,,,,,,,,,,,,
ApplicationTest, WGFMU Pattern Editor Child DataDisplay, Public,,,,,,,,,,,,,,,,,,,,,,,,,,
TestParameter, Name, DataDisplayID, NumOfDisplay, DisplayIndex, TimeMax, ValueLimit, Waveform1_time, Waveform1_voltage, Waveform2_time, Waveform2_voltage, MeasTiming_time, MeasTiming_flag, MeasResult1_time, MeasResult1_value, MeasResult2_time, MeasResult2_value,,,,,,,,,,,,
TestParameter, Value, Xtime_Ymeas_Disable, 1, 0, 8.64, 1E-08,,,,,,,,,,,,,,,,,,,,,,
MetaData, TestRecord.EntryPoint, false,,,,,,,,,,,,,,,,,,,,,,,,,,
MetaData, TestRecord.RecordTime, 05/19/2024 03:23:52,,,,,,,,,,,,,,,,,,,,,,,,,,
MetaData, TestRecord.TestTarget, ,,,,,,,,,,,,,,,,,,,,,,,,,,
MetaData, TestRecord.IterationIndex, 18,,,,,,,,,,,,,,,,,,,,,,,,,,
MetaData, TestRecord.Preservation, true,,,,,,,,,,,,,,,,,,,,,,,,,,
MetaData, TestRecord.Flag, ,,,,,,,,,,,,,,,,,,,,,,,,,,
MetaData, TestRecord.Remarks, ,,,,,,,,,,,,,,,,,,,,,,,,,,
MetaData, TestRecord.LinkKey, 149d6e37-cbbc-4fc6-b428-48931c70cd98,,,,,,,,,,,,,,,,,,,,,,,,,,
MetaData, TestRecord.Parameters, ,,,,,,,,,,,,,,,,,,,,,,,,,,
Dimension1, 32, 32, 32, 32, 32,,,,,,,,,,,,,,,,,,,,,,,
Dimension2, 1, 1, 1, 1, 1,,,,,,,,,,,,,,,,,,,,,,,
DataName, Time, MeasResult1_value, MeasResult2_value, MeasResult1_time, MeasResult2_time,,,,,,,,,,,,,,,,,,,,,,,
DataValue, 0.265, -0.24929898977279702, -0.0036642379127440005, 0.265, 0.265,,,,,,,,,,,,,,,,,,,,,,,
DataValue, 0.535, -0.24948924779892, -0.003648051759228, 0.535, 0.535,,,,,,,,,,,,,,,,,,,,,,,
DataValue, 0.805, -0.24958765506744401, -0.003641279181466, 0.805, 0.805,,,,,,,,,,,,,,,,,,,,,,,
DataValue, 1.0750000000000002, -0.24968807399272902, -0.0036372365430000003, 1.0750000000000002, 1.0750000000000002,,,,,,,,,,,,,,,,,,,,,,,
DataValue, 1.345, -0.24904571473598502, -0.0036340325605120002, 1.345, 1.345,,,,,,,,,,,,,,,,,,,,,,,
DataValue, 1.615, -0.24897798895835901, -0.0036310681607570005, 1.615, 1.615,,,,,,,,,,,,,,,,,,,,,,,
DataValue, 1.885, -0.24955493211746202, -0.0036285363603380002, 1.885, 1.885,,,,,,,,,,,,,,,,,,,,,,,
DataValue, 2.1550000000000002, -0.24940845370292702, -0.0036262890789660004, 2.1550000000000002, 2.1550000000000002,,,,,,,,,,,,,,,,,,,,,,,
DataValue, 2.4250000000000003, -0.249476715922356, -0.0036236089654270004, 2.4250000000000003, 2.4250000000000003,,,,,,,,,,,,,,,,,,,,,,,
DataValue, 2.6950000000000003, -0.2494116127491, -0.0036215481814, 2.6950000000000003, 2.6950000000000003,,,,,,,,,,,,,,,,,,,,,,,
DataValue, 2.9650000000000003, -0.24940897524356803, -0.00361934886314, 2.9650000000000003, 2.9650000000000003,,,,,,,,,,,,,,,,,,,,,,,
DataValue, 3.2350000000000003, -0.249309033155441, -0.0036173576954750004, 3.2350000000000003, 3.2350000000000003,,,,,,,,,,,,,,,,,,,,,,,
DataValue, 3.5050000000000003, -0.249311625957489, -0.0036149369552730005, 3.5050000000000003, 3.5050000000000003,,,,,,,,,,,,,,,,,,,,,,,
DataValue, 3.7750000000000004, -0.249009370803833, -0.0036134032998230005, 3.7750000000000004, 3.7750000000000004,,,,,,,,,,,,,,,,,,,,,,,
DataValue, 4.045, -0.24954244494438202, -0.0036113928072150003, 4.045, 4.045,,,,,,,,,,,,,,,,,,,,,,,
DataValue, 4.315, -0.249374806880951, -0.003609732724726, 4.315, 4.315,,,,,,,,,,,,,,,,,,,,,,,
DataValue, 4.585, -0.24914985895156902, -0.0036077240947630005, 4.585, 4.585,,,,,,,,,,,,,,,,,,,,,,,
DataValue, 4.855, -0.24936482310295102, -0.0036062409635630004, 4.855, 4.855,,,,,,,,,,,,,,,,,,,,,,,
DataValue, 5.125, -0.249269336462021, -0.0036044560838490005, 5.125, 5.125,,,,,,,,,,,,,,,,,,,,,,,
DataValue, 5.3950000000000005, -0.248998239636421, -0.003603115445003, 5.3950000000000005, 5.3950000000000005,,,,,,,,,,,,,,,,,,,,,,,
DataValue, 5.665, -0.249321490526199, -0.0036009699106220004, 5.665, 5.665,,,,,,,,,,,,,,,,,,,,,,,
DataValue, 5.9350000000000005, -0.249091774225235, -0.0035995435900990002, 5.9350000000000005, 5.9350000000000005,,,,,,,,,,,,,,,,,,,,,,,
DataValue, 6.205, -0.248835325241089, -0.0035976755898450004, 6.205, 6.205,,,,,,,,,,,,,,,,,,,,,,,
DataValue, 6.4750000000000005, -0.249384611845016, -0.0035963093396280004, 6.4750000000000005, 6.4750000000000005,,,,,,,,,,,,,,,,,,,,,,,
DataValue, 6.745, -0.248761624097824, -0.0035945880226790003, 6.745, 6.745,,,,,,,,,,,,,,,,,,,,,,,
DataValue, 7.0150000000000006, -0.24909104406833602, -0.003593520028517, 7.0150000000000006, 7.0150000000000006,,,,,,,,,,,,,,,,,,,,,,,
DataValue, 7.285, -0.24927397072315202, -0.0035915232729170003, 7.285, 7.285,,,,,,,,,,,,,,,,,,,,,,,
DataValue, 7.5550000000000006, -0.24937124550342601, -0.0035903810057790002, 7.5550000000000006, 7.5550000000000006,,,,,,,,,,,,,,,,,,,,,,,
DataValue, 7.825, -0.249259725213051, -0.003588639665395, 7.825, 7.825,,,,,,,,,,,,,,,,,,,,,,,
DataValue, 8.095, -0.24901102483272503, -0.0035875171888620004, 8.095, 8.095,,,,,,,,,,,,,,,,,,,,,,,
DataValue, 8.365, -0.249234110116959, -0.003585553029552, 8.365, 8.365,,,,,,,,,,,,,,,,,,,,,,,
DataValue, 8.635, -0.24886317551136003, -0.003584288060665, 8.635, 8.635,,,,,,,,,,,,,,,,,,,,,,,
