
SetupTitle, I/V Sweep
PrimitiveTest, I/V Sweep
TestParameter, Context.MainFrame, B1500A
TestParameter, Channel.UnitType, SMU, SMU
TestParameter, Channel.Unit, SMU1:HR/AS, SMU2:HR/AS
TestParameter, Channel.IName, Ig, Id
TestParameter, Channel.VName, Vg, Vd
TestParameter, Channel.Mode, V, V
TestParameter, Channel.Func, VAR2, VAR1
TestParameter, Channel.Index, 
TestParameter, Channel.Time, 
TestParameter, Measurement.Port.Unit, SMU1:HR/AS, SMU2:HR/AS
TestParameter, Measurement.Port.SeriesResistor, NONE, NONE
TestParameter, Measurement.Port.Filter, ON, ON
TestParameter, Measurement.Port.OutputVoltageComparison, 0, 0
TestParameter, Measurement.Primary.Locus, Single
TestParameter, Measurement.Primary.Scale, LINEAR
TestParameter, Measurement.Primary.Start, -0.0001
TestParameter, Measurement.Primary.Stop, -0.6
TestParameter, Measurement.Primary.Step, -0.05
TestParameter, Measurement.Primary.Compliance, 0.1
TestParameter, Measurement.Primary.PowerCompliance, 0.001
TestParameter, Measurement.Aborting.Condition, STOP AT ANY ABNORMAL
TestParameter, Measurement.PostOutput.Value, START
TestParameter, Measurement.PostOutput.Retention, OFF
TestParameter, Measurement.Secondary.Start, 0
TestParameter, Measurement.Secondary.Count, 6
TestParameter, Measurement.Secondary.Step, -0.1
TestParameter, Measurement.Secondary.Compliance, 0.0001
TestParameter, Measurement.Secondary.PowerCompliance, 0
TestParameter, Measurement.Bias.Source, 0, -0.0001
TestParameter, Measurement.Bias.Compliance, 0.0001, 0.1
TestParameter, Measurement.Monitor.Unit, SMU1:HR/AS, SMU2:HR/AS
TestParameter, Measurement.Monitor.Adc, HR ADC, HR ADC
TestParameter, Measurement.Monitor.Measurement, Compliance Side, Compliance Side
TestParameter, Measurement.Monitor.RangingMode, LIMITED, LIMITED
TestParameter, Measurement.Monitor.RangeBoundary, 1nA, 1nA
TestParameter, Measurement.Monitor.RangeRating, BY FULL RANGE, BY FULL RANGE
TestParameter, Measurement.Monitor.RangeRatingCoeff, 50, 50
TestParameter, Measurement.Timing.Hold, 0
TestParameter, Measurement.Timing.Delay, 0
TestParameter, Measurement.Adc.HighSpeed.Mode, AUTO
TestParameter, Measurement.Adc.HighSpeed.Coeff, 1
TestParameter, Measurement.Adc.HighResolution.AutoZero, OFF
TestParameter, Measurement.Adc.HighResolution.Mode, AUTO
TestParameter, Measurement.Adc.HighResolution.Coeff, 6
TestParameter, Measurement.WaitTime.Source.Coeff, 1
TestParameter, Measurement.WaitTime.Source.Offset, 0
TestParameter, Measurement.WaitTime.Monitor.Coeff, 1
TestParameter, Measurement.WaitTime.Monitor.Offset, 0
TestParameter, Output.Graph.Enabled, true
TestParameter, Output.Graph.AutoScaling, false
TestParameter, Output.Graph.XAxis.Data, Vg
TestParameter, Output.Graph.XAxis.Scale, Linear
TestParameter, Output.Graph.XAxis.Left, 0
TestParameter, Output.Graph.XAxis.Right, -0.5
TestParameter, Output.Graph.XAxis.RunTimeAutoScale, true
TestParameter, Output.Graph.YAxis.Data, Id
TestParameter, Output.Graph.YAxis.Scale, Linear
TestParameter, Output.Graph.YAxis.Bottom, -0.1
TestParameter, Output.Graph.YAxis.Top, 0.1
TestParameter, Output.Graph.YAxis.Group, 
TestParameter, Output.Graph.YAxis.RunTimeAutoScale, true
TestParameter, AutoAnalysis.Interpolation, false
TestParameter, AutoAnalysis.Var2StepCount, 1
TestParameter, AutoAnalysis.Var2StepScript, 
TestParameter, AutoAnalysis.Line1.Enabled, false
TestParameter, AutoAnalysis.Line1.Type, 1
TestParameter, AutoAnalysis.Line1.Fix, True
TestParameter, AutoAnalysis.Line1.YAxis, 0
TestParameter, AutoAnalysis.Line1.Point1.Type, 0
TestParameter, AutoAnalysis.Line1.Point1.XY.X, 
TestParameter, AutoAnalysis.Line1.Point1.XY.Y, 
TestParameter, AutoAnalysis.Line1.Point1.Data.Var, 
TestParameter, AutoAnalysis.Line1.Point1.Data.Condition, 
TestParameter, AutoAnalysis.Line1.Point1.Data.Start, false
TestParameter, AutoAnalysis.Line1.Point1.Data.StartVar, 
TestParameter, AutoAnalysis.Line1.Point1.Data.StartCondition, 
TestParameter, AutoAnalysis.Line1.Point2.Type, 0
TestParameter, AutoAnalysis.Line1.Point2.XY.X, 
TestParameter, AutoAnalysis.Line1.Point2.XY.Y, 
TestParameter, AutoAnalysis.Line1.Point2.Data.Var, 
TestParameter, AutoAnalysis.Line1.Point2.Data.Condition, 
TestParameter, AutoAnalysis.Line1.Point2.Data.Start, false
TestParameter, AutoAnalysis.Line1.Point2.Data.StartVar, 
TestParameter, AutoAnalysis.Line1.Point2.Data.StartCondition, 
TestParameter, AutoAnalysis.Line1.GradientExpr, 0
TestParameter, AutoAnalysis.Line2.Enabled, false
TestParameter, AutoAnalysis.Line2.Type, 1
TestParameter, AutoAnalysis.Line2.Fix, True
TestParameter, AutoAnalysis.Line2.YAxis, 0
TestParameter, AutoAnalysis.Line2.Point1.Type, 0
TestParameter, AutoAnalysis.Line2.Point1.XY.X, 
TestParameter, AutoAnalysis.Line2.Point1.XY.Y, 
TestParameter, AutoAnalysis.Line2.Point1.Data.Var, 
TestParameter, AutoAnalysis.Line2.Point1.Data.Condition, 
TestParameter, AutoAnalysis.Line2.Point1.Data.Start, false
TestParameter, AutoAnalysis.Line2.Point1.Data.StartVar, 
TestParameter, AutoAnalysis.Line2.Point1.Data.StartCondition, 
TestParameter, AutoAnalysis.Line2.Point2.Type, 0
TestParameter, AutoAnalysis.Line2.Point2.XY.X, 
TestParameter, AutoAnalysis.Line2.Point2.XY.Y, 
TestParameter, AutoAnalysis.Line2.Point2.Data.Var, 
TestParameter, AutoAnalysis.Line2.Point2.Data.Condition, 
TestParameter, AutoAnalysis.Line2.Point2.Data.Start, false
TestParameter, AutoAnalysis.Line2.Point2.Data.StartVar, 
TestParameter, AutoAnalysis.Line2.Point2.Data.StartCondition, 
TestParameter, AutoAnalysis.Line2.GradientExpr, 0
TestParameter, AutoAnalysis.Marker.Enabled, false
TestParameter, AutoAnalysis.Marker.Data.Var, 
TestParameter, AutoAnalysis.Marker.Data.Condition, 
TestParameter, AutoAnalysis.Marker.Data.Start, false
TestParameter, AutoAnalysis.Marker.Data.StartVar, 
TestParameter, AutoAnalysis.Marker.Data.StartCondition, 
MetaData, TestRecord.EntryPoint, true
MetaData, TestRecord.RecordTime, 05/29/2024 02:39:39
MetaData, TestRecord.TestTarget, 
MetaData, TestRecord.IterationIndex, 4
MetaData, TestRecord.Preservation, true
MetaData, TestRecord.Flag, 
MetaData, TestRecord.Remarks, 
MetaData, TestRecord.LinkKey, b2e6dafc-57cf-41dd-ab93-68eb5a8feea1
MetaData, TestRecord.Parameters, 
Dimension1, 13, 13
Dimension2, 6, 6
DataName, Vg, Id
DataValue, 0, -7.0925999999999993E-09
DataValue, 0, -2.9045999999999997E-07
DataValue, 0, -4.9536E-07
DataValue, 0, -5.8378E-07
DataValue, 0, -5.7116E-07
DataValue, 0, -4.7446E-07
DataValue, 0, -4.0488E-07
DataValue, 0, -3.9678E-07
DataValue, 0, -4.0546E-07
DataValue, 0, -3.866E-07
DataValue, 0, -3.9027999999999997E-07
DataValue, 0, -3.853E-07
DataValue, 0, -3.7044E-07
DataValue, -0.1, 2.5278E-07
DataValue, -0.1, -3.3284E-07
DataValue, -0.1, -6.9818E-07
DataValue, -0.1, -9.0506E-07
DataValue, -0.1, -1.0242E-06
DataValue, -0.1, -9.9980000000000015E-07
DataValue, -0.1, -9.2005999999999994E-07
DataValue, -0.1, -9.6183999999999988E-07
DataValue, -0.1, -9.8922E-07
DataValue, -0.1, -1.0201000000000002E-06
DataValue, -0.1, -1.0486E-06
DataValue, -0.1, -1.06E-06
DataValue, -0.1, -1.0729000000000001E-06
DataValue, -0.2, 3.6386E-07
DataValue, -0.2, -9.4461999999999994E-07
DataValue, -0.2, -1.9485E-06
DataValue, -0.2, -2.5704000000000004E-06
DataValue, -0.2, -2.9169000000000004E-06
DataValue, -0.2, -3.0474000000000002E-06
DataValue, -0.2, -3.0556000000000004E-06
DataValue, -0.2, -3.1732000000000004E-06
DataValue, -0.2, -3.3207000000000002E-06
DataValue, -0.2, -3.4463000000000004E-06
DataValue, -0.2, -3.5681E-06
DataValue, -0.2, -3.7025000000000005E-06
DataValue, -0.2, -3.8508000000000005E-06
DataValue, -0.3, 4.3626E-07
DataValue, -0.3, -3.4014E-06
DataValue, -0.3, -6.522E-06
DataValue, -0.3, -8.7540000000000012E-06
DataValue, -0.3, -1.0244E-05
DataValue, -0.3, -1.1062E-05
DataValue, -0.3, -1.1516000000000001E-05
DataValue, -0.3, -1.1968E-05
DataValue, -0.3, -1.2474000000000001E-05
DataValue, -0.3, -1.2988E-05
DataValue, -0.3, -1.3530000000000001E-05
DataValue, -0.3, -1.4058E-05
DataValue, -0.3, -1.4578E-05
DataValue, -0.4, 3.1473999999999997E-07
DataValue, -0.4, -1.4102E-05
DataValue, -0.4, -2.6976E-05
DataValue, -0.4, -3.628E-05
DataValue, -0.4, -4.1892000000000005E-05
DataValue, -0.4, -4.5306E-05
DataValue, -0.4, -4.8012E-05
DataValue, -0.4, -5.0664E-05
DataValue, -0.4, -5.3398E-05
DataValue, -0.4, -5.6030000000000004E-05
DataValue, -0.4, -5.8872E-05
DataValue, -0.4, -6.1698E-05
DataValue, -0.4, -6.4712E-05
DataValue, -0.5, 6.0325399999999988E-08
DataValue, -0.5, -7.9462E-05
DataValue, -0.5, -0.00015572
DataValue, -0.5, -0.00021404
DataValue, -0.5, -0.00024686
DataValue, -0.5, -0.00025584
DataValue, -0.5, -0.0002631
DataValue, -0.5, -0.00027172000000000003
DataValue, -0.5, -0.0002809
DataValue, -0.5, -0.00029054
DataValue, -0.5, -0.00030096
DataValue, -0.5, -0.00031114
DataValue, -0.5, -0.00032162