
SetupTitle, I/V Sweep
PrimitiveTest, I/V Sweep
TestParameter, Context.MainFrame, B1500A
TestParameter, Channel.UnitType, SMU, SMU
TestParameter, Channel.Unit, SMU1:HR/AS, SMU2:HR/AS
TestParameter, Channel.IName, Ig, Id
TestParameter, Channel.VName, Vg, Vd
TestParameter, Channel.Mode, V, V
TestParameter, Channel.Func, VAR2, VAR1
TestParameter, Channel.Index, 
TestParameter, Channel.Time, 
TestParameter, Measurement.Port.Unit, SMU1:HR/AS, SMU2:HR/AS
TestParameter, Measurement.Port.SeriesResistor, NONE, NONE
TestParameter, Measurement.Port.Filter, ON, ON
TestParameter, Measurement.Port.OutputVoltageComparison, 0, 0
TestParameter, Measurement.Primary.Locus, Single
TestParameter, Measurement.Primary.Scale, LINEAR
TestParameter, Measurement.Primary.Start, 0
TestParameter, Measurement.Primary.Stop, -0.5
TestParameter, Measurement.Primary.Step, -0.005
TestParameter, Measurement.Primary.Compliance, 0.1
TestParameter, Measurement.Primary.PowerCompliance, 0
TestParameter, Measurement.Aborting.Condition, CONTINUE AT ANY
TestParameter, Measurement.PostOutput.Value, START
TestParameter, Measurement.PostOutput.Retention, OFF
TestParameter, Measurement.Secondary.Start, 0
TestParameter, Measurement.Secondary.Count, 6
TestParameter, Measurement.Secondary.Step, 0.1
TestParameter, Measurement.Secondary.Compliance, 0.0001
TestParameter, Measurement.Secondary.PowerCompliance, 0
TestParameter, Measurement.Bias.Source, 0, 0
TestParameter, Measurement.Bias.Compliance, 0.0001, 0.1
TestParameter, Measurement.Monitor.Unit, SMU1:HR/AS, SMU2:HR/AS
TestParameter, Measurement.Monitor.Adc, HR ADC, HR ADC
TestParameter, Measurement.Monitor.Measurement, Compliance Side, Compliance Side
TestParameter, Measurement.Monitor.RangingMode, LIMITED, LIMITED
TestParameter, Measurement.Monitor.RangeBoundary, 1nA, 1nA
TestParameter, Measurement.Monitor.RangeRating, BY FULL RANGE, BY FULL RANGE
TestParameter, Measurement.Monitor.RangeRatingCoeff, 50, 50
TestParameter, Measurement.Timing.Hold, 0
TestParameter, Measurement.Timing.Delay, 0.05
TestParameter, Measurement.Adc.HighSpeed.Mode, AUTO
TestParameter, Measurement.Adc.HighSpeed.Coeff, 1
TestParameter, Measurement.Adc.HighResolution.AutoZero, OFF
TestParameter, Measurement.Adc.HighResolution.Mode, AUTO
TestParameter, Measurement.Adc.HighResolution.Coeff, 6
TestParameter, Measurement.WaitTime.Source.Coeff, 1
TestParameter, Measurement.WaitTime.Source.Offset, 0
TestParameter, Measurement.WaitTime.Monitor.Coeff, 1
TestParameter, Measurement.WaitTime.Monitor.Offset, 0
TestParameter, Output.Graph.Enabled, true
TestParameter, Output.Graph.AutoScaling, false
TestParameter, Output.Graph.XAxis.Data, Vd
TestParameter, Output.Graph.XAxis.Scale, Linear
TestParameter, Output.Graph.XAxis.Left, 0
TestParameter, Output.Graph.XAxis.Right, -0.5
TestParameter, Output.Graph.XAxis.RunTimeAutoScale, true
TestParameter, Output.Graph.YAxis.Data, Id
TestParameter, Output.Graph.YAxis.Scale, Linear
TestParameter, Output.Graph.YAxis.Bottom, -0.1
TestParameter, Output.Graph.YAxis.Top, 0.1
TestParameter, Output.Graph.YAxis.Group, 
TestParameter, Output.Graph.YAxis.RunTimeAutoScale, true
TestParameter, Output.List.Data, Vd, Vg, Id
TestParameter, AutoAnalysis.Interpolation, false
TestParameter, AutoAnalysis.Var2StepCount, 1
TestParameter, AutoAnalysis.Var2StepScript, 
TestParameter, AutoAnalysis.Line1.Enabled, false
TestParameter, AutoAnalysis.Line1.Type, 1
TestParameter, AutoAnalysis.Line1.Fix, True
TestParameter, AutoAnalysis.Line1.YAxis, 0
TestParameter, AutoAnalysis.Line1.Point1.Type, 0
TestParameter, AutoAnalysis.Line1.Point1.XY.X, 
TestParameter, AutoAnalysis.Line1.Point1.XY.Y, 
TestParameter, AutoAnalysis.Line1.Point1.Data.Var, 
TestParameter, AutoAnalysis.Line1.Point1.Data.Condition, 
TestParameter, AutoAnalysis.Line1.Point1.Data.Start, false
TestParameter, AutoAnalysis.Line1.Point1.Data.StartVar, 
TestParameter, AutoAnalysis.Line1.Point1.Data.StartCondition, 
TestParameter, AutoAnalysis.Line1.Point2.Type, 0
TestParameter, AutoAnalysis.Line1.Point2.XY.X, 
TestParameter, AutoAnalysis.Line1.Point2.XY.Y, 
TestParameter, AutoAnalysis.Line1.Point2.Data.Var, 
TestParameter, AutoAnalysis.Line1.Point2.Data.Condition, 
TestParameter, AutoAnalysis.Line1.Point2.Data.Start, false
TestParameter, AutoAnalysis.Line1.Point2.Data.StartVar, 
TestParameter, AutoAnalysis.Line1.Point2.Data.StartCondition, 
TestParameter, AutoAnalysis.Line1.GradientExpr, 0
TestParameter, AutoAnalysis.Line2.Enabled, false
TestParameter, AutoAnalysis.Line2.Type, 1
TestParameter, AutoAnalysis.Line2.Fix, True
TestParameter, AutoAnalysis.Line2.YAxis, 0
TestParameter, AutoAnalysis.Line2.Point1.Type, 0
TestParameter, AutoAnalysis.Line2.Point1.XY.X, 
TestParameter, AutoAnalysis.Line2.Point1.XY.Y, 
TestParameter, AutoAnalysis.Line2.Point1.Data.Var, 
TestParameter, AutoAnalysis.Line2.Point1.Data.Condition, 
TestParameter, AutoAnalysis.Line2.Point1.Data.Start, false
TestParameter, AutoAnalysis.Line2.Point1.Data.StartVar, 
TestParameter, AutoAnalysis.Line2.Point1.Data.StartCondition, 
TestParameter, AutoAnalysis.Line2.Point2.Type, 0
TestParameter, AutoAnalysis.Line2.Point2.XY.X, 
TestParameter, AutoAnalysis.Line2.Point2.XY.Y, 
TestParameter, AutoAnalysis.Line2.Point2.Data.Var, 
TestParameter, AutoAnalysis.Line2.Point2.Data.Condition, 
TestParameter, AutoAnalysis.Line2.Point2.Data.Start, false
TestParameter, AutoAnalysis.Line2.Point2.Data.StartVar, 
TestParameter, AutoAnalysis.Line2.Point2.Data.StartCondition, 
TestParameter, AutoAnalysis.Line2.GradientExpr, 0
TestParameter, AutoAnalysis.Marker.Enabled, false
TestParameter, AutoAnalysis.Marker.Data.Var, 
TestParameter, AutoAnalysis.Marker.Data.Condition, 
TestParameter, AutoAnalysis.Marker.Data.Start, false
TestParameter, AutoAnalysis.Marker.Data.StartVar, 
TestParameter, AutoAnalysis.Marker.Data.StartCondition, 
MetaData, TestRecord.EntryPoint, true
MetaData, TestRecord.RecordTime, 08/28/2024 03:45:46
MetaData, TestRecord.TestTarget, 
MetaData, TestRecord.IterationIndex, 5
MetaData, TestRecord.Preservation, true
MetaData, TestRecord.Flag, 
MetaData, TestRecord.Remarks, 
MetaData, TestRecord.LinkKey, cb9dd864-fc78-484b-84d5-4c9f533bc856
MetaData, TestRecord.Parameters, 
Dimension1, 101, 101, 101
Dimension2, 6, 6, 6
DataName, Vd, Vg, Id
DataValue, 0, 0, 4.814E-07
DataValue, -0.005, 0, -3.4534E-07
DataValue, -0.01, 0, -1.1568E-06
DataValue, -0.015000000000000001, 0, -1.9781E-06
DataValue, -0.02, 0, -2.7697000000000003E-06
DataValue, -0.025, 0, -3.514E-06
DataValue, -0.030000000000000002, 0, -4.2394000000000004E-06
DataValue, -0.035, 0, -4.9976E-06
DataValue, -0.04, 0, -5.7844000000000009E-06
DataValue, -0.045000000000000005, 0, -6.5536000000000011E-06
DataValue, -0.05, 0, -7.2886000000000008E-06
DataValue, -0.055, 0, -8.0248000000000015E-06
DataValue, -0.060000000000000005, 0, -8.7463000000000013E-06
DataValue, -0.065, 0, -9.4919000000000014E-06
DataValue, -0.07, 0, -1.0245700000000001E-05
DataValue, -0.075, 0, -1.0992E-05
DataValue, -0.08, 0, -1.1826E-05
DataValue, -0.085, 0, -1.2534E-05
DataValue, -0.090000000000000011, 0, -1.3304E-05
DataValue, -0.095, 0, -1.3988E-05
DataValue, -0.1, 0, -1.4796E-05
DataValue, -0.10500000000000001, 0, -1.56E-05
DataValue, -0.11, 0, -1.632E-05
DataValue, -0.115, 0, -1.7058E-05
DataValue, -0.12000000000000001, 0, -1.788E-05
DataValue, -0.125, 0, -1.8686E-05
DataValue, -0.13, 0, -1.954E-05
DataValue, -0.135, 0, -2.0394E-05
DataValue, -0.14, 0, -2.1214E-05
DataValue, -0.14500000000000002, 0, -2.2172E-05
DataValue, -0.15, 0, -2.3122E-05
DataValue, -0.155, 0, -2.4E-05
DataValue, -0.16, 0, -2.4856E-05
DataValue, -0.165, 0, -2.5844000000000002E-05
DataValue, -0.17, 0, -2.6788000000000002E-05
DataValue, -0.17500000000000002, 0, -2.7680000000000003E-05
DataValue, -0.18000000000000002, 0, -2.8542000000000002E-05
DataValue, -0.185, 0, -2.9464E-05
DataValue, -0.19, 0, -3.0298E-05
DataValue, -0.195, 0, -3.129E-05
DataValue, -0.2, 0, -3.2126000000000004E-05
DataValue, -0.20500000000000002, 0, -3.3038000000000005E-05
DataValue, -0.21000000000000002, 0, -3.3932E-05
DataValue, -0.215, 0, -3.4866E-05
DataValue, -0.22, 0, -3.57E-05
DataValue, -0.225, 0, -3.6698E-05
DataValue, -0.23, 0, -3.7592E-05
DataValue, -0.23500000000000001, 0, -3.8502E-05
DataValue, -0.24000000000000002, 0, -3.9438000000000004E-05
DataValue, -0.24500000000000002, 0, -4.0438E-05
DataValue, -0.25, 0, -4.1302E-05
DataValue, -0.255, 0, -4.218E-05
DataValue, -0.26, 0, -4.3222E-05
DataValue, -0.265, 0, -4.4058000000000004E-05
DataValue, -0.27, 0, -4.5034E-05
DataValue, -0.275, 0, -4.6038E-05
DataValue, -0.28, 0, -4.6932000000000004E-05
DataValue, -0.28500000000000003, 0, -4.7832E-05
DataValue, -0.29000000000000004, 0, -4.8786000000000004E-05
DataValue, -0.29500000000000004, 0, -4.9592E-05
DataValue, -0.3, 0, -5.0562E-05
DataValue, -0.305, 0, -5.157E-05
DataValue, -0.31, 0, -5.2434E-05
DataValue, -0.315, 0, -5.3272E-05
DataValue, -0.32, 0, -5.422E-05
DataValue, -0.325, 0, -5.509E-05
DataValue, -0.33, 0, -5.6102E-05
DataValue, -0.335, 0, -5.7010000000000005E-05
DataValue, -0.34, 0, -5.7834E-05
DataValue, -0.34500000000000003, 0, -5.8606E-05
DataValue, -0.35000000000000003, 0, -5.933E-05
DataValue, -0.35500000000000004, 0, -6.0242000000000004E-05
DataValue, -0.36000000000000004, 0, -6.0872E-05
DataValue, -0.365, 0, -6.1412E-05
DataValue, -0.37, 0, -6.2072E-05
DataValue, -0.375, 0, -6.266E-05
DataValue, -0.38, 0, -6.3404E-05
DataValue, -0.385, 0, -6.3862E-05
DataValue, -0.39, 0, -6.4486E-05
DataValue, -0.395, 0, -6.5158E-05
DataValue, -0.4, 0, -6.5816000000000008E-05
DataValue, -0.405, 0, -6.6498E-05
DataValue, -0.41000000000000003, 0, -6.7502E-05
DataValue, -0.41500000000000004, 0, -6.8174E-05
DataValue, -0.42000000000000004, 0, -6.8762E-05
DataValue, -0.42500000000000004, 0, -6.956E-05
DataValue, -0.43, 0, -7.001E-05
DataValue, -0.435, 0, -7.082E-05
DataValue, -0.44, 0, -7.1464E-05
DataValue, -0.445, 0, -7.2138E-05
DataValue, -0.45, 0, -7.294E-05
DataValue, -0.455, 0, -7.3586E-05
DataValue, -0.46, 0, -7.413E-05
DataValue, -0.465, 0, -7.4772000000000008E-05
DataValue, -0.47000000000000003, 0, -7.5376E-05
DataValue, -0.47500000000000003, 0, -7.6178E-05
DataValue, -0.48000000000000004, 0, -7.6942E-05
DataValue, -0.48500000000000004, 0, -7.735E-05
DataValue, -0.49000000000000005, 0, -7.8066000000000008E-05
DataValue, -0.49500000000000005, 0, -7.8746000000000008E-05
DataValue, -0.5, 0, -7.9606E-05
DataValue, 0, 0.1, 5.7571E-06
DataValue, -0.005, 0.1, 2.8205000000000004E-06
DataValue, -0.01, 0.1, 6.6134E-07
DataValue, -0.015000000000000001, 0.1, -8.1416E-07
DataValue, -0.02, 0.1, -2.2140000000000003E-06
DataValue, -0.025, 0.1, -3.2383000000000004E-06
DataValue, -0.030000000000000002, 0.1, -4.1311E-06
DataValue, -0.035, 0.1, -5.0116000000000004E-06
DataValue, -0.04, 0.1, -5.8422000000000006E-06
DataValue, -0.045000000000000005, 0.1, -6.7291000000000005E-06
DataValue, -0.05, 0.1, -7.5464000000000011E-06
DataValue, -0.055, 0.1, -8.3431000000000015E-06
DataValue, -0.060000000000000005, 0.1, -9.120100000000001E-06
DataValue, -0.065, 0.1, -9.8905000000000013E-06
DataValue, -0.07, 0.1, -1.0606E-05
DataValue, -0.075, 0.1, -1.146E-05
DataValue, -0.08, 0.1, -1.2322E-05
DataValue, -0.085, 0.1, -1.312E-05
DataValue, -0.090000000000000011, 0.1, -1.391E-05
DataValue, -0.095, 0.1, -1.4672000000000001E-05
DataValue, -0.1, 0.1, -1.554E-05
DataValue, -0.10500000000000001, 0.1, -1.6382E-05
DataValue, -0.11, 0.1, -1.717E-05
DataValue, -0.115, 0.1, -1.7998E-05
DataValue, -0.12000000000000001, 0.1, -1.88E-05
DataValue, -0.125, 0.1, -1.9622E-05
DataValue, -0.13, 0.1, -2.0458E-05
DataValue, -0.135, 0.1, -2.1268E-05
DataValue, -0.14, 0.1, -2.2060000000000002E-05
DataValue, -0.14500000000000002, 0.1, -2.2908E-05
DataValue, -0.15, 0.1, -2.3738000000000002E-05
DataValue, -0.155, 0.1, -2.459E-05
DataValue, -0.16, 0.1, -2.5306E-05
DataValue, -0.165, 0.1, -2.6150000000000002E-05
DataValue, -0.17, 0.1, -2.7068000000000002E-05
DataValue, -0.17500000000000002, 0.1, -2.7946E-05
DataValue, -0.18000000000000002, 0.1, -2.8676E-05
DataValue, -0.185, 0.1, -2.9642000000000002E-05
DataValue, -0.19, 0.1, -3.0444000000000002E-05
DataValue, -0.195, 0.1, -3.1414E-05
DataValue, -0.2, 0.1, -3.2266E-05
DataValue, -0.20500000000000002, 0.1, -3.3136E-05
DataValue, -0.21000000000000002, 0.1, -3.401E-05
DataValue, -0.215, 0.1, -3.4992E-05
DataValue, -0.22, 0.1, -3.5890000000000004E-05
DataValue, -0.225, 0.1, -3.6714E-05
DataValue, -0.23, 0.1, -3.7554E-05
DataValue, -0.23500000000000001, 0.1, -3.8432E-05
DataValue, -0.24000000000000002, 0.1, -3.9424E-05
DataValue, -0.24500000000000002, 0.1, -4.0278E-05
DataValue, -0.25, 0.1, -4.0974000000000004E-05
DataValue, -0.255, 0.1, -4.1972000000000004E-05
DataValue, -0.26, 0.1, -4.2754000000000004E-05
DataValue, -0.265, 0.1, -4.3574E-05
DataValue, -0.27, 0.1, -4.4254E-05
DataValue, -0.275, 0.1, -4.4970000000000005E-05
DataValue, -0.28, 0.1, -4.5468E-05
DataValue, -0.28500000000000003, 0.1, -4.6082000000000004E-05
DataValue, -0.29000000000000004, 0.1, -4.6708E-05
DataValue, -0.29500000000000004, 0.1, -4.7192000000000005E-05
DataValue, -0.3, 0.1, -4.7642E-05
DataValue, -0.305, 0.1, -4.8404E-05
DataValue, -0.31, 0.1, -4.8978000000000004E-05
DataValue, -0.315, 0.1, -4.9734E-05
DataValue, -0.32, 0.1, -5.0534E-05
DataValue, -0.325, 0.1, -5.0906000000000004E-05
DataValue, -0.33, 0.1, -5.164E-05
DataValue, -0.335, 0.1, -5.2374000000000004E-05
DataValue, -0.34, 0.1, -5.3004E-05
DataValue, -0.34500000000000003, 0.1, -5.3618E-05
DataValue, -0.35000000000000003, 0.1, -5.4194E-05
DataValue, -0.35500000000000004, 0.1, -5.4902000000000004E-05
DataValue, -0.36000000000000004, 0.1, -5.5674E-05
DataValue, -0.365, 0.1, -5.6416E-05
DataValue, -0.37, 0.1, -5.6708E-05
DataValue, -0.375, 0.1, -5.7560000000000005E-05
DataValue, -0.38, 0.1, -5.8146E-05
DataValue, -0.385, 0.1, -5.882E-05
DataValue, -0.39, 0.1, -5.9408000000000004E-05
DataValue, -0.395, 0.1, -6.0008000000000006E-05
DataValue, -0.4, 0.1, -6.0608E-05
DataValue, -0.405, 0.1, -6.1296E-05
DataValue, -0.41000000000000003, 0.1, -6.1944E-05
DataValue, -0.41500000000000004, 0.1, -6.2452E-05
DataValue, -0.42000000000000004, 0.1, -6.31E-05
DataValue, -0.42500000000000004, 0.1, -6.3868E-05
DataValue, -0.43, 0.1, -6.4358E-05
DataValue, -0.435, 0.1, -6.4866E-05
DataValue, -0.44, 0.1, -6.552E-05
DataValue, -0.445, 0.1, -6.6202E-05
DataValue, -0.45, 0.1, -6.6748E-05
DataValue, -0.455, 0.1, -6.7346E-05
DataValue, -0.46, 0.1, -6.7858E-05
DataValue, -0.465, 0.1, -6.8494E-05
DataValue, -0.47000000000000003, 0.1, -6.9254E-05
DataValue, -0.47500000000000003, 0.1, -6.9702E-05
DataValue, -0.48000000000000004, 0.1, -7.0412E-05
DataValue, -0.48500000000000004, 0.1, -7.0978E-05
DataValue, -0.49000000000000005, 0.1, -7.1426E-05
DataValue, -0.49500000000000005, 0.1, -7.205E-05
DataValue, -0.5, 0.1, -7.2652000000000008E-05
DataValue, 0, 0.2, 6.8385000000000007E-06
DataValue, -0.005, 0.2, 3.0981000000000005E-06
DataValue, -0.01, 0.2, 6.725E-07
DataValue, -0.015000000000000001, 0.2, -1.1055E-06
DataValue, -0.02, 0.2, -2.3175000000000003E-06
DataValue, -0.025, 0.2, -3.3363E-06
DataValue, -0.030000000000000002, 0.2, -4.2596000000000007E-06
DataValue, -0.035, 0.2, -5.1768E-06
DataValue, -0.04, 0.2, -6.0663000000000007E-06
DataValue, -0.045000000000000005, 0.2, -6.9104000000000008E-06
DataValue, -0.05, 0.2, -7.7313E-06
DataValue, -0.055, 0.2, -8.5212E-06
DataValue, -0.060000000000000005, 0.2, -9.3141000000000012E-06
DataValue, -0.065, 0.2, -1.01612E-05
DataValue, -0.07, 0.2, -1.0812E-05
DataValue, -0.075, 0.2, -1.1706000000000001E-05
DataValue, -0.08, 0.2, -1.2496E-05
DataValue, -0.085, 0.2, -1.3284E-05
DataValue, -0.090000000000000011, 0.2, -1.4062E-05
DataValue, -0.095, 0.2, -1.4894E-05
DataValue, -0.1, 0.2, -1.568E-05
DataValue, -0.10500000000000001, 0.2, -1.646E-05
DataValue, -0.11, 0.2, -1.7186E-05
DataValue, -0.115, 0.2, -1.8036E-05
DataValue, -0.12000000000000001, 0.2, -1.8796E-05
DataValue, -0.125, 0.2, -1.9592E-05
DataValue, -0.13, 0.2, -2.0304E-05
DataValue, -0.135, 0.2, -2.1014000000000002E-05
DataValue, -0.14, 0.2, -2.1756E-05
DataValue, -0.14500000000000002, 0.2, -2.2604000000000002E-05
DataValue, -0.15, 0.2, -2.3372E-05
DataValue, -0.155, 0.2, -2.4132000000000002E-05
DataValue, -0.16, 0.2, -2.4942E-05
DataValue, -0.165, 0.2, -2.5736000000000002E-05
DataValue, -0.17, 0.2, -2.6548E-05
DataValue, -0.17500000000000002, 0.2, -2.7246E-05
DataValue, -0.18000000000000002, 0.2, -2.8032000000000002E-05
DataValue, -0.185, 0.2, -2.8708E-05
DataValue, -0.19, 0.2, -2.9472000000000002E-05
DataValue, -0.195, 0.2, -3.014E-05
DataValue, -0.2, 0.2, -3.0664E-05
DataValue, -0.20500000000000002, 0.2, -3.1232E-05
DataValue, -0.21000000000000002, 0.2, -3.1816E-05
DataValue, -0.215, 0.2, -3.248E-05
DataValue, -0.22, 0.2, -3.3116E-05
DataValue, -0.225, 0.2, -3.3734E-05
DataValue, -0.23, 0.2, -3.4308000000000004E-05
DataValue, -0.23500000000000001, 0.2, -3.5012E-05
DataValue, -0.24000000000000002, 0.2, -3.5706E-05
DataValue, -0.24500000000000002, 0.2, -3.6284E-05
DataValue, -0.25, 0.2, -3.688E-05
DataValue, -0.255, 0.2, -3.7528000000000004E-05
DataValue, -0.26, 0.2, -3.8324E-05
DataValue, -0.265, 0.2, -3.8894000000000004E-05
DataValue, -0.27, 0.2, -3.9426E-05
DataValue, -0.275, 0.2, -4.0054E-05
DataValue, -0.28, 0.2, -4.0694E-05
DataValue, -0.28500000000000003, 0.2, -4.1486E-05
DataValue, -0.29000000000000004, 0.2, -4.1988E-05
DataValue, -0.29500000000000004, 0.2, -4.257E-05
DataValue, -0.3, 0.2, -4.3190000000000005E-05
DataValue, -0.305, 0.2, -4.3814000000000004E-05
DataValue, -0.31, 0.2, -4.4408E-05
DataValue, -0.315, 0.2, -4.498E-05
DataValue, -0.32, 0.2, -4.5542E-05
DataValue, -0.325, 0.2, -4.6118E-05
DataValue, -0.33, 0.2, -4.6790000000000004E-05
DataValue, -0.335, 0.2, -4.741E-05
DataValue, -0.34, 0.2, -4.7864E-05
DataValue, -0.34500000000000003, 0.2, -4.8476E-05
DataValue, -0.35000000000000003, 0.2, -4.8986E-05
DataValue, -0.35500000000000004, 0.2, -4.9598E-05
DataValue, -0.36000000000000004, 0.2, -5.0054E-05
DataValue, -0.365, 0.2, -5.07E-05
DataValue, -0.37, 0.2, -5.1272E-05
DataValue, -0.375, 0.2, -5.1786E-05
DataValue, -0.38, 0.2, -5.224E-05
DataValue, -0.385, 0.2, -5.2742000000000004E-05
DataValue, -0.39, 0.2, -5.3176E-05
DataValue, -0.395, 0.2, -5.373E-05
DataValue, -0.4, 0.2, -5.4402000000000005E-05
DataValue, -0.405, 0.2, -5.4778E-05
DataValue, -0.41000000000000003, 0.2, -5.5236000000000004E-05
DataValue, -0.41500000000000004, 0.2, -5.5582000000000004E-05
DataValue, -0.42000000000000004, 0.2, -5.6188000000000005E-05
DataValue, -0.42500000000000004, 0.2, -5.6768E-05
DataValue, -0.43, 0.2, -5.7186000000000004E-05
DataValue, -0.435, 0.2, -5.7594000000000005E-05
DataValue, -0.44, 0.2, -5.813E-05
DataValue, -0.445, 0.2, -5.8576E-05
DataValue, -0.45, 0.2, -5.9118E-05
DataValue, -0.455, 0.2, -5.9510000000000005E-05
DataValue, -0.46, 0.2, -5.9888E-05
DataValue, -0.465, 0.2, -6.0306E-05
DataValue, -0.47000000000000003, 0.2, -6.0780000000000004E-05
DataValue, -0.47500000000000003, 0.2, -6.1192E-05
DataValue, -0.48000000000000004, 0.2, -6.1572E-05
DataValue, -0.48500000000000004, 0.2, -6.2076E-05
DataValue, -0.49000000000000005, 0.2, -6.2532E-05
DataValue, -0.49500000000000005, 0.2, -6.3062E-05
DataValue, -0.5, 0.2, -6.3408E-05
DataValue, 0, 0.3, 2.7453E-06
DataValue, -0.005, 0.3, 6.566E-07
DataValue, -0.01, 0.3, -8.7008E-07
DataValue, -0.015000000000000001, 0.3, -2.0388000000000003E-06
DataValue, -0.02, 0.3, -2.9899000000000004E-06
DataValue, -0.025, 0.3, -3.8647000000000005E-06
DataValue, -0.030000000000000002, 0.3, -4.7432000000000006E-06
DataValue, -0.035, 0.3, -5.5836E-06
DataValue, -0.04, 0.3, -6.3847000000000009E-06
DataValue, -0.045000000000000005, 0.3, -7.0645000000000007E-06
DataValue, -0.05, 0.3, -7.6917000000000013E-06
DataValue, -0.055, 0.3, -8.3026E-06
DataValue, -0.060000000000000005, 0.3, -8.9161000000000009E-06
DataValue, -0.065, 0.3, -9.5679E-06
DataValue, -0.07, 0.3, -1.02202E-05
DataValue, -0.075, 0.3, -1.0772000000000001E-05
DataValue, -0.08, 0.3, -1.1390000000000001E-05
DataValue, -0.085, 0.3, -1.2008000000000001E-05
