
SetupTitle, (b1)Benchmark Transient response
ApplicationTest, WGFMU Pattern Editor, Public
TestParameter, Name, ExecutionMode, Enable1, Channel1, OperationMode1, VForceRange1, InitMeasRange1, Enable2, Channel2, OperationMode2, VForceRange2, InitMeasRange2, RepeatCount, WaveformCh1, WaveformCh2, MeasurementEvent, Output_to_File_for_PatternValidation, Output_Enable, Output_Filename, DataDisplay_for_RunVector, DataDisplay_PatternValidation, DataDisplay_Mode, LogToFile, LogFile, WarningLevel, IForceRange1, IForceRange2, Result_Update_Interval_s
TestParameter, Value, Run Vector, Enable, WGFMU1:RS	RSWGFMU, Fast IV Vmeas, Auto, 5V (Vmeas), Enable, WGFMU2:RS	RSWGFMU, Fast IV Imeas, Auto, 10mA (Imeas), 1, , Disable, C:\WGFMUPatternEditor_Pattern.csv, , Disable, x(time)_y(meas), Disable, C:\WGFMUPatternEditor_Log.log, 2, 10mA, 10mA, 10
MetaData, TestRecord.EntryPoint, true
MetaData, TestRecord.RecordTime, 11/20/2024 02:50:40
MetaData, TestRecord.TestTarget, 
MetaData, TestRecord.IterationIndex, 31
MetaData, TestRecord.Preservation, true
MetaData, TestRecord.Flag, 
MetaData, TestRecord.Remarks, gel-s20c3_0.6v
MetaData, TestRecord.LinkKey, 5ea679b7-59c5-46cf-9be7-9c380c908db0
MetaData, TestRecord.Parameters, 
Dimension1, 1250, 1250, 1250, 1250, 1250
Dimension2, 1, 1, 1, 1, 1
DataName, Time, MeasResult1_value, MeasResult2_value, MeasResult1_time, MeasResult2_time
DataValue, 0.30025, 0.00041994682396800004, -2.6509211239000003E-05, 0.30025, 0.30025
DataValue, 0.30075, 0.00051840650849, -2.6697240173000003E-05, 0.30075, 0.30075
DataValue, 0.30125, 0.000555227568839, -2.6972042178000003E-05, 0.30125, 0.30125
DataValue, 0.30175, 0.000533645274118, -2.7047532058E-05, 0.30175, 0.30175
DataValue, 0.30225, 0.00046777050010900006, -2.7341433452000002E-05, 0.30225, 0.30225
DataValue, 0.30275, 0.000595382589381, -2.7659354600000002E-05, 0.30275, 0.30275
DataValue, 0.30325, 0.00051875191275000006, -2.7720358048000003E-05, 0.30325, 0.30325
DataValue, 0.30375, 0.000548468146008, -2.7721644074000003E-05, 0.30375, 0.30375
DataValue, 0.30425, 0.00050867965910600008, -2.7878131732000003E-05, 0.30425, 0.30425
DataValue, 0.30475, 0.000602170242928, -2.8112552172000002E-05, 0.30475, 0.30475
DataValue, 0.30525, 0.00054909544996900009, -2.8209686207000002E-05, 0.30525, 0.30525
DataValue, 0.30575, 0.000548101612367, -2.8525650123000002E-05, 0.30575, 0.30575
DataValue, 0.30625, 0.000625831831712, -2.8610982554000004E-05, 0.30625, 0.30625
DataValue, 0.30675, 0.000577077793423, -2.8738708352000003E-05, 0.30675, 0.30675
DataValue, 0.30725, 0.00053655623924000009, -2.8905904401E-05, 0.30725, 0.30725
DataValue, 0.30775, 0.00071064574876800006, -2.9260487281000002E-05, 0.30775, 0.30775
DataValue, 0.30825, 0.000679597374983, -2.9210501452000003E-05, 0.30825, 0.30825
DataValue, 0.30875, 0.00056385487550900007, -2.9280830859000003E-05, 0.30875, 0.30875
DataValue, 0.30925, 0.00064369966276000006, -2.9259117582000003E-05, 0.30925, 0.30925
DataValue, 0.30975, 0.00069389160489700008, -2.9396796890000003E-05, 0.30975, 0.30975
DataValue, 0.31025, 0.000616513832938, -2.9333152270000003E-05, 0.31025, 0.31025
DataValue, 0.31075, 0.000483389856527, -2.9341541449E-05, 0.31075, 0.31075
DataValue, 0.31125, 0.00048516606329900003, -2.8986523830000003E-05, 0.31125, 0.31125
DataValue, 0.31175, 0.00057942490093400008, -2.8761442081000003E-05, 0.31175, 0.31175
DataValue, 0.31225, 0.00056330510415100005, -2.8649516025000002E-05, 0.31225, 0.31225
DataValue, 0.31275000000000003, 0.000592238968238, -2.8455237043000003E-05, 0.31275000000000003, 0.31275000000000003
DataValue, 0.31325000000000003, 0.00053399062017, -2.8229511372000002E-05, 0.31325000000000003, 0.31325000000000003
DataValue, 0.31375000000000003, 0.000531241763383, -2.7899382985E-05, 0.31375000000000003, 0.31375000000000003
DataValue, 0.31425000000000003, 0.00045645775389900004, -2.7795887945000002E-05, 0.31425000000000003, 0.31425000000000003
DataValue, 0.31475000000000003, 0.00048152907402300004, -2.7416235753E-05, 0.31475000000000003, 0.31475000000000003
DataValue, 0.31525000000000003, 0.00057306018425200007, -2.7218558898000003E-05, 0.31525000000000003, 0.31525000000000003
DataValue, 0.31575000000000003, 0.0006377225508910001, -2.7133968615E-05, 0.31575000000000003, 0.31575000000000003
DataValue, 0.31625000000000003, 0.000651896989439, -2.6967987651000004E-05, 0.31625000000000003, 0.31625000000000003
DataValue, 0.31675000000000003, 0.00065824057674000009, -2.6930627428000002E-05, 0.31675000000000003, 0.31675000000000003
DataValue, 0.31725000000000003, 0.00056518701603600009, -2.6649771826000002E-05, 0.31725000000000003, 0.31725000000000003
DataValue, 0.31775000000000003, 0.00050993432523700007, -2.6557183446E-05, 0.31775000000000003, 0.31775000000000003
DataValue, 0.31825000000000003, 0.00048206475912600005, -2.6611027351E-05, 0.31825000000000003, 0.31825000000000003
DataValue, 0.31875000000000003, 0.000404827907914, -2.6641495424000003E-05, 0.31875000000000003, 0.31875000000000003
DataValue, 0.31925000000000003, 0.00036267822724800005, -2.6646444894000003E-05, 0.31925000000000003, 0.31925000000000003
DataValue, 0.31975000000000003, 0.00042089834460100003, -2.6760704714000003E-05, 0.31975000000000003, 0.31975000000000003
DataValue, 0.32025000000000003, 0.000432197004557, -2.6788360628E-05, 0.32025000000000003, 0.32025000000000003
DataValue, 0.32075000000000004, 0.00044599082320900005, -2.6774798243E-05, 0.32075000000000004, 0.32075000000000004
DataValue, 0.32125000000000004, 0.000633697898593, -2.6805320886E-05, 0.32125000000000004, 0.32125000000000004
DataValue, 0.32175000000000004, 0.00058402755530600006, -2.7161693652E-05, 0.32175000000000004, 0.32175000000000004
DataValue, 0.32225000000000004, 0.0005780927604060001, -2.7297053748E-05, 0.32225000000000004, 0.32225000000000004
DataValue, 0.32275000000000004, 0.00049489998491500007, -2.7655551094000002E-05, 0.32275000000000004, 0.32275000000000004
DataValue, 0.32325000000000004, 0.00054841174278400006, -2.7703606975E-05, 0.32325000000000004, 0.32325000000000004
DataValue, 0.32375000000000004, 0.00054827780695600008, -2.7910373319000003E-05, 0.32375000000000004, 0.32375000000000004
DataValue, 0.32425000000000004, 0.00048864801647100008, -2.8058833777000002E-05, 0.32425000000000004, 0.32425000000000004
DataValue, 0.32475000000000004, 0.000605814275332, -2.8271892006000003E-05, 0.32475000000000004, 0.32475000000000004
DataValue, 0.32525000000000004, 0.000544344773516, -2.8367974664000002E-05, 0.32525000000000004, 0.32525000000000004
DataValue, 0.32575000000000004, 0.00057493505301000009, -2.8755010135E-05, 0.32575000000000004, 0.32575000000000004
DataValue, 0.32625000000000004, 0.000571298063733, -2.8867929359E-05, 0.32625000000000004, 0.32625000000000004
DataValue, 0.32675000000000004, 0.000711315369699, -2.8810896765000003E-05, 0.32675000000000004, 0.32675000000000004
DataValue, 0.32725000000000004, 0.00062903185607900006, -2.9060907764000002E-05, 0.32725000000000004, 0.32725000000000004
DataValue, 0.32775000000000004, 0.000595854828134, -2.9081867979000003E-05, 0.32775000000000004, 0.32775000000000004
DataValue, 0.32825000000000004, 0.00060066889273, -2.9068347430000002E-05, 0.32825000000000004, 0.32825000000000004
DataValue, 0.32875000000000004, 0.000647731358185, -2.9121436455E-05, 0.32875000000000004, 0.32875000000000004
DataValue, 0.32925000000000004, 0.000641634454951, -2.9100490792000003E-05, 0.32925000000000004, 0.32925000000000004
DataValue, 0.32975000000000004, 0.000578170293011, -2.9054588595000003E-05, 0.32975000000000004, 0.32975000000000004
DataValue, 0.33025000000000004, 0.00058856670511900008, -2.8898004530000002E-05, 0.33025000000000004, 0.33025000000000004
DataValue, 0.33075000000000004, 0.000563128909562, -2.8642147299E-05, 0.33075000000000004, 0.33075000000000004
DataValue, 0.33125000000000004, 0.00050146912690300009, -2.8790693250000002E-05, 0.33125000000000004, 0.33125000000000004
DataValue, 0.33175000000000004, 0.00040771072963300005, -2.8671454857000003E-05, 0.33175000000000004, 0.33175000000000004
DataValue, 0.33225000000000005, 0.00051791314035700006, -2.8428741643000003E-05, 0.33225000000000005, 0.33225000000000005
DataValue, 0.33275000000000005, 0.000643058272544, -2.8114551242000003E-05, 0.33275000000000005, 0.33275000000000005
DataValue, 0.33325000000000005, 0.000529000360984, -2.7901089197000002E-05, 0.33325000000000005, 0.33325000000000005
DataValue, 0.33375000000000005, 0.000508397759404, -2.7524638426000003E-05, 0.33375000000000005, 0.33375000000000005
DataValue, 0.33425000000000005, 0.00046922249021, -2.7596826840000003E-05, 0.33425000000000005, 0.33425000000000005
DataValue, 0.33475000000000005, 0.000414364447352, -2.7415313525000003E-05, 0.33475000000000005, 0.33475000000000005
DataValue, 0.33525000000000005, 0.000394227041397, -2.7279493224000004E-05, 0.33525000000000005, 0.33525000000000005
DataValue, 0.33575000000000005, 0.000515354564413, -2.7027326723E-05, 0.33575000000000005, 0.33575000000000005
DataValue, 0.33625, 0.000512358965352, -2.6840067221000004E-05, 0.33625, 0.33625
DataValue, 0.33675, 0.000473987223813, -2.6915402486000002E-05, 0.33675, 0.33675
DataValue, 0.33725, 0.00050020037451800007, -2.6785215596000002E-05, 0.33725, 0.33725
DataValue, 0.33775, 0.00048473611241200005, -2.6869149224E-05, 0.33775, 0.33775
DataValue, 0.33825, 0.00048611761303600005, -2.6947267543000003E-05, 0.33825, 0.33825
DataValue, 0.33875, 0.00041235564276600003, -2.6580757549E-05, 0.33875, 0.33875
DataValue, 0.33925, 0.00040413011447500006, -2.6676645575000003E-05, 0.33925, 0.33925
DataValue, 0.33975, 0.00035309232771400003, -2.6633049856000002E-05, 0.33975, 0.33975
DataValue, 0.34025, 0.000382900208933, -2.6782867280000002E-05, 0.34025, 0.34025
DataValue, 0.34075, 0.000464781973278, -2.6852916562000003E-05, 0.34075, 0.34075
DataValue, 0.34125, 0.00046949033276200006, -2.6745199648E-05, 0.34125, 0.34125
DataValue, 0.34175, 0.000664126069751, -2.7095880796000003E-05, 0.34175, 0.34175
DataValue, 0.34225, 0.000600823957939, -2.6966967198000004E-05, 0.34225, 0.34225
DataValue, 0.34275, 0.000555093691219, -2.7208323445000002E-05, 0.34275, 0.34275
DataValue, 0.34325, 0.000520873465575, -2.7400128602000002E-05, 0.34325, 0.34325
DataValue, 0.34375, 0.00059351476375, -2.7685977329000003E-05, 0.34375, 0.34375
DataValue, 0.34425, 0.000558794126846, -2.7693904485000004E-05, 0.34425, 0.34425
DataValue, 0.34475, 0.000620228354819, -2.8104806916E-05, 0.34475, 0.34475
DataValue, 0.34525, 0.000614864460658, -2.8586304325E-05, 0.34525, 0.34525
DataValue, 0.34575, 0.00062230060575500009, -2.8670028769E-05, 0.34575, 0.34575
DataValue, 0.34625, 0.000568013463635, -2.8662478144E-05, 0.34625, 0.34625
DataValue, 0.34675, 0.00045649299863700004, -2.8863609259000002E-05, 0.34675, 0.34675
DataValue, 0.34725, 0.000573546509258, -2.9274106055000002E-05, 0.34725, 0.34725
DataValue, 0.34775, 0.000597356120124, -2.9277713111000003E-05, 0.34775, 0.34775
DataValue, 0.34825, 0.0006511146202680001, -2.9300252208000002E-05, 0.34825, 0.34825
DataValue, 0.34875, 0.000542011752259, -2.9468006687000003E-05, 0.34875, 0.34875
DataValue, 0.34925, 0.000509624136612, -2.9484563129000002E-05, 0.34925, 0.34925
DataValue, 0.34975, 0.00055203464580700007, -2.9220358556000003E-05, 0.34975, 0.34975
DataValue, 0.35025, 0.00060569442575800008, -2.9305118005000003E-05, 0.35025, 0.35025
DataValue, 0.35075, 0.00071960437344400011, -2.8977547117000004E-05, 0.35075, 0.35075
DataValue, 0.35125, 0.000585994042922, -2.8865915738000002E-05, 0.35125, 0.35125
DataValue, 0.35175, 0.000600443338044, -2.8742384529E-05, 0.35175, 0.35175
DataValue, 0.35225, 0.00070098234573400008, -2.8577411285000002E-05, 0.35225, 0.35225
DataValue, 0.35275, 0.000597419566475, -2.82912697E-05, 0.35275, 0.35275
DataValue, 0.35325, 0.00062378076836500009, -2.8196724088E-05, 0.35325, 0.35325
DataValue, 0.35375, 0.000509440898895, -2.8257420126000003E-05, 0.35375, 0.35375
DataValue, 0.35425, 0.000588397553656, -2.7974676414000004E-05, 0.35425, 0.35425
DataValue, 0.35475, 0.000515573075972, -2.7750516892000004E-05, 0.35475, 0.35475
DataValue, 0.35525, 0.00060011912137300006, -2.7583768315000004E-05, 0.35525, 0.35525
DataValue, 0.35575, 0.000690113636665, -2.7278121706000003E-05, 0.35575, 0.35575
DataValue, 0.35625, 0.000600443338044, -2.7191532354E-05, 0.35625, 0.35625
DataValue, 0.35675, 0.00069111451739400009, -2.6938458177E-05, 0.35675, 0.35675
DataValue, 0.35725, 0.00069127662573, -2.6948595405000002E-05, 0.35725, 0.35725
DataValue, 0.35775, 0.00066172960214300007, -2.6798526960000002E-05, 0.35775, 0.35775
DataValue, 0.35825, 0.00070374534698200008, -2.6651394364000002E-05, 0.35825, 0.35825
DataValue, 0.35875, 0.00071244314312900008, -2.6442923627E-05, 0.35875, 0.35875
DataValue, 0.35925, 0.000712499488145, -2.6450277801000003E-05, 0.35925, 0.35925
DataValue, 0.35975, 0.000639322563075, -2.6755698855000003E-05, 0.35975, 0.35975
DataValue, 0.36025, 0.00061173498397700009, -2.6707406505E-05, 0.36025, 0.36025
DataValue, 0.36075, 0.000679808843415, -2.6887801141E-05, 0.36075, 0.36075
DataValue, 0.36125, 0.00061523803742600006, -2.7116406272000003E-05, 0.36125, 0.36125
DataValue, 0.36175, 0.000615047756582, -2.7125815905E-05, 0.36175, 0.36175
DataValue, 0.36225, 0.000647308479529, -2.7196019801000004E-05, 0.36225, 0.36225
DataValue, 0.36275, 0.000506572192535, -2.7388496164E-05, 0.36275, 0.36275
DataValue, 0.36325, 0.00064419303089400008, -2.7582986149000002E-05, 0.36325, 0.36325
DataValue, 0.36375, 0.00064628641121100008, -2.7765003324000003E-05, 0.36375, 0.36375
DataValue, 0.36425, 0.000653440598398, -2.7966525522E-05, 0.36425, 0.36425
DataValue, 0.36475, 0.000665267871227, -2.8078407922000003E-05, 0.36475, 0.36475
DataValue, 0.36525, 0.000662723381538, -2.8284628570000004E-05, 0.36525, 0.36525
DataValue, 0.36575, 0.00053772632964000006, -2.8364507671000004E-05, 0.36575, 0.36575
DataValue, 0.36625, 0.00052936683641700009, -2.8668182495E-05, 0.36625, 0.36625
DataValue, 0.36675, 0.000650459085591, -2.8844202461000002E-05, 0.36675, 0.36675
DataValue, 0.36725, 0.00068452424602600008, -2.8872529583000002E-05, 0.36725, 0.36725
DataValue, 0.36775, 0.000621165789198, -2.9003791497E-05, 0.36775, 0.36775
DataValue, 0.36825, 0.000542455818504, -2.9031769373000002E-05, 0.36825, 0.36825
DataValue, 0.36875, 0.000530367717147, -2.9183069273000003E-05, 0.36875, 0.36875
DataValue, 0.36925, 0.000653130467981, -2.9045149859000003E-05, 0.36925, 0.36925
DataValue, 0.36975, 0.00072078849189000007, -2.8920207114000003E-05, 0.36975, 0.36975
DataValue, 0.37025, 0.000749010476284, -2.8937432944E-05, 0.37025, 0.37025
DataValue, 0.37075, 0.00066096836235400005, -2.9026539778000003E-05, 0.37075, 0.37075
DataValue, 0.37125, 0.000771600694861, -2.8694090361000004E-05, 0.37125, 0.37125
DataValue, 0.37175, 0.000697479292285, -2.8791979275E-05, 0.37175, 0.37175
DataValue, 0.37225, 0.00060565216699600007, -2.8640484743000002E-05, 0.37225, 0.37225
DataValue, 0.37275, 0.00049595721066000007, -2.8312955692000004E-05, 0.37275, 0.37275
DataValue, 0.37325, 0.00055333157070000007, -2.8054862923000003E-05, 0.37325, 0.37325
DataValue, 0.37375, 0.000575851358008, -2.7934785976000003E-05, 0.37375, 0.37375
DataValue, 0.37425, 0.000576732389163, -2.7604699426000002E-05, 0.37425, 0.37425
DataValue, 0.37475, 0.000536457577255, -2.729436892E-05, 0.37475, 0.37475
DataValue, 0.37525000000000003, 0.00061138253659, -2.7146299544E-05, 0.37525000000000003, 0.37525000000000003
DataValue, 0.37575000000000003, 0.000663350743707, -2.7062702429000002E-05, 0.37575000000000003, 0.37575000000000003
DataValue, 0.37625000000000003, 0.00061493495013600007, -2.7099475119000003E-05, 0.37625000000000003, 0.37625000000000003
DataValue, 0.37675000000000003, 0.0006348961615, -2.6978977985000002E-05, 0.37675000000000003, 0.37675000000000003
DataValue, 0.37725000000000003, 0.000672668742482, -2.6837871701E-05, 0.37725000000000003, 0.37725000000000003
DataValue, 0.37775000000000003, 0.00074001663597300009, -2.6608888220000002E-05, 0.37775000000000003, 0.37775000000000003
DataValue, 0.37825000000000003, 0.00074399198638300007, -2.658045014E-05, 0.37825000000000003, 0.37825000000000003
DataValue, 0.37875000000000003, 0.000676115450915, -2.6516971047000003E-05, 0.37875000000000003, 0.37875000000000003
DataValue, 0.37925000000000003, 0.000700559467077, -2.6361449272E-05, 0.37925000000000003, 0.37925000000000003
DataValue, 0.37975000000000003, 0.00068510929122600006, -2.6508036171000004E-05, 0.37975000000000003, 0.37975000000000003
DataValue, 0.38025000000000003, 0.0007126404671, -2.6723708288000003E-05, 0.38025000000000003, 0.38025000000000003
DataValue, 0.38075000000000003, 0.00065697892569, -2.6836529287000003E-05, 0.38075000000000003, 0.38075000000000003
DataValue, 0.38125000000000003, 0.000629736692645, -2.6954816349000002E-05, 0.38125000000000003, 0.38125000000000003
DataValue, 0.38175000000000003, 0.00064200098859100007, -2.6998357498000002E-05, 0.38175000000000003, 0.38175000000000003
DataValue, 0.38225000000000003, 0.000637349032331, -2.6954649002000002E-05, 0.38225000000000003, 0.38225000000000003
DataValue, 0.38275000000000003, 0.000626106746495, -2.7348940421E-05, 0.38275000000000003, 0.38275000000000003
DataValue, 0.38325000000000004, 0.00069436384365, -2.7605859941E-05, 0.38325000000000004, 0.38325000000000004
DataValue, 0.38375000000000004, 0.000607935828157, -2.7739974030000004E-05, 0.38375000000000004, 0.38375000000000004
DataValue, 0.38425000000000004, 0.00068859121529400008, -2.7660822525E-05, 0.38425000000000004, 0.38425000000000004
DataValue, 0.38475000000000004, 0.00071982986992200006, -2.7912527003000002E-05, 0.38475000000000004, 0.38475000000000004
DataValue, 0.38525000000000004, 0.000710772641469, -2.8312453651E-05, 0.38525000000000004, 0.38525000000000004
DataValue, 0.38575000000000004, 0.00067256303736900008, -2.845565723E-05, 0.38575000000000004, 0.38575000000000004
DataValue, 0.38625000000000004, 0.0007036114111540001, -2.8725564334000002E-05, 0.38625000000000004, 0.38625000000000004
DataValue, 0.38675000000000004, 0.000675100483932, -2.8951653803E-05, 0.38675000000000004, 0.38675000000000004
DataValue, 0.38725000000000004, 0.00063479039818, -2.9212333175000004E-05, 0.38725000000000004, 0.38725000000000004
DataValue, 0.38775000000000004, 0.000634938420262, -2.9178832847E-05, 0.38775000000000004, 0.38775000000000004
DataValue, 0.38825000000000004, 0.0007131620659490001, -2.9014781830000002E-05, 0.38825000000000004, 0.38825000000000004
DataValue, 0.38875000000000004, 0.00065852253465000009, -2.9246784834000002E-05, 0.38875000000000004, 0.38875000000000004
DataValue, 0.38925000000000004, 0.00067684141686200007, -2.9228105632000002E-05, 0.38925000000000004, 0.38925000000000004
DataValue, 0.38975000000000004, 0.00076038663974000006, -2.8954658774000002E-05, 0.38975000000000004, 0.38975000000000004
DataValue, 0.39025000000000004, 0.0007893134607000001, -2.9002072552000003E-05, 0.39025000000000004, 0.39025000000000004
DataValue, 0.39075000000000004, 0.00079596013529200011, -2.9088732845000003E-05, 0.39075000000000004, 0.39075000000000004
DataValue, 0.39125000000000004, 0.000716256326996, -2.8806492992E-05, 0.39125000000000004, 0.39125000000000004
DataValue, 0.39175000000000004, 0.00076610292308000008, -2.8809834475000003E-05, 0.39175000000000004, 0.39175000000000004
DataValue, 0.39225000000000004, 0.000626910245046, -2.8488653697000002E-05, 0.39225000000000004, 0.39225000000000004
DataValue, 0.39275000000000004, 0.000750927603804, -2.8491687772000002E-05, 0.39275000000000004, 0.39275000000000004
DataValue, 0.39325000000000004, 0.000709221989382, -2.8076912713000004E-05, 0.39325000000000004, 0.39325000000000004
DataValue, 0.39375000000000004, 0.00077948084799600006, -2.7877598768000003E-05, 0.39375000000000004, 0.39375000000000004
DataValue, 0.39425000000000004, 0.00074363953899600011, -2.7615129511000003E-05, 0.39425000000000004, 0.39425000000000004
DataValue, 0.39475000000000005, 0.0007723267190160001, -2.7371243050000003E-05, 0.39475000000000005, 0.39475000000000005
