
SetupTitle, (c2) Transfer curve in LGP
PrimitiveTest, I/V Sweep
TestParameter, Context.MainFrame, B1500A
TestParameter, Channel.UnitType, SMU, SMU
TestParameter, Channel.Unit, SMU1:HR/AS, SMU2:HR/AS
TestParameter, Channel.IName, Ig, Id
TestParameter, Channel.VName, Vg, Vd
TestParameter, Channel.Mode, V, V
TestParameter, Channel.Func, VAR1, VAR2
TestParameter, Channel.Index, 
TestParameter, Channel.Time, 
TestParameter, Measurement.Port.Unit, SMU1:HR/AS, SMU2:HR/AS
TestParameter, Measurement.Port.SeriesResistor, NONE, NONE
TestParameter, Measurement.Port.Filter, ON, ON
TestParameter, Measurement.Port.OutputVoltageComparison, 0, 0
TestParameter, Measurement.Primary.Locus, Double
TestParameter, Measurement.Primary.Scale, LINEAR
TestParameter, Measurement.Primary.Start, 0.1
TestParameter, Measurement.Primary.Stop, -0.4
TestParameter, Measurement.Primary.Step, -0.01
TestParameter, Measurement.Primary.Compliance, 0.1
TestParameter, Measurement.Primary.PowerCompliance, 1
TestParameter, Measurement.Aborting.Condition, SKIP AT ANY ABNORMAL
TestParameter, Measurement.PostOutput.Value, START
TestParameter, Measurement.PostOutput.Retention, OFF
TestParameter, Measurement.Secondary.Start, -0.25
TestParameter, Measurement.Secondary.Count, 5
TestParameter, Measurement.Secondary.Step, 0
TestParameter, Measurement.Secondary.Compliance, 0.1
TestParameter, Measurement.Secondary.PowerCompliance, 1
TestParameter, Measurement.Bias.Source, 0.1, -0.25
TestParameter, Measurement.Bias.Compliance, 0.1, 0.1
TestParameter, Measurement.Monitor.Unit, SMU1:HR/AS, SMU2:HR/AS
TestParameter, Measurement.Monitor.Adc, HR ADC, HR ADC
TestParameter, Measurement.Monitor.Measurement, Compliance Side, Compliance Side
TestParameter, Measurement.Monitor.RangingMode, LIMITED, LIMITED
TestParameter, Measurement.Monitor.RangeBoundary, 1nA, 1nA
TestParameter, Measurement.Monitor.RangeRating, BY FULL RANGE, BY FULL RANGE
TestParameter, Measurement.Monitor.RangeRatingCoeff, 50, 50
TestParameter, Measurement.Timing.Hold, 0
TestParameter, Measurement.Timing.Delay, 0
TestParameter, Measurement.Adc.HighSpeed.Mode, AUTO
TestParameter, Measurement.Adc.HighSpeed.Coeff, 1
TestParameter, Measurement.Adc.HighResolution.AutoZero, OFF
TestParameter, Measurement.Adc.HighResolution.Mode, AUTO
TestParameter, Measurement.Adc.HighResolution.Coeff, 6
TestParameter, Measurement.WaitTime.Source.Coeff, 1
TestParameter, Measurement.WaitTime.Source.Offset, 0
TestParameter, Measurement.WaitTime.Monitor.Coeff, 1
TestParameter, Measurement.WaitTime.Monitor.Offset, 0
TestParameter, Output.Graph.Enabled, true
TestParameter, Output.Graph.AutoScaling, false
TestParameter, Output.Graph.XAxis.Data, Vg
TestParameter, Output.Graph.XAxis.Scale, Linear
TestParameter, Output.Graph.XAxis.Left, 0.60000000000000009
TestParameter, Output.Graph.XAxis.Right, -0.60000000000000009
TestParameter, Output.Graph.XAxis.RunTimeAutoScale, true
TestParameter, Output.Graph.YAxis.Data, Id
TestParameter, Output.Graph.YAxis.Scale, Linear
TestParameter, Output.Graph.YAxis.Bottom, -0.1
TestParameter, Output.Graph.YAxis.Top, 0.1
TestParameter, Output.Graph.YAxis.Group, 
TestParameter, Output.Graph.YAxis.RunTimeAutoScale, true
TestParameter, Output.List.Data, Vd, Vg, Id
TestParameter, AutoAnalysis.Interpolation, false
TestParameter, AutoAnalysis.Var2StepCount, 1
TestParameter, AutoAnalysis.Var2StepScript, 
TestParameter, AutoAnalysis.Line1.Enabled, false
TestParameter, AutoAnalysis.Line1.Type, 1
TestParameter, AutoAnalysis.Line1.Fix, True
TestParameter, AutoAnalysis.Line1.YAxis, 0
TestParameter, AutoAnalysis.Line1.Point1.Type, 0
TestParameter, AutoAnalysis.Line1.Point1.XY.X, 
TestParameter, AutoAnalysis.Line1.Point1.XY.Y, 
TestParameter, AutoAnalysis.Line1.Point1.Data.Var, 
TestParameter, AutoAnalysis.Line1.Point1.Data.Condition, 
TestParameter, AutoAnalysis.Line1.Point1.Data.Start, false
TestParameter, AutoAnalysis.Line1.Point1.Data.StartVar, 
TestParameter, AutoAnalysis.Line1.Point1.Data.StartCondition, 
TestParameter, AutoAnalysis.Line1.Point2.Type, 0
TestParameter, AutoAnalysis.Line1.Point2.XY.X, 
TestParameter, AutoAnalysis.Line1.Point2.XY.Y, 
TestParameter, AutoAnalysis.Line1.Point2.Data.Var, 
TestParameter, AutoAnalysis.Line1.Point2.Data.Condition, 
TestParameter, AutoAnalysis.Line1.Point2.Data.Start, false
TestParameter, AutoAnalysis.Line1.Point2.Data.StartVar, 
TestParameter, AutoAnalysis.Line1.Point2.Data.StartCondition, 
TestParameter, AutoAnalysis.Line1.GradientExpr, 0
TestParameter, AutoAnalysis.Line2.Enabled, false
TestParameter, AutoAnalysis.Line2.Type, 1
TestParameter, AutoAnalysis.Line2.Fix, True
TestParameter, AutoAnalysis.Line2.YAxis, 0
TestParameter, AutoAnalysis.Line2.Point1.Type, 0
TestParameter, AutoAnalysis.Line2.Point1.XY.X, 
TestParameter, AutoAnalysis.Line2.Point1.XY.Y, 
TestParameter, AutoAnalysis.Line2.Point1.Data.Var, 
TestParameter, AutoAnalysis.Line2.Point1.Data.Condition, 
TestParameter, AutoAnalysis.Line2.Point1.Data.Start, false
TestParameter, AutoAnalysis.Line2.Point1.Data.StartVar, 
TestParameter, AutoAnalysis.Line2.Point1.Data.StartCondition, 
TestParameter, AutoAnalysis.Line2.Point2.Type, 0
TestParameter, AutoAnalysis.Line2.Point2.XY.X, 
TestParameter, AutoAnalysis.Line2.Point2.XY.Y, 
TestParameter, AutoAnalysis.Line2.Point2.Data.Var, 
TestParameter, AutoAnalysis.Line2.Point2.Data.Condition, 
TestParameter, AutoAnalysis.Line2.Point2.Data.Start, false
TestParameter, AutoAnalysis.Line2.Point2.Data.StartVar, 
TestParameter, AutoAnalysis.Line2.Point2.Data.StartCondition, 
TestParameter, AutoAnalysis.Line2.GradientExpr, 0
TestParameter, AutoAnalysis.Marker.Enabled, false
TestParameter, AutoAnalysis.Marker.Data.Var, 
TestParameter, AutoAnalysis.Marker.Data.Condition, 
TestParameter, AutoAnalysis.Marker.Data.Start, false
TestParameter, AutoAnalysis.Marker.Data.StartVar, 
TestParameter, AutoAnalysis.Marker.Data.StartCondition, 
MetaData, TestRecord.EntryPoint, true
MetaData, TestRecord.RecordTime, 12/22/2024 05:01:01
MetaData, TestRecord.TestTarget, 
MetaData, TestRecord.IterationIndex, 1
MetaData, TestRecord.Preservation, true
MetaData, TestRecord.Flag, 
MetaData, TestRecord.Remarks, 0.625wt-s21c1
MetaData, TestRecord.LinkKey, d34b9046-4dd8-439a-82a4-89c1e50b1bcf
MetaData, TestRecord.Parameters, 
Dimension1, 102, 102, 102
Dimension2, 5, 5, 5
DataName, Vg, Vd, Id
DataValue, 0.1, -0.25, -2.7693000000000003E-06
DataValue, 0.090000000000000011, -0.25, -3.2478000000000005E-06
DataValue, 0.08, -0.25, -3.8188000000000006E-06
DataValue, 0.07, -0.25, -4.3985E-06
DataValue, 0.060000000000000005, -0.25, -5.1398E-06
DataValue, 0.05, -0.25, -5.9804E-06
DataValue, 0.04, -0.25, -6.8556000000000009E-06
DataValue, 0.030000000000000002, -0.25, -7.9096000000000013E-06
DataValue, 0.02, -0.25, -9.0958E-06
DataValue, 0.01, -0.25, -1.0322200000000001E-05
DataValue, 0, -0.25, -1.2006E-05
DataValue, -0.01, -0.25, -1.3462000000000001E-05
DataValue, -0.02, -0.25, -1.5146E-05
DataValue, -0.030000000000000002, -0.25, -1.7078E-05
DataValue, -0.04, -0.25, -1.9084000000000002E-05
DataValue, -0.05, -0.25, -2.1272000000000002E-05
DataValue, -0.060000000000000005, -0.25, -2.3722E-05
DataValue, -0.07, -0.25, -2.6352E-05
DataValue, -0.08, -0.25, -2.9162E-05
DataValue, -0.090000000000000011, -0.25, -3.2194000000000004E-05
DataValue, -0.1, -0.25, -3.5526E-05
DataValue, -0.11, -0.25, -3.9008E-05
DataValue, -0.12000000000000001, -0.25, -4.2754000000000004E-05
DataValue, -0.13, -0.25, -4.6786E-05
DataValue, -0.14, -0.25, -5.1024000000000005E-05
DataValue, -0.15, -0.25, -5.5434000000000005E-05
DataValue, -0.16, -0.25, -6.0214E-05
DataValue, -0.17, -0.25, -6.5156E-05
DataValue, -0.18000000000000002, -0.25, -7.0326E-05
DataValue, -0.19, -0.25, -7.579E-05
DataValue, -0.2, -0.25, -8.1526E-05
DataValue, -0.21000000000000002, -0.25, -8.7336E-05
DataValue, -0.22, -0.25, -9.3478E-05
DataValue, -0.23, -0.25, -9.9906E-05
DataValue, -0.24000000000000002, -0.25, -0.000106336
DataValue, -0.25, -0.25, -0.00011299400000000001
DataValue, -0.26, -0.25, -0.00012188
DataValue, -0.27, -0.25, -0.00012858000000000002
DataValue, -0.28, -0.25, -0.00013554000000000002
DataValue, -0.29000000000000004, -0.25, -0.00014244
DataValue, -0.3, -0.25, -0.00014962000000000002
DataValue, -0.31, -0.25, -0.00015682
DataValue, -0.32, -0.25, -0.00016406
DataValue, -0.33, -0.25, -0.00017134000000000002
DataValue, -0.34, -0.25, -0.0001786
DataValue, -0.35000000000000003, -0.25, -0.00018564000000000002
DataValue, -0.36000000000000004, -0.25, -0.00019276000000000002
DataValue, -0.37, -0.25, -0.00019982000000000002
DataValue, -0.38, -0.25, -0.00020674000000000002
DataValue, -0.39, -0.25, -0.00021354000000000002
DataValue, -0.4, -0.25, -0.00022008000000000002
DataValue, -0.4, -0.25, -0.00022048
DataValue, -0.39, -0.25, -0.00021518
DataValue, -0.38, -0.25, -0.00020942
DataValue, -0.37, -0.25, -0.0002034
DataValue, -0.36000000000000004, -0.25, -0.00019704000000000002
DataValue, -0.35000000000000003, -0.25, -0.00019074
DataValue, -0.34, -0.25, -0.0001841
DataValue, -0.33, -0.25, -0.00017732000000000002
DataValue, -0.32, -0.25, -0.00017052000000000001
DataValue, -0.31, -0.25, -0.00016368
DataValue, -0.3, -0.25, -0.00015664000000000002
DataValue, -0.29000000000000004, -0.25, -0.00014968000000000002
DataValue, -0.28, -0.25, -0.00014274
DataValue, -0.27, -0.25, -0.00013566
DataValue, -0.26, -0.25, -0.00012878
DataValue, -0.25, -0.25, -0.00012206000000000001
DataValue, -0.24000000000000002, -0.25, -0.00011524
DataValue, -0.23, -0.25, -0.00010862
DataValue, -0.22, -0.25, -0.00010214000000000001
DataValue, -0.21000000000000002, -0.25, -9.5334E-05
DataValue, -0.2, -0.25, -8.9346000000000008E-05
DataValue, -0.19, -0.25, -8.3488E-05
DataValue, -0.18000000000000002, -0.25, -7.7656E-05
DataValue, -0.17, -0.25, -7.2146E-05
DataValue, -0.16, -0.25, -6.6846E-05
DataValue, -0.15, -0.25, -6.174E-05
DataValue, -0.14, -0.25, -5.6828E-05
DataValue, -0.13, -0.25, -5.2264E-05
DataValue, -0.12000000000000001, -0.25, -4.7834E-05
DataValue, -0.11, -0.25, -4.3592E-05
DataValue, -0.1, -0.25, -3.9776E-05
DataValue, -0.090000000000000011, -0.25, -3.613E-05
DataValue, -0.08, -0.25, -3.2668E-05
DataValue, -0.07, -0.25, -2.9514000000000002E-05
DataValue, -0.060000000000000005, -0.25, -2.6566E-05
DataValue, -0.05, -0.25, -2.3788E-05
DataValue, -0.04, -0.25, -2.129E-05
DataValue, -0.030000000000000002, -0.25, -1.9014E-05
DataValue, -0.02, -0.25, -1.6864E-05
DataValue, -0.01, -0.25, -1.4864E-05
DataValue, 0, -0.25, -1.312E-05
DataValue, 0.01, -0.25, -1.1522E-05
DataValue, 0.02, -0.25, -1.002E-05
DataValue, 0.030000000000000002, -0.25, -8.6419000000000011E-06
DataValue, 0.04, -0.25, -7.463300000000001E-06
DataValue, 0.05, -0.25, -6.417200000000001E-06
DataValue, 0.060000000000000005, -0.25, -5.5413000000000006E-06
DataValue, 0.07, -0.25, -4.6936E-06
DataValue, 0.08, -0.25, -3.9358000000000005E-06
DataValue, 0.090000000000000011, -0.25, -3.3347000000000004E-06
DataValue, 0.1, -0.25, -2.7903E-06
DataValue, 0.1, -0.25, -2.2194000000000003E-06
DataValue, 0.090000000000000011, -0.25, -2.6513000000000003E-06
DataValue, 0.08, -0.25, -3.0762000000000003E-06
DataValue, 0.07, -0.25, -3.6367000000000003E-06
DataValue, 0.060000000000000005, -0.25, -4.2923E-06
DataValue, 0.05, -0.25, -4.9650000000000007E-06
DataValue, 0.04, -0.25, -5.7895E-06
DataValue, 0.030000000000000002, -0.25, -6.7508000000000007E-06
DataValue, 0.02, -0.25, -7.7423E-06
DataValue, 0.01, -0.25, -8.9117000000000014E-06
DataValue, 0, -0.25, -1.02418E-05
DataValue, -0.01, -0.25, -1.199E-05
DataValue, -0.02, -0.25, -1.3604E-05
DataValue, -0.030000000000000002, -0.25, -1.532E-05
DataValue, -0.04, -0.25, -1.7214E-05
DataValue, -0.05, -0.25, -1.9364E-05
DataValue, -0.060000000000000005, -0.25, -2.1700000000000002E-05
DataValue, -0.07, -0.25, -2.4192E-05
DataValue, -0.08, -0.25, -2.6962E-05
DataValue, -0.090000000000000011, -0.25, -2.9982000000000002E-05
DataValue, -0.1, -0.25, -3.3126E-05
DataValue, -0.11, -0.25, -3.6592E-05
DataValue, -0.12000000000000001, -0.25, -4.0322000000000005E-05
DataValue, -0.13, -0.25, -4.4244E-05
DataValue, -0.14, -0.25, -4.8432E-05
DataValue, -0.15, -0.25, -5.2942E-05
DataValue, -0.16, -0.25, -5.7626E-05
DataValue, -0.17, -0.25, -6.2486E-05
DataValue, -0.18000000000000002, -0.25, -6.776E-05
DataValue, -0.19, -0.25, -7.3328E-05
DataValue, -0.2, -0.25, -7.9006000000000009E-05
DataValue, -0.21000000000000002, -0.25, -8.5004E-05
DataValue, -0.22, -0.25, -9.1254E-05
DataValue, -0.23, -0.25, -9.7696000000000008E-05
DataValue, -0.24000000000000002, -0.25, -0.000104234
DataValue, -0.25, -0.25, -0.000111098
DataValue, -0.26, -0.25, -0.00012042
DataValue, -0.27, -0.25, -0.00012704
DataValue, -0.28, -0.25, -0.00013398000000000002
DataValue, -0.29000000000000004, -0.25, -0.00014108
DataValue, -0.3, -0.25, -0.00014826000000000002
DataValue, -0.31, -0.25, -0.00015532
DataValue, -0.32, -0.25, -0.00016266000000000002
DataValue, -0.33, -0.25, -0.00016992
DataValue, -0.34, -0.25, -0.00017712
DataValue, -0.35000000000000003, -0.25, -0.00018442
DataValue, -0.36000000000000004, -0.25, -0.00019150000000000002
DataValue, -0.37, -0.25, -0.00019848
DataValue, -0.38, -0.25, -0.00020532000000000002
DataValue, -0.39, -0.25, -0.00021198
DataValue, -0.4, -0.25, -0.0002187
DataValue, -0.4, -0.25, -0.0002189
DataValue, -0.39, -0.25, -0.00021366
DataValue, -0.38, -0.25, -0.00020802
DataValue, -0.37, -0.25, -0.0002021
DataValue, -0.36000000000000004, -0.25, -0.00019580000000000002
DataValue, -0.35000000000000003, -0.25, -0.00018948
DataValue, -0.34, -0.25, -0.0001831
DataValue, -0.33, -0.25, -0.00017624
DataValue, -0.32, -0.25, -0.00016944
DataValue, -0.31, -0.25, -0.00016254
DataValue, -0.3, -0.25, -0.00015568
DataValue, -0.29000000000000004, -0.25, -0.00014868000000000002
DataValue, -0.28, -0.25, -0.00014154
DataValue, -0.27, -0.25, -0.00013474
DataValue, -0.26, -0.25, -0.00012784
DataValue, -0.25, -0.25, -0.00012072000000000001
DataValue, -0.24000000000000002, -0.25, -0.00011412000000000001
DataValue, -0.23, -0.25, -0.00010742000000000001
DataValue, -0.22, -0.25, -0.0001009
DataValue, -0.21000000000000002, -0.25, -9.4262E-05
DataValue, -0.2, -0.25, -8.8168E-05
DataValue, -0.19, -0.25, -8.2286E-05
DataValue, -0.18000000000000002, -0.25, -7.6598E-05
DataValue, -0.17, -0.25, -7.0958000000000007E-05
DataValue, -0.16, -0.25, -6.5622E-05
DataValue, -0.15, -0.25, -6.0554E-05
DataValue, -0.14, -0.25, -5.5646E-05
DataValue, -0.13, -0.25, -5.1028E-05
DataValue, -0.12000000000000001, -0.25, -4.6694000000000004E-05
DataValue, -0.11, -0.25, -4.2534E-05
DataValue, -0.1, -0.25, -3.8646E-05
DataValue, -0.090000000000000011, -0.25, -3.503E-05
DataValue, -0.08, -0.25, -3.1658E-05
DataValue, -0.07, -0.25, -2.841E-05
DataValue, -0.060000000000000005, -0.25, -2.5496E-05
DataValue, -0.05, -0.25, -2.284E-05
DataValue, -0.04, -0.25, -2.0292E-05
DataValue, -0.030000000000000002, -0.25, -1.7992E-05
DataValue, -0.02, -0.25, -1.596E-05
DataValue, -0.01, -0.25, -1.4038E-05
DataValue, 0, -0.25, -1.2282E-05
DataValue, 0.01, -0.25, -1.078E-05
DataValue, 0.02, -0.25, -9.2295E-06
DataValue, 0.030000000000000002, -0.25, -8.0592E-06
DataValue, 0.04, -0.25, -6.9625000000000007E-06
DataValue, 0.05, -0.25, -5.9307000000000007E-06
DataValue, 0.060000000000000005, -0.25, -5.1063000000000006E-06
DataValue, 0.07, -0.25, -4.3280000000000007E-06
DataValue, 0.08, -0.25, -3.6146000000000005E-06
DataValue, 0.090000000000000011, -0.25, -3.0718000000000004E-06
DataValue, 0.1, -0.25, -2.566E-06
DataValue, 0.1, -0.25, -2.1611000000000004E-06
DataValue, 0.090000000000000011, -0.25, -2.5794000000000002E-06
DataValue, 0.08, -0.25, -2.9980000000000003E-06
DataValue, 0.07, -0.25, -3.5374000000000002E-06
DataValue, 0.060000000000000005, -0.25, -4.1865000000000005E-06
DataValue, 0.05, -0.25, -4.8383000000000008E-06
DataValue, 0.04, -0.25, -5.6580000000000007E-06
DataValue, 0.030000000000000002, -0.25, -6.591800000000001E-06
DataValue, 0.02, -0.25, -7.5808000000000012E-06
DataValue, 0.01, -0.25, -8.7472000000000016E-06
DataValue, 0, -0.25, -1.00533E-05
DataValue, -0.01, -0.25, -1.1435500000000001E-05
DataValue, -0.02, -0.25, -1.3510000000000001E-05
DataValue, -0.030000000000000002, -0.25, -1.5198000000000001E-05
DataValue, -0.04, -0.25, -1.706E-05
DataValue, -0.05, -0.25, -1.9194E-05
DataValue, -0.060000000000000005, -0.25, -2.149E-05
DataValue, -0.07, -0.25, -2.3946E-05
DataValue, -0.08, -0.25, -2.6680000000000002E-05
DataValue, -0.090000000000000011, -0.25, -2.9704000000000002E-05
DataValue, -0.1, -0.25, -3.287E-05
DataValue, -0.11, -0.25, -3.6344E-05
DataValue, -0.12000000000000001, -0.25, -4.006E-05
DataValue, -0.13, -0.25, -4.3968E-05
DataValue, -0.14, -0.25, -4.8112E-05
DataValue, -0.15, -0.25, -5.2668000000000005E-05
DataValue, -0.16, -0.25, -5.7336E-05
DataValue, -0.17, -0.25, -6.2262000000000008E-05
DataValue, -0.18000000000000002, -0.25, -6.7608000000000007E-05
DataValue, -0.19, -0.25, -7.3078000000000007E-05
DataValue, -0.2, -0.25, -7.878E-05
DataValue, -0.21000000000000002, -0.25, -8.4836E-05
DataValue, -0.22, -0.25, -9.1054E-05
DataValue, -0.23, -0.25, -9.7344000000000009E-05
DataValue, -0.24000000000000002, -0.25, -0.000104022
DataValue, -0.25, -0.25, -0.000110896
DataValue, -0.26, -0.25, -0.00012022000000000001
DataValue, -0.27, -0.25, -0.00012692
DataValue, -0.28, -0.25, -0.00013388
DataValue, -0.29000000000000004, -0.25, -0.00014094000000000002
DataValue, -0.3, -0.25, -0.00014804
DataValue, -0.31, -0.25, -0.00015534000000000001
DataValue, -0.32, -0.25, -0.00016264
DataValue, -0.33, -0.25, -0.00016986
DataValue, -0.34, -0.25, -0.00017706000000000002
DataValue, -0.35000000000000003, -0.25, -0.00018426
DataValue, -0.36000000000000004, -0.25, -0.00019150000000000002
DataValue, -0.37, -0.25, -0.00019848
DataValue, -0.38, -0.25, -0.00020538000000000002
DataValue, -0.39, -0.25, -0.00021214
DataValue, -0.4, -0.25, -0.00021848
DataValue, -0.4, -0.25, -0.000219
DataValue, -0.39, -0.25, -0.00021384000000000003
DataValue, -0.38, -0.25, -0.00020812
DataValue, -0.37, -0.25, -0.00020206
DataValue, -0.36000000000000004, -0.25, -0.00019602
DataValue, -0.35000000000000003, -0.25, -0.00018968
DataValue, -0.34, -0.25, -0.00018312000000000002
DataValue, -0.33, -0.25, -0.00017652000000000002
DataValue, -0.32, -0.25, -0.00016972000000000002
DataValue, -0.31, -0.25, -0.0001628
DataValue, -0.3, -0.25, -0.00015586000000000002
DataValue, -0.29000000000000004, -0.25, -0.00014890000000000001
DataValue, -0.28, -0.25, -0.00014188000000000002
DataValue, -0.27, -0.25, -0.00013492000000000002
DataValue, -0.26, -0.25, -0.00012808
DataValue, -0.25, -0.25, -0.0001212
DataValue, -0.24000000000000002, -0.25, -0.00011436000000000001
DataValue, -0.23, -0.25, -0.00010774000000000001
DataValue, -0.22, -0.25, -0.00010122000000000001
DataValue, -0.21000000000000002, -0.25, -9.4364E-05
DataValue, -0.2, -0.25, -8.8298E-05
DataValue, -0.19, -0.25, -8.2378E-05
DataValue, -0.18000000000000002, -0.25, -7.6546000000000009E-05
DataValue, -0.17, -0.25, -7.1086E-05
DataValue, -0.16, -0.25, -6.5714E-05
DataValue, -0.15, -0.25, -6.0554E-05
DataValue, -0.14, -0.25, -5.568E-05
DataValue, -0.13, -0.25, -5.1096E-05
DataValue, -0.12000000000000001, -0.25, -4.6578E-05
DataValue, -0.11, -0.25, -4.244E-05
DataValue, -0.1, -0.25, -3.86E-05
DataValue, -0.090000000000000011, -0.25, -3.4904E-05
DataValue, -0.08, -0.25, -3.1476E-05
DataValue, -0.07, -0.25, -2.8250000000000002E-05
DataValue, -0.060000000000000005, -0.25, -2.5408E-05
DataValue, -0.05, -0.25, -2.2658000000000002E-05
DataValue, -0.04, -0.25, -2.0116000000000002E-05
DataValue, -0.030000000000000002, -0.25, -1.7908000000000002E-05
DataValue, -0.02, -0.25, -1.5842000000000002E-05
DataValue, -0.01, -0.25, -1.3866E-05
DataValue, 0, -0.25, -1.2168000000000001E-05
DataValue, 0.01, -0.25, -1.0676E-05
DataValue, 0.02, -0.25, -9.1196000000000016E-06
DataValue, 0.030000000000000002, -0.25, -7.9471E-06
DataValue, 0.04, -0.25, -6.8553000000000011E-06
DataValue, 0.05, -0.25, -5.847400000000001E-06
DataValue, 0.060000000000000005, -0.25, -5.0221000000000006E-06
DataValue, 0.07, -0.25, -4.2764E-06
