
SetupTitle, (c1) Output curve in LGP
PrimitiveTest, I/V Sweep
TestParameter, Context.MainFrame, B1500A
TestParameter, Channel.UnitType, SMU, SMU
TestParameter, Channel.Unit, SMU1:HR/AS, SMU2:HR/AS
TestParameter, Channel.IName, Ig, Id
TestParameter, Channel.VName, Vg, Vd
TestParameter, Channel.Mode, V, V
TestParameter, Channel.Func, VAR2, VAR1
TestParameter, Channel.Index, 
TestParameter, Channel.Time, 
TestParameter, Measurement.Port.Unit, SMU1:HR/AS, SMU2:HR/AS
TestParameter, Measurement.Port.SeriesResistor, NONE, NONE
TestParameter, Measurement.Port.Filter, ON, ON
TestParameter, Measurement.Port.OutputVoltageComparison, 0, 0
TestParameter, Measurement.Primary.Locus, Double
TestParameter, Measurement.Primary.Scale, LINEAR
TestParameter, Measurement.Primary.Start, 0.1
TestParameter, Measurement.Primary.Stop, -0.5
TestParameter, Measurement.Primary.Step, -0.012
TestParameter, Measurement.Primary.Compliance, 0.1
TestParameter, Measurement.Primary.PowerCompliance, 0
TestParameter, Measurement.Aborting.Condition, CONTINUE AT ANY
TestParameter, Measurement.PostOutput.Value, START
TestParameter, Measurement.PostOutput.Retention, OFF
TestParameter, Measurement.Secondary.Start, 0.1
TestParameter, Measurement.Secondary.Count, 6
TestParameter, Measurement.Secondary.Step, -0.1
TestParameter, Measurement.Secondary.Compliance, 0.0001
TestParameter, Measurement.Secondary.PowerCompliance, 0
TestParameter, Measurement.Bias.Source, 0.1, 0.1
TestParameter, Measurement.Bias.Compliance, 0.0001, 0.1
TestParameter, Measurement.Monitor.Unit, SMU1:HR/AS, SMU2:HR/AS
TestParameter, Measurement.Monitor.Adc, HR ADC, HR ADC
TestParameter, Measurement.Monitor.Measurement, Compliance Side, Compliance Side
TestParameter, Measurement.Monitor.RangingMode, LIMITED, LIMITED
TestParameter, Measurement.Monitor.RangeBoundary, 1nA, 1nA
TestParameter, Measurement.Monitor.RangeRating, BY FULL RANGE, BY FULL RANGE
TestParameter, Measurement.Monitor.RangeRatingCoeff, 50, 50
TestParameter, Measurement.Timing.Hold, 0
TestParameter, Measurement.Timing.Delay, 0
TestParameter, Measurement.Adc.HighSpeed.Mode, AUTO
TestParameter, Measurement.Adc.HighSpeed.Coeff, 1
TestParameter, Measurement.Adc.HighResolution.AutoZero, OFF
TestParameter, Measurement.Adc.HighResolution.Mode, AUTO
TestParameter, Measurement.Adc.HighResolution.Coeff, 6
TestParameter, Measurement.WaitTime.Source.Coeff, 1
TestParameter, Measurement.WaitTime.Source.Offset, 0
TestParameter, Measurement.WaitTime.Monitor.Coeff, 1
TestParameter, Measurement.WaitTime.Monitor.Offset, 0
TestParameter, Output.Graph.Enabled, true
TestParameter, Output.Graph.AutoScaling, false
TestParameter, Output.Graph.XAxis.Data, Vd
TestParameter, Output.Graph.XAxis.Scale, Linear
TestParameter, Output.Graph.XAxis.Left, 0
TestParameter, Output.Graph.XAxis.Right, -0.5
TestParameter, Output.Graph.XAxis.RunTimeAutoScale, true
TestParameter, Output.Graph.YAxis.Data, Id
TestParameter, Output.Graph.YAxis.Scale, Linear
TestParameter, Output.Graph.YAxis.Bottom, -0.1
TestParameter, Output.Graph.YAxis.Top, 0.1
TestParameter, Output.Graph.YAxis.Group, 
TestParameter, Output.Graph.YAxis.RunTimeAutoScale, true
TestParameter, Output.List.Data, Vd, Vg, Id
TestParameter, AutoAnalysis.Interpolation, false
TestParameter, AutoAnalysis.Var2StepCount, 1
TestParameter, AutoAnalysis.Var2StepScript, 
TestParameter, AutoAnalysis.Line1.Enabled, false
TestParameter, AutoAnalysis.Line1.Type, 1
TestParameter, AutoAnalysis.Line1.Fix, True
TestParameter, AutoAnalysis.Line1.YAxis, 0
TestParameter, AutoAnalysis.Line1.Point1.Type, 0
TestParameter, AutoAnalysis.Line1.Point1.XY.X, 
TestParameter, AutoAnalysis.Line1.Point1.XY.Y, 
TestParameter, AutoAnalysis.Line1.Point1.Data.Var, 
TestParameter, AutoAnalysis.Line1.Point1.Data.Condition, 
TestParameter, AutoAnalysis.Line1.Point1.Data.Start, false
TestParameter, AutoAnalysis.Line1.Point1.Data.StartVar, 
TestParameter, AutoAnalysis.Line1.Point1.Data.StartCondition, 
TestParameter, AutoAnalysis.Line1.Point2.Type, 0
TestParameter, AutoAnalysis.Line1.Point2.XY.X, 
TestParameter, AutoAnalysis.Line1.Point2.XY.Y, 
TestParameter, AutoAnalysis.Line1.Point2.Data.Var, 
TestParameter, AutoAnalysis.Line1.Point2.Data.Condition, 
TestParameter, AutoAnalysis.Line1.Point2.Data.Start, false
TestParameter, AutoAnalysis.Line1.Point2.Data.StartVar, 
TestParameter, AutoAnalysis.Line1.Point2.Data.StartCondition, 
TestParameter, AutoAnalysis.Line1.GradientExpr, 0
TestParameter, AutoAnalysis.Line2.Enabled, false
TestParameter, AutoAnalysis.Line2.Type, 1
TestParameter, AutoAnalysis.Line2.Fix, True
TestParameter, AutoAnalysis.Line2.YAxis, 0
TestParameter, AutoAnalysis.Line2.Point1.Type, 0
TestParameter, AutoAnalysis.Line2.Point1.XY.X, 
TestParameter, AutoAnalysis.Line2.Point1.XY.Y, 
TestParameter, AutoAnalysis.Line2.Point1.Data.Var, 
TestParameter, AutoAnalysis.Line2.Point1.Data.Condition, 
TestParameter, AutoAnalysis.Line2.Point1.Data.Start, false
TestParameter, AutoAnalysis.Line2.Point1.Data.StartVar, 
TestParameter, AutoAnalysis.Line2.Point1.Data.StartCondition, 
TestParameter, AutoAnalysis.Line2.Point2.Type, 0
TestParameter, AutoAnalysis.Line2.Point2.XY.X, 
TestParameter, AutoAnalysis.Line2.Point2.XY.Y, 
TestParameter, AutoAnalysis.Line2.Point2.Data.Var, 
TestParameter, AutoAnalysis.Line2.Point2.Data.Condition, 
TestParameter, AutoAnalysis.Line2.Point2.Data.Start, false
TestParameter, AutoAnalysis.Line2.Point2.Data.StartVar, 
TestParameter, AutoAnalysis.Line2.Point2.Data.StartCondition, 
TestParameter, AutoAnalysis.Line2.GradientExpr, 0
TestParameter, AutoAnalysis.Marker.Enabled, false
TestParameter, AutoAnalysis.Marker.Data.Var, 
TestParameter, AutoAnalysis.Marker.Data.Condition, 
TestParameter, AutoAnalysis.Marker.Data.Start, false
TestParameter, AutoAnalysis.Marker.Data.StartVar, 
TestParameter, AutoAnalysis.Marker.Data.StartCondition, 
MetaData, TestRecord.EntryPoint, true
MetaData, TestRecord.RecordTime, 12/22/2024 05:09:58
MetaData, TestRecord.TestTarget, 
MetaData, TestRecord.IterationIndex, 1
MetaData, TestRecord.Preservation, true
MetaData, TestRecord.Flag, 
MetaData, TestRecord.Remarks, 0.625wt-s21c5
MetaData, TestRecord.LinkKey, 6ae46703-4913-4527-82c3-2e715e3ea5fc
MetaData, TestRecord.Parameters, 
Dimension1, 102, 102, 102
Dimension2, 6, 6, 6
DataName, Vd, Vg, Id
DataValue, 0.1, 0.1, 0.00015918
DataValue, 0.088000000000000009, 0.1, 0.00013086
DataValue, 0.076, 0.1, 0.00010510000000000001
DataValue, 0.064, 0.1, 8.1566E-05
DataValue, 0.052000000000000005, 0.1, 6.1426E-05
DataValue, 0.04, 0.1, 4.354E-05
DataValue, 0.028, 0.1, 2.792E-05
DataValue, 0.016, 0.1, 1.451E-05
DataValue, 0.004, 0.1, 3.2647000000000003E-06
DataValue, -0.008, 0.1, -6.126E-06
DataValue, -0.02, 0.1, -1.3162E-05
DataValue, -0.032, 0.1, -1.9232E-05
DataValue, -0.044000000000000004, 0.1, -2.3978E-05
DataValue, -0.056, 0.1, -2.75E-05
DataValue, -0.068, 0.1, -3.0256E-05
DataValue, -0.08, 0.1, -3.2274E-05
DataValue, -0.092, 0.1, -3.3596E-05
DataValue, -0.10400000000000001, 0.1, -3.4562E-05
DataValue, -0.116, 0.1, -3.5274E-05
DataValue, -0.128, 0.1, -3.5658E-05
DataValue, -0.14, 0.1, -3.5764E-05
DataValue, -0.152, 0.1, -3.6056E-05
DataValue, -0.164, 0.1, -3.618E-05
DataValue, -0.17600000000000002, 0.1, -3.613E-05
DataValue, -0.188, 0.1, -3.624E-05
DataValue, -0.2, 0.1, -3.6334E-05
DataValue, -0.21200000000000002, 0.1, -3.633E-05
DataValue, -0.224, 0.1, -3.6254E-05
DataValue, -0.23600000000000002, 0.1, -3.6274E-05
DataValue, -0.248, 0.1, -3.6238E-05
DataValue, -0.26, 0.1, -3.6144E-05
DataValue, -0.272, 0.1, -3.611E-05
DataValue, -0.28400000000000003, 0.1, -3.613E-05
DataValue, -0.29600000000000004, 0.1, -3.6034E-05
DataValue, -0.308, 0.1, -3.5942E-05
DataValue, -0.32, 0.1, -3.5962E-05
DataValue, -0.332, 0.1, -3.591E-05
DataValue, -0.34400000000000003, 0.1, -3.5774E-05
DataValue, -0.35600000000000004, 0.1, -3.5764E-05
DataValue, -0.368, 0.1, -3.5786E-05
DataValue, -0.38, 0.1, -3.5716E-05
DataValue, -0.392, 0.1, -3.5616E-05
DataValue, -0.404, 0.1, -3.5574E-05
DataValue, -0.41600000000000004, 0.1, -3.5604E-05
DataValue, -0.42800000000000005, 0.1, -3.5544000000000004E-05
DataValue, -0.44, 0.1, -3.5442000000000004E-05
DataValue, -0.452, 0.1, -3.5406E-05
DataValue, -0.464, 0.1, -3.5442000000000004E-05
DataValue, -0.47600000000000003, 0.1, -3.5366E-05
DataValue, -0.48800000000000004, 0.1, -3.5254E-05
DataValue, -0.5, 0.1, -3.5238000000000004E-05
DataValue, -0.5, 0.1, -3.5246E-05
DataValue, -0.48800000000000004, 0.1, -3.515E-05
DataValue, -0.47600000000000003, 0.1, -3.5044E-05
DataValue, -0.464, 0.1, -3.4962E-05
DataValue, -0.452, 0.1, -3.4964E-05
DataValue, -0.44, 0.1, -3.4858000000000004E-05
DataValue, -0.42800000000000005, 0.1, -3.474E-05
DataValue, -0.41600000000000004, 0.1, -3.4684E-05
DataValue, -0.404, 0.1, -3.4660000000000004E-05
DataValue, -0.392, 0.1, -3.4564E-05
DataValue, -0.38, 0.1, -3.443E-05
DataValue, -0.368, 0.1, -3.4396E-05
DataValue, -0.35600000000000004, 0.1, -3.436E-05
DataValue, -0.34400000000000003, 0.1, -3.4236E-05
DataValue, -0.332, 0.1, -3.4112E-05
DataValue, -0.32, 0.1, -3.4070000000000004E-05
DataValue, -0.308, 0.1, -3.3994E-05
DataValue, -0.29600000000000004, 0.1, -3.3828E-05
DataValue, -0.28400000000000003, 0.1, -3.3696000000000004E-05
DataValue, -0.272, 0.1, -3.3628000000000004E-05
DataValue, -0.26, 0.1, -3.3472E-05
DataValue, -0.248, 0.1, -3.324E-05
DataValue, -0.23600000000000002, 0.1, -3.3094E-05
DataValue, -0.224, 0.1, -3.2952E-05
DataValue, -0.21200000000000002, 0.1, -3.273E-05
DataValue, -0.2, 0.1, -3.2500000000000004E-05
DataValue, -0.188, 0.1, -3.2244E-05
DataValue, -0.17600000000000002, 0.1, -3.2026E-05
DataValue, -0.164, 0.1, -3.1782E-05
DataValue, -0.152, 0.1, -3.1318E-05
DataValue, -0.14, 0.1, -3.0922E-05
DataValue, -0.128, 0.1, -3.0538E-05
DataValue, -0.116, 0.1, -2.9816E-05
DataValue, -0.10400000000000001, 0.1, -2.8942000000000002E-05
DataValue, -0.092, 0.1, -2.7996E-05
DataValue, -0.08, 0.1, -2.663E-05
DataValue, -0.068, 0.1, -2.4834E-05
DataValue, -0.056, 0.1, -2.255E-05
DataValue, -0.044000000000000004, 0.1, -1.9564E-05
DataValue, -0.032, 0.1, -1.5774000000000002E-05
DataValue, -0.02, 0.1, -1.092E-05
DataValue, -0.008, 0.1, -4.9314000000000008E-06
DataValue, 0.004, 0.1, 2.6086000000000003E-06
DataValue, 0.016, 0.1, 1.188E-05
DataValue, 0.028, 0.1, 2.2908E-05
DataValue, 0.04, 0.1, 3.6038E-05
DataValue, 0.052000000000000005, 0.1, 5.1554E-05
DataValue, 0.064, 0.1, 6.927E-05
DataValue, 0.076, 0.1, 8.9608E-05
DataValue, 0.088000000000000009, 0.1, 0.000112804
DataValue, 0.1, 0.1, 0.00014182000000000002
DataValue, 0.1, 0, 0.00035294000000000005
DataValue, 0.088000000000000009, 0, 0.00029926000000000003
DataValue, 0.076, 0, 0.00024826000000000004
DataValue, 0.064, 0, 0.00020046000000000002
DataValue, 0.052000000000000005, 0, 0.00015592
DataValue, 0.04, 0, 0.0001144
DataValue, 0.028, 0, 7.6352E-05
DataValue, 0.016, 0, 4.1468000000000003E-05
DataValue, 0.004, 0, 9.7934000000000018E-06
DataValue, -0.008, 0, -1.9124000000000002E-05
DataValue, -0.02, 0, -4.4962E-05
DataValue, -0.032, 0, -6.8088E-05
DataValue, -0.044000000000000004, 0, -8.8744E-05
DataValue, -0.056, 0, -0.00010662800000000001
DataValue, -0.068, 0, -0.0001212
DataValue, -0.08, 0, -0.00013488
DataValue, -0.092, 0, -0.00014652
DataValue, -0.10400000000000001, 0, -0.00015608
DataValue, -0.116, 0, -0.00016406
DataValue, -0.128, 0, -0.00017074
DataValue, -0.14, 0, -0.00017608
DataValue, -0.152, 0, -0.00018024000000000002
DataValue, -0.164, 0, -0.00018378
DataValue, -0.17600000000000002, 0, -0.00018672
DataValue, -0.188, 0, -0.00018878000000000002
DataValue, -0.2, 0, -0.00019050000000000002
DataValue, -0.21200000000000002, 0, -0.00019208000000000002
DataValue, -0.224, 0, -0.00019326
DataValue, -0.23600000000000002, 0, -0.00019414
DataValue, -0.248, 0, -0.00019508
DataValue, -0.26, 0, -0.00019592
DataValue, -0.272, 0, -0.00019654
DataValue, -0.28400000000000003, 0, -0.00019712
DataValue, -0.29600000000000004, 0, -0.00019776
DataValue, -0.308, 0, -0.00019822
DataValue, -0.32, 0, -0.00019854
DataValue, -0.332, 0, -0.000199
DataValue, -0.34400000000000003, 0, -0.00019934
DataValue, -0.35600000000000004, 0, -0.0001996
DataValue, -0.368, 0, -0.00019992000000000002
DataValue, -0.38, 0, -0.00020026
DataValue, -0.392, 0, -0.00020030000000000002
DataValue, -0.404, 0, -0.00020050000000000002
DataValue, -0.41600000000000004, 0, -0.00020082000000000002
DataValue, -0.42800000000000005, 0, -0.00020086000000000003
DataValue, -0.44, 0, -0.00020088000000000002
DataValue, -0.452, 0, -0.00020104
DataValue, -0.464, 0, -0.00020124000000000002
DataValue, -0.47600000000000003, 0, -0.00020112000000000003
DataValue, -0.48800000000000004, 0, -0.00020124000000000002
DataValue, -0.5, 0, -0.00020136
DataValue, -0.5, 0, -0.00020130000000000001
DataValue, -0.48800000000000004, 0, -0.00020086000000000003
DataValue, -0.47600000000000003, 0, -0.00020054
DataValue, -0.464, 0, -0.00020036
DataValue, -0.452, 0, -0.0002001
DataValue, -0.44, 0, -0.00019966000000000002
DataValue, -0.42800000000000005, 0, -0.00019938
DataValue, -0.41600000000000004, 0, -0.00019910000000000002
DataValue, -0.404, 0, -0.00019864
DataValue, -0.392, 0, -0.00019820000000000002
DataValue, -0.38, 0, -0.00019784000000000002
DataValue, -0.368, 0, -0.00019742000000000002
DataValue, -0.35600000000000004, 0, -0.00019674000000000002
DataValue, -0.34400000000000003, 0, -0.00019616000000000002
DataValue, -0.332, 0, -0.00019574000000000002
DataValue, -0.32, 0, -0.00019494
DataValue, -0.308, 0, -0.00019416000000000003
DataValue, -0.29600000000000004, 0, -0.00019348000000000003
DataValue, -0.28400000000000003, 0, -0.00019266000000000002
DataValue, -0.272, 0, -0.00019174
DataValue, -0.26, 0, -0.00019064
DataValue, -0.248, 0, -0.00018968
DataValue, -0.23600000000000002, 0, -0.00018856000000000002
DataValue, -0.224, 0, -0.00018716000000000002
DataValue, -0.21200000000000002, 0, -0.0001855
DataValue, -0.2, 0, -0.00018390000000000003
DataValue, -0.188, 0, -0.00018188000000000001
DataValue, -0.17600000000000002, 0, -0.00017924
DataValue, -0.164, 0, -0.00017626000000000002
DataValue, -0.152, 0, -0.00017302000000000002
DataValue, -0.14, 0, -0.00016866
DataValue, -0.128, 0, -0.00016336
DataValue, -0.116, 0, -0.00015712
DataValue, -0.10400000000000001, 0, -0.00014964
DataValue, -0.092, 0, -0.00014058
DataValue, -0.08, 0, -0.00012982
DataValue, -0.068, 0, -0.0001172
DataValue, -0.056, 0, -0.00010262
DataValue, -0.044000000000000004, 0, -8.5872000000000007E-05
DataValue, -0.032, 0, -6.603E-05
DataValue, -0.02, 0, -4.3776E-05
DataValue, -0.008, 0, -1.8604E-05
DataValue, 0.004, 0, 9.548E-06
DataValue, 0.016, 0, 4.1518000000000005E-05
DataValue, 0.028, 0, 7.6346E-05
DataValue, 0.04, 0, 0.000114516
DataValue, 0.052000000000000005, 0, 0.00015766
DataValue, 0.064, 0, 0.00020288
DataValue, 0.076, 0, 0.0002519
DataValue, 0.088000000000000009, 0, 0.00030436
DataValue, 0.1, 0, 0.00036060000000000004
DataValue, 0.1, -0.1, 0.0006284
DataValue, 0.088000000000000009, -0.1, 0.00054216000000000008
DataValue, 0.076, -0.1, 0.00045842
DataValue, 0.064, -0.1, 0.0003773
DataValue, 0.052000000000000005, -0.1, 0.0002992
DataValue, 0.04, -0.1, 0.0002246
DataValue, 0.028, -0.1, 0.00015304
DataValue, 0.016, -0.1, 8.4884000000000009E-05
DataValue, 0.004, -0.1, 2.0398E-05
DataValue, -0.008, -0.1, -4.1034E-05
DataValue, -0.02, -0.1, -9.8782E-05
DataValue, -0.032, -0.1, -0.00015242
DataValue, -0.044000000000000004, -0.1, -0.0002031
DataValue, -0.056, -0.1, -0.00025054
DataValue, -0.068, -0.1, -0.00029442000000000004
DataValue, -0.08, -0.1, -0.00033452000000000004
DataValue, -0.092, -0.1, -0.00037156
DataValue, -0.10400000000000001, -0.1, -0.00040552000000000003
DataValue, -0.116, -0.1, -0.00043558000000000003
DataValue, -0.128, -0.1, -0.00046308000000000005
DataValue, -0.14, -0.1, -0.00048778000000000005
DataValue, -0.152, -0.1, -0.00050864
DataValue, -0.164, -0.1, -0.00052794000000000007
DataValue, -0.17600000000000002, -0.1, -0.00054478
DataValue, -0.188, -0.1, -0.00055934000000000008
DataValue, -0.2, -0.1, -0.0005716
DataValue, -0.21200000000000002, -0.1, -0.00058218000000000007
DataValue, -0.224, -0.1, -0.00059160000000000007
DataValue, -0.23600000000000002, -0.1, -0.00059910000000000009
DataValue, -0.248, -0.1, -0.00060534
DataValue, -0.26, -0.1, -0.00061092
DataValue, -0.272, -0.1, -0.00061576
DataValue, -0.28400000000000003, -0.1, -0.00061926000000000006
DataValue, -0.29600000000000004, -0.1, -0.00062232
DataValue, -0.308, -0.1, -0.00062558
DataValue, -0.32, -0.1, -0.00062774
DataValue, -0.332, -0.1, -0.00062976
DataValue, -0.34400000000000003, -0.1, -0.00063200000000000007
DataValue, -0.35600000000000004, -0.1, -0.00063388000000000008
DataValue, -0.368, -0.1, -0.00063498
DataValue, -0.38, -0.1, -0.00063652
DataValue, -0.392, -0.1, -0.00063824
DataValue, -0.404, -0.1, -0.00063928
DataValue, -0.41600000000000004, -0.1, -0.00064054
DataValue, -0.42800000000000005, -0.1, -0.00064198
DataValue, -0.44, -0.1, -0.00064278
DataValue, -0.452, -0.1, -0.00064336
DataValue, -0.464, -0.1, -0.00064412000000000009
DataValue, -0.47600000000000003, -0.1, -0.0006453
DataValue, -0.48800000000000004, -0.1, -0.00064568
DataValue, -0.5, -0.1, -0.00064612
DataValue, -0.5, -0.1, -0.00064580000000000008
DataValue, -0.48800000000000004, -0.1, -0.00064396000000000006
DataValue, -0.47600000000000003, -0.1, -0.000642
DataValue, -0.464, -0.1, -0.00064058000000000008
DataValue, -0.452, -0.1, -0.00063898
DataValue, -0.44, -0.1, -0.00063718
DataValue, -0.42800000000000005, -0.1, -0.00063514000000000008
DataValue, -0.41600000000000004, -0.1, -0.00063386000000000009
DataValue, -0.404, -0.1, -0.0006319
DataValue, -0.392, -0.1, -0.00062966
DataValue, -0.38, -0.1, -0.00062756
DataValue, -0.368, -0.1, -0.00062576
DataValue, -0.35600000000000004, -0.1, -0.00062306
DataValue, -0.34400000000000003, -0.1, -0.00062070000000000007
DataValue, -0.332, -0.1, -0.00061822
DataValue, -0.32, -0.1, -0.00061522000000000009
DataValue, -0.308, -0.1, -0.00061168000000000008
DataValue, -0.29600000000000004, -0.1, -0.00060824
DataValue, -0.28400000000000003, -0.1, -0.00060448
DataValue, -0.272, -0.1, -0.00059954000000000008
DataValue, -0.26, -0.1, -0.00059448
DataValue, -0.248, -0.1, -0.00058896
DataValue, -0.23600000000000002, -0.1, -0.00058196000000000007
DataValue, -0.224, -0.1, -0.00057392
DataValue, -0.21200000000000002, -0.1, -0.00056512
DataValue, -0.2, -0.1, -0.00055458
DataValue, -0.188, -0.1, -0.00054198000000000007
DataValue, -0.17600000000000002, -0.1, -0.00052808
DataValue, -0.164, -0.1, -0.00051202000000000007
DataValue, -0.152, -0.1, -0.0004939
DataValue, -0.14, -0.1, -0.0004731
DataValue, -0.128, -0.1, -0.00045000000000000004
DataValue, -0.116, -0.1, -0.00042360000000000005
DataValue, -0.10400000000000001, -0.1, -0.00039432000000000003
DataValue, -0.092, -0.1, -0.00036222
DataValue, -0.08, -0.1, -0.00032678000000000004
DataValue, -0.068, -0.1, -0.00028754000000000003
DataValue, -0.056, -0.1, -0.00024538
DataValue, -0.044000000000000004, -0.1, -0.00019978000000000002
DataValue, -0.032, -0.1, -0.00015024
DataValue, -0.02, -0.1, -9.7614E-05
DataValue, -0.008, -0.1, -4.0498000000000004E-05
DataValue, 0.004, -0.1, 2.029E-05
DataValue, 0.016, -0.1, 8.4420000000000008E-05
DataValue, 0.028, -0.1, 0.00015346
DataValue, 0.04, -0.1, 0.00022504000000000003
DataValue, 0.052000000000000005, -0.1, 0.00030084
DataValue, 0.064, -0.1, 0.00037966000000000003
DataValue, 0.076, -0.1, 0.00046206000000000003
DataValue, 0.088000000000000009, -0.1, 0.00054812
DataValue, 0.1, -0.1, 0.0006377
DataValue, 0.1, -0.2, 0.00089234
DataValue, 0.088000000000000009, -0.2, 0.0007776
DataValue, 0.076, -0.2, 0.0006643
DataValue, 0.064, -0.2, 0.0005532
DataValue, 0.052000000000000005, -0.2, 0.00044428
DataValue, 0.04, -0.2, 0.00033684000000000003
DataValue, 0.028, -0.2, 0.00023268
DataValue, 0.016, -0.2, 0.00013102
DataValue, 0.004, -0.2, 3.1504E-05
DataValue, -0.008, -0.2, -6.4518000000000008E-05
DataValue, -0.02, -0.2, -0.00015792
DataValue, -0.032, -0.2, -0.00024874
DataValue, -0.044000000000000004, -0.2, -0.00033622000000000003
DataValue, -0.056, -0.2, -0.00041992
