
SetupTitle, (c1) Output curve in LGP
PrimitiveTest, I/V Sweep
TestParameter, Context.MainFrame, B1500A
TestParameter, Channel.UnitType, SMU, SMU
TestParameter, Channel.Unit, SMU1:HR/AS, SMU2:HR/AS
TestParameter, Channel.IName, Ig, Id
TestParameter, Channel.VName, Vg, Vd
TestParameter, Channel.Mode, V, V
TestParameter, Channel.Func, VAR2, VAR1
TestParameter, Channel.Index, 
TestParameter, Channel.Time, 
TestParameter, Measurement.Port.Unit, SMU1:HR/AS, SMU2:HR/AS
TestParameter, Measurement.Port.SeriesResistor, NONE, NONE
TestParameter, Measurement.Port.Filter, ON, ON
TestParameter, Measurement.Port.OutputVoltageComparison, 0, 0
TestParameter, Measurement.Primary.Locus, Double
TestParameter, Measurement.Primary.Scale, LINEAR
TestParameter, Measurement.Primary.Start, 0.1
TestParameter, Measurement.Primary.Stop, -0.5
TestParameter, Measurement.Primary.Step, -0.012
TestParameter, Measurement.Primary.Compliance, 0.1
TestParameter, Measurement.Primary.PowerCompliance, 0
TestParameter, Measurement.Aborting.Condition, CONTINUE AT ANY
TestParameter, Measurement.PostOutput.Value, START
TestParameter, Measurement.PostOutput.Retention, OFF
TestParameter, Measurement.Secondary.Start, 0.1
TestParameter, Measurement.Secondary.Count, 6
TestParameter, Measurement.Secondary.Step, -0.1
TestParameter, Measurement.Secondary.Compliance, 0.0001
TestParameter, Measurement.Secondary.PowerCompliance, 0
TestParameter, Measurement.Bias.Source, 0.1, 0.1
TestParameter, Measurement.Bias.Compliance, 0.0001, 0.1
TestParameter, Measurement.Monitor.Unit, SMU1:HR/AS, SMU2:HR/AS
TestParameter, Measurement.Monitor.Adc, HR ADC, HR ADC
TestParameter, Measurement.Monitor.Measurement, Compliance Side, Compliance Side
TestParameter, Measurement.Monitor.RangingMode, LIMITED, LIMITED
TestParameter, Measurement.Monitor.RangeBoundary, 1nA, 1nA
TestParameter, Measurement.Monitor.RangeRating, BY FULL RANGE, BY FULL RANGE
TestParameter, Measurement.Monitor.RangeRatingCoeff, 50, 50
TestParameter, Measurement.Timing.Hold, 0
TestParameter, Measurement.Timing.Delay, 0
TestParameter, Measurement.Adc.HighSpeed.Mode, AUTO
TestParameter, Measurement.Adc.HighSpeed.Coeff, 1
TestParameter, Measurement.Adc.HighResolution.AutoZero, OFF
TestParameter, Measurement.Adc.HighResolution.Mode, AUTO
TestParameter, Measurement.Adc.HighResolution.Coeff, 6
TestParameter, Measurement.WaitTime.Source.Coeff, 1
TestParameter, Measurement.WaitTime.Source.Offset, 0
TestParameter, Measurement.WaitTime.Monitor.Coeff, 1
TestParameter, Measurement.WaitTime.Monitor.Offset, 0
TestParameter, Output.Graph.Enabled, true
TestParameter, Output.Graph.AutoScaling, false
TestParameter, Output.Graph.XAxis.Data, Vd
TestParameter, Output.Graph.XAxis.Scale, Linear
TestParameter, Output.Graph.XAxis.Left, 0
TestParameter, Output.Graph.XAxis.Right, -0.5
TestParameter, Output.Graph.XAxis.RunTimeAutoScale, true
TestParameter, Output.Graph.YAxis.Data, Id
TestParameter, Output.Graph.YAxis.Scale, Linear
TestParameter, Output.Graph.YAxis.Bottom, -0.1
TestParameter, Output.Graph.YAxis.Top, 0.1
TestParameter, Output.Graph.YAxis.Group, 
TestParameter, Output.Graph.YAxis.RunTimeAutoScale, true
TestParameter, Output.List.Data, Vd, Vg, Id
TestParameter, AutoAnalysis.Interpolation, false
TestParameter, AutoAnalysis.Var2StepCount, 1
TestParameter, AutoAnalysis.Var2StepScript, 
TestParameter, AutoAnalysis.Line1.Enabled, false
TestParameter, AutoAnalysis.Line1.Type, 1
TestParameter, AutoAnalysis.Line1.Fix, True
TestParameter, AutoAnalysis.Line1.YAxis, 0
TestParameter, AutoAnalysis.Line1.Point1.Type, 0
TestParameter, AutoAnalysis.Line1.Point1.XY.X, 
TestParameter, AutoAnalysis.Line1.Point1.XY.Y, 
TestParameter, AutoAnalysis.Line1.Point1.Data.Var, 
TestParameter, AutoAnalysis.Line1.Point1.Data.Condition, 
TestParameter, AutoAnalysis.Line1.Point1.Data.Start, false
TestParameter, AutoAnalysis.Line1.Point1.Data.StartVar, 
TestParameter, AutoAnalysis.Line1.Point1.Data.StartCondition, 
TestParameter, AutoAnalysis.Line1.Point2.Type, 0
TestParameter, AutoAnalysis.Line1.Point2.XY.X, 
TestParameter, AutoAnalysis.Line1.Point2.XY.Y, 
TestParameter, AutoAnalysis.Line1.Point2.Data.Var, 
TestParameter, AutoAnalysis.Line1.Point2.Data.Condition, 
TestParameter, AutoAnalysis.Line1.Point2.Data.Start, false
TestParameter, AutoAnalysis.Line1.Point2.Data.StartVar, 
TestParameter, AutoAnalysis.Line1.Point2.Data.StartCondition, 
TestParameter, AutoAnalysis.Line1.GradientExpr, 0
TestParameter, AutoAnalysis.Line2.Enabled, false
TestParameter, AutoAnalysis.Line2.Type, 1
TestParameter, AutoAnalysis.Line2.Fix, True
TestParameter, AutoAnalysis.Line2.YAxis, 0
TestParameter, AutoAnalysis.Line2.Point1.Type, 0
TestParameter, AutoAnalysis.Line2.Point1.XY.X, 
TestParameter, AutoAnalysis.Line2.Point1.XY.Y, 
TestParameter, AutoAnalysis.Line2.Point1.Data.Var, 
TestParameter, AutoAnalysis.Line2.Point1.Data.Condition, 
TestParameter, AutoAnalysis.Line2.Point1.Data.Start, false
TestParameter, AutoAnalysis.Line2.Point1.Data.StartVar, 
TestParameter, AutoAnalysis.Line2.Point1.Data.StartCondition, 
TestParameter, AutoAnalysis.Line2.Point2.Type, 0
TestParameter, AutoAnalysis.Line2.Point2.XY.X, 
TestParameter, AutoAnalysis.Line2.Point2.XY.Y, 
TestParameter, AutoAnalysis.Line2.Point2.Data.Var, 
TestParameter, AutoAnalysis.Line2.Point2.Data.Condition, 
TestParameter, AutoAnalysis.Line2.Point2.Data.Start, false
TestParameter, AutoAnalysis.Line2.Point2.Data.StartVar, 
TestParameter, AutoAnalysis.Line2.Point2.Data.StartCondition, 
TestParameter, AutoAnalysis.Line2.GradientExpr, 0
TestParameter, AutoAnalysis.Marker.Enabled, false
TestParameter, AutoAnalysis.Marker.Data.Var, 
TestParameter, AutoAnalysis.Marker.Data.Condition, 
TestParameter, AutoAnalysis.Marker.Data.Start, false
TestParameter, AutoAnalysis.Marker.Data.StartVar, 
TestParameter, AutoAnalysis.Marker.Data.StartCondition, 
MetaData, TestRecord.EntryPoint, true
MetaData, TestRecord.RecordTime, 12/22/2024 05:00:12
MetaData, TestRecord.TestTarget, 
MetaData, TestRecord.IterationIndex, 1
MetaData, TestRecord.Preservation, true
MetaData, TestRecord.Flag, 
MetaData, TestRecord.Remarks, 0.625wt-s21c1
MetaData, TestRecord.LinkKey, de88c306-e803-40e3-92b9-d8d42427ceca
MetaData, TestRecord.Parameters, 
Dimension1, 102, 102, 102
Dimension2, 6, 6, 6
DataName, Vd, Vg, Id
DataValue, 0.1, 0.1, 9.5433E-06
DataValue, 0.088000000000000009, 0.1, 7.8507000000000009E-06
DataValue, 0.076, 0.1, 6.2732E-06
DataValue, 0.064, 0.1, 4.8637000000000005E-06
DataValue, 0.052000000000000005, 0.1, 3.6966000000000003E-06
DataValue, 0.04, 0.1, 2.6002E-06
DataValue, 0.028, 0.1, 1.6534000000000001E-06
DataValue, 0.016, 0.1, 8.633E-07
DataValue, 0.004, 0.1, 1.6958E-07
DataValue, -0.008, 0.1, -3.594E-07
DataValue, -0.02, 0.1, -8.5273999999999995E-07
DataValue, -0.032, 0.1, -1.1945000000000002E-06
DataValue, -0.044000000000000004, 0.1, -1.5516E-06
DataValue, -0.056, 0.1, -1.7648000000000002E-06
DataValue, -0.068, 0.1, -1.968E-06
DataValue, -0.08, 0.1, -2.1722E-06
DataValue, -0.092, 0.1, -2.2527E-06
DataValue, -0.10400000000000001, 0.1, -2.3401000000000003E-06
DataValue, -0.116, 0.1, -2.4478E-06
DataValue, -0.128, 0.1, -2.4526000000000005E-06
DataValue, -0.14, 0.1, -2.4845E-06
DataValue, -0.152, 0.1, -2.5425000000000002E-06
DataValue, -0.164, 0.1, -2.5132000000000003E-06
DataValue, -0.17600000000000002, 0.1, -2.5299E-06
DataValue, -0.188, 0.1, -2.5666E-06
DataValue, -0.2, 0.1, -2.5296000000000003E-06
DataValue, -0.21200000000000002, 0.1, -2.5287000000000005E-06
DataValue, -0.224, 0.1, -2.5624000000000002E-06
DataValue, -0.23600000000000002, 0.1, -2.5159000000000003E-06
DataValue, -0.248, 0.1, -2.5201000000000002E-06
DataValue, -0.26, 0.1, -2.5519E-06
DataValue, -0.272, 0.1, -2.5084000000000004E-06
DataValue, -0.28400000000000003, 0.1, -2.505E-06
DataValue, -0.29600000000000004, 0.1, -2.5416000000000004E-06
DataValue, -0.308, 0.1, -2.4933000000000003E-06
DataValue, -0.32, 0.1, -2.4924E-06
DataValue, -0.332, 0.1, -2.5267000000000003E-06
DataValue, -0.34400000000000003, 0.1, -2.4786000000000003E-06
DataValue, -0.35600000000000004, 0.1, -2.483E-06
DataValue, -0.368, 0.1, -2.5186000000000003E-06
DataValue, -0.38, 0.1, -2.4704E-06
DataValue, -0.392, 0.1, -2.4717000000000004E-06
DataValue, -0.404, 0.1, -2.5055000000000004E-06
DataValue, -0.41600000000000004, 0.1, -2.4593000000000003E-06
DataValue, -0.42800000000000005, 0.1, -2.4671E-06
DataValue, -0.44, 0.1, -2.4934E-06
DataValue, -0.452, 0.1, -2.4386000000000003E-06
DataValue, -0.464, 0.1, -2.4585000000000003E-06
DataValue, -0.47600000000000003, 0.1, -2.4807000000000002E-06
DataValue, -0.48800000000000004, 0.1, -2.4317000000000004E-06
DataValue, -0.5, 0.1, -2.4495000000000004E-06
DataValue, -0.5, 0.1, -2.4711000000000004E-06
DataValue, -0.48800000000000004, 0.1, -2.4317000000000004E-06
DataValue, -0.47600000000000003, 0.1, -2.4031000000000003E-06
DataValue, -0.464, 0.1, -2.4375000000000004E-06
DataValue, -0.452, 0.1, -2.4256E-06
DataValue, -0.44, 0.1, -2.375E-06
DataValue, -0.42800000000000005, 0.1, -2.4115E-06
DataValue, -0.41600000000000004, 0.1, -2.4071000000000002E-06
DataValue, -0.404, 0.1, -2.3527000000000004E-06
DataValue, -0.392, 0.1, -2.3709E-06
DataValue, -0.38, 0.1, -2.3908E-06
DataValue, -0.368, 0.1, -2.3354E-06
DataValue, -0.35600000000000004, 0.1, -2.3384000000000003E-06
DataValue, -0.34400000000000003, 0.1, -2.3708000000000002E-06
DataValue, -0.332, 0.1, -2.3234E-06
DataValue, -0.32, 0.1, -2.3021000000000004E-06
DataValue, -0.308, 0.1, -2.3449E-06
DataValue, -0.29600000000000004, 0.1, -2.3090000000000003E-06
DataValue, -0.28400000000000003, 0.1, -2.2711E-06
DataValue, -0.272, 0.1, -2.3064E-06
DataValue, -0.26, 0.1, -2.2916000000000002E-06
DataValue, -0.248, 0.1, -2.2403000000000004E-06
DataValue, -0.23600000000000002, 0.1, -2.2654000000000004E-06
DataValue, -0.224, 0.1, -2.2556E-06
DataValue, -0.21200000000000002, 0.1, -2.2009000000000004E-06
DataValue, -0.2, 0.1, -2.2042000000000004E-06
DataValue, -0.188, 0.1, -2.2152000000000004E-06
DataValue, -0.17600000000000002, 0.1, -2.1534000000000004E-06
DataValue, -0.164, 0.1, -2.1406000000000003E-06
DataValue, -0.152, 0.1, -2.144E-06
DataValue, -0.14, 0.1, -2.0745000000000002E-06
DataValue, -0.128, 0.1, -2.0196E-06
DataValue, -0.116, 0.1, -2.0069000000000002E-06
DataValue, -0.10400000000000001, 0.1, -1.9097E-06
DataValue, -0.092, 0.1, -1.8027000000000001E-06
DataValue, -0.08, 0.1, -1.7385000000000002E-06
DataValue, -0.068, 0.1, -1.5986000000000003E-06
DataValue, -0.056, 0.1, -1.4012000000000002E-06
DataValue, -0.044000000000000004, 0.1, -1.2395000000000002E-06
DataValue, -0.032, 0.1, -9.9180000000000019E-07
DataValue, -0.02, 0.1, -6.8552E-07
DataValue, -0.008, 0.1, -3.176E-07
DataValue, 0.004, 0.1, 1.8236E-07
DataValue, 0.016, 0.1, 7.1598E-07
DataValue, 0.028, 0.1, 1.3894000000000002E-06
DataValue, 0.04, 0.1, 2.1109000000000004E-06
DataValue, 0.052000000000000005, 0.1, 3.0423000000000005E-06
DataValue, 0.064, 0.1, 4.0911000000000005E-06
DataValue, 0.076, 0.1, 5.2445E-06
DataValue, 0.088000000000000009, 0.1, 6.6310000000000005E-06
DataValue, 0.1, 0.1, 8.2349000000000014E-06
DataValue, 0.1, 0, 2.3228000000000002E-05
DataValue, 0.088000000000000009, 0, 1.942E-05
DataValue, 0.076, 0, 1.5862E-05
DataValue, 0.064, 0, 1.2674000000000001E-05
DataValue, 0.052000000000000005, 0, 9.6974000000000014E-06
DataValue, 0.04, 0, 7.0589E-06
DataValue, 0.028, 0, 4.6937000000000005E-06
DataValue, 0.016, 0, 2.483E-06
DataValue, 0.004, 0, 5.9483999999999995E-07
DataValue, -0.008, 0, -1.15006E-06
DataValue, -0.02, 0, -2.6653E-06
DataValue, -0.032, 0, -3.9541000000000008E-06
DataValue, -0.044000000000000004, 0, -5.144E-06
DataValue, -0.056, 0, -6.1826000000000007E-06
DataValue, -0.068, 0, -7.0087E-06
DataValue, -0.08, 0, -7.792000000000001E-06
DataValue, -0.092, 0, -8.4443000000000015E-06
DataValue, -0.10400000000000001, 0, -8.9322E-06
DataValue, -0.116, 0, -9.4172E-06
DataValue, -0.128, 0, -9.8032000000000013E-06
DataValue, -0.14, 0, -1.0067E-05
DataValue, -0.152, 0, -1.0345700000000002E-05
DataValue, -0.164, 0, -1.05577E-05
DataValue, -0.17600000000000002, 0, -1.0662600000000002E-05
DataValue, -0.188, 0, -1.0845600000000002E-05
DataValue, -0.2, 0, -1.09348E-05
DataValue, -0.21200000000000002, 0, -1.0977600000000001E-05
DataValue, -0.224, 0, -1.10961E-05
DataValue, -0.23600000000000002, 0, -1.1108200000000002E-05
DataValue, -0.248, 0, -1.11518E-05
DataValue, -0.26, 0, -1.12292E-05
DataValue, -0.272, 0, -1.1213800000000001E-05
DataValue, -0.28400000000000003, 0, -1.12391E-05
DataValue, -0.29600000000000004, 0, -1.1305200000000002E-05
DataValue, -0.308, 0, -1.1273600000000002E-05
DataValue, -0.32, 0, -1.13064E-05
DataValue, -0.332, 0, -1.1368400000000001E-05
DataValue, -0.34400000000000003, 0, -1.1262E-05
DataValue, -0.35600000000000004, 0, -1.1306E-05
DataValue, -0.368, 0, -1.1364E-05
DataValue, -0.38, 0, -1.1378E-05
DataValue, -0.392, 0, -1.1356000000000001E-05
DataValue, -0.404, 0, -1.1400000000000001E-05
DataValue, -0.41600000000000004, 0, -1.145E-05
DataValue, -0.42800000000000005, 0, -1.1412E-05
DataValue, -0.44, 0, -1.1406E-05
DataValue, -0.452, 0, -1.1442E-05
DataValue, -0.464, 0, -1.1478000000000001E-05
DataValue, -0.47600000000000003, 0, -1.1452E-05
DataValue, -0.48800000000000004, 0, -1.145E-05
DataValue, -0.5, 0, -1.1496E-05
DataValue, -0.5, 0, -1.1502000000000001E-05
DataValue, -0.48800000000000004, 0, -1.146E-05
DataValue, -0.47600000000000003, 0, -1.1398E-05
DataValue, -0.464, 0, -1.1396E-05
DataValue, -0.452, 0, -1.1416E-05
DataValue, -0.44, 0, -1.1358E-05
DataValue, -0.42800000000000005, 0, -1.1306E-05
DataValue, -0.41600000000000004, 0, -1.1328E-05
DataValue, -0.404, 0, -1.1308E-05
DataValue, -0.392, 0, -1.1252E-05
DataValue, -0.38, 0, -1.1204E-05
DataValue, -0.368, 0, -1.1228E-05
DataValue, -0.35600000000000004, 0, -1.1194E-05
DataValue, -0.34400000000000003, 0, -1.1122E-05
DataValue, -0.332, 0, -1.1108000000000001E-05
DataValue, -0.32, 0, -1.1112E-05
DataValue, -0.308, 0, -1.1074000000000001E-05
DataValue, -0.29600000000000004, 0, -1.0992E-05
DataValue, -0.28400000000000003, 0, -1.0962000000000001E-05
DataValue, -0.272, 0, -1.0944E-05
DataValue, -0.26, 0, -1.0888E-05
DataValue, -0.248, 0, -1.0782000000000001E-05
DataValue, -0.23600000000000002, 0, -1.0746E-05
DataValue, -0.224, 0, -1.0712E-05
DataValue, -0.21200000000000002, 0, -1.0586E-05
DataValue, -0.2, 0, -1.0448E-05
DataValue, -0.188, 0, -1.0372E-05
DataValue, -0.17600000000000002, 0, -1.025E-05
DataValue, -0.164, 0, -1.0038000000000001E-05
DataValue, -0.152, 0, -9.8939E-06
DataValue, -0.14, 0, -9.6344E-06
DataValue, -0.128, 0, -9.2872000000000015E-06
DataValue, -0.116, 0, -8.98E-06
DataValue, -0.10400000000000001, 0, -8.5522000000000009E-06
DataValue, -0.092, 0, -8.0714E-06
DataValue, -0.08, 0, -7.443600000000001E-06
DataValue, -0.068, 0, -6.7086000000000004E-06
DataValue, -0.056, 0, -5.9321E-06
DataValue, -0.044000000000000004, 0, -4.9454E-06
DataValue, -0.032, 0, -3.8037000000000005E-06
DataValue, -0.02, 0, -2.5712000000000005E-06
DataValue, -0.008, 0, -1.1124000000000001E-06
DataValue, 0.004, 0, 5.4072E-07
DataValue, 0.016, 0, 2.4592E-06
DataValue, 0.028, 0, 4.6348E-06
DataValue, 0.04, 0, 7.043000000000001E-06
DataValue, 0.052000000000000005, 0, 9.6581000000000016E-06
DataValue, 0.064, 0, 1.2828E-05
DataValue, 0.076, 0, 1.6062E-05
DataValue, 0.088000000000000009, 0, 1.9638E-05
DataValue, 0.1, 0, 2.3624E-05
DataValue, 0.1, -0.1, 4.8950000000000004E-05
DataValue, 0.088000000000000009, -0.1, 4.1758E-05
DataValue, 0.076, -0.1, 3.4794E-05
DataValue, 0.064, -0.1, 2.8228E-05
DataValue, 0.052000000000000005, -0.1, 2.2136E-05
DataValue, 0.04, -0.1, 1.6378E-05
DataValue, 0.028, -0.1, 1.0958E-05
DataValue, 0.016, -0.1, 6.0444000000000009E-06
DataValue, 0.004, -0.1, 1.3979000000000002E-06
DataValue, -0.008, -0.1, -2.8302000000000004E-06
DataValue, -0.02, -0.1, -6.660200000000001E-06
DataValue, -0.032, -0.1, -1.0263100000000002E-05
DataValue, -0.044000000000000004, -0.1, -1.3376E-05
DataValue, -0.056, -0.1, -1.6322E-05
DataValue, -0.068, -0.1, -1.9014E-05
DataValue, -0.08, -0.1, -2.1340000000000002E-05
DataValue, -0.092, -0.1, -2.3446000000000002E-05
DataValue, -0.10400000000000001, -0.1, -2.5390000000000003E-05
DataValue, -0.116, -0.1, -2.7062E-05
DataValue, -0.128, -0.1, -2.8488000000000002E-05
DataValue, -0.14, -0.1, -2.9758000000000002E-05
DataValue, -0.152, -0.1, -3.0908E-05
DataValue, -0.164, -0.1, -3.1858E-05
DataValue, -0.17600000000000002, -0.1, -3.262E-05
DataValue, -0.188, -0.1, -3.3368E-05
DataValue, -0.2, -0.1, -3.4004E-05
DataValue, -0.21200000000000002, -0.1, -3.4476E-05
DataValue, -0.224, -0.1, -3.485E-05
DataValue, -0.23600000000000002, -0.1, -3.5276E-05
DataValue, -0.248, -0.1, -3.5584000000000004E-05
DataValue, -0.26, -0.1, -3.5766E-05
DataValue, -0.272, -0.1, -3.5966E-05
DataValue, -0.28400000000000003, -0.1, -3.62E-05
DataValue, -0.29600000000000004, -0.1, -3.6338000000000003E-05
DataValue, -0.308, -0.1, -3.6416E-05
DataValue, -0.32, -0.1, -3.6558000000000005E-05
DataValue, -0.332, -0.1, -3.6704E-05
DataValue, -0.34400000000000003, -0.1, -3.6694E-05
DataValue, -0.35600000000000004, -0.1, -3.6792E-05
DataValue, -0.368, -0.1, -3.6904000000000004E-05
DataValue, -0.38, -0.1, -3.693E-05
DataValue, -0.392, -0.1, -3.6950000000000004E-05
DataValue, -0.404, -0.1, -3.7076E-05
DataValue, -0.41600000000000004, -0.1, -3.711E-05
DataValue, -0.42800000000000005, -0.1, -3.7142000000000005E-05
DataValue, -0.44, -0.1, -3.7168E-05
DataValue, -0.452, -0.1, -3.7234E-05
DataValue, -0.464, -0.1, -3.7234E-05
DataValue, -0.47600000000000003, -0.1, -3.727E-05
DataValue, -0.48800000000000004, -0.1, -3.7364000000000003E-05
DataValue, -0.5, -0.1, -3.7382E-05
DataValue, -0.5, -0.1, -3.7296000000000003E-05
DataValue, -0.48800000000000004, -0.1, -3.722E-05
DataValue, -0.47600000000000003, -0.1, -3.7188000000000004E-05
DataValue, -0.464, -0.1, -3.7094E-05
DataValue, -0.452, -0.1, -3.6976E-05
DataValue, -0.44, -0.1, -3.6884E-05
DataValue, -0.42800000000000005, -0.1, -3.6846E-05
DataValue, -0.41600000000000004, -0.1, -3.6758E-05
DataValue, -0.404, -0.1, -3.6608E-05
DataValue, -0.392, -0.1, -3.6552E-05
DataValue, -0.38, -0.1, -3.6486E-05
DataValue, -0.368, -0.1, -3.6364E-05
DataValue, -0.35600000000000004, -0.1, -3.6222E-05
DataValue, -0.34400000000000003, -0.1, -3.6142E-05
DataValue, -0.332, -0.1, -3.6032E-05
DataValue, -0.32, -0.1, -3.5864E-05
DataValue, -0.308, -0.1, -3.5648E-05
DataValue, -0.29600000000000004, -0.1, -3.5546E-05
DataValue, -0.28400000000000003, -0.1, -3.537E-05
DataValue, -0.272, -0.1, -3.5114E-05
DataValue, -0.26, -0.1, -3.4854E-05
DataValue, -0.248, -0.1, -3.4586000000000004E-05
DataValue, -0.23600000000000002, -0.1, -3.4256E-05
DataValue, -0.224, -0.1, -3.3842E-05
DataValue, -0.21200000000000002, -0.1, -3.3408E-05
DataValue, -0.2, -0.1, -3.2918E-05
DataValue, -0.188, -0.1, -3.2306E-05
DataValue, -0.17600000000000002, -0.1, -3.1542000000000004E-05
DataValue, -0.164, -0.1, -3.074E-05
DataValue, -0.152, -0.1, -2.9898E-05
DataValue, -0.14, -0.1, -2.8796E-05
DataValue, -0.128, -0.1, -2.7496000000000002E-05
DataValue, -0.116, -0.1, -2.6144000000000002E-05
DataValue, -0.10400000000000001, -0.1, -2.4602E-05
DataValue, -0.092, -0.1, -2.2760000000000002E-05
DataValue, -0.08, -0.1, -2.0704E-05
DataValue, -0.068, -0.1, -1.8442E-05
DataValue, -0.056, -0.1, -1.595E-05
DataValue, -0.044000000000000004, -0.1, -1.3118E-05
DataValue, -0.032, -0.1, -1.00268E-05
DataValue, -0.02, -0.1, -6.588E-06
DataValue, -0.008, -0.1, -2.7333E-06
DataValue, 0.004, -0.1, 1.4143000000000002E-06
DataValue, 0.016, -0.1, 5.9026000000000009E-06
DataValue, 0.028, -0.1, 1.0873E-05
DataValue, 0.04, -0.1, 1.6366000000000002E-05
DataValue, 0.052000000000000005, -0.1, 2.213E-05
DataValue, 0.064, -0.1, 2.8352000000000002E-05
DataValue, 0.076, -0.1, 3.5006E-05
DataValue, 0.088000000000000009, -0.1, 4.203E-05
DataValue, 0.1, -0.1, 4.9586E-05
DataValue, 0.1, -0.2, 8.070600000000001E-05
DataValue, 0.088000000000000009, -0.2, 6.988E-05
DataValue, 0.076, -0.2, 5.927E-05
DataValue, 0.064, -0.2, 4.886E-05
DataValue, 0.052000000000000005, -0.2, 3.8862E-05
