
SetupTitle, (c1) Output curve in LGP
PrimitiveTest, I/V Sweep
TestParameter, Context.MainFrame, B1500A
TestParameter, Channel.UnitType, SMU, SMU
TestParameter, Channel.Unit, SMU1:HR/AS, SMU2:HR/AS
TestParameter, Channel.IName, Ig, Id
TestParameter, Channel.VName, Vg, Vd
TestParameter, Channel.Mode, V, V
TestParameter, Channel.Func, VAR2, VAR1
TestParameter, Channel.Index, 
TestParameter, Channel.Time, 
TestParameter, Measurement.Port.Unit, SMU1:HR/AS, SMU2:HR/AS
TestParameter, Measurement.Port.SeriesResistor, NONE, NONE
TestParameter, Measurement.Port.Filter, ON, ON
TestParameter, Measurement.Port.OutputVoltageComparison, 0, 0
TestParameter, Measurement.Primary.Locus, Double
TestParameter, Measurement.Primary.Scale, LINEAR
TestParameter, Measurement.Primary.Start, 0.1
TestParameter, Measurement.Primary.Stop, -0.5
TestParameter, Measurement.Primary.Step, -0.012
TestParameter, Measurement.Primary.Compliance, 0.1
TestParameter, Measurement.Primary.PowerCompliance, 0
TestParameter, Measurement.Aborting.Condition, CONTINUE AT ANY
TestParameter, Measurement.PostOutput.Value, START
TestParameter, Measurement.PostOutput.Retention, OFF
TestParameter, Measurement.Secondary.Start, 0.1
TestParameter, Measurement.Secondary.Count, 6
TestParameter, Measurement.Secondary.Step, -0.1
TestParameter, Measurement.Secondary.Compliance, 0.0001
TestParameter, Measurement.Secondary.PowerCompliance, 0
TestParameter, Measurement.Bias.Source, 0.1, 0.1
TestParameter, Measurement.Bias.Compliance, 0.0001, 0.1
TestParameter, Measurement.Monitor.Unit, SMU1:HR/AS, SMU2:HR/AS
TestParameter, Measurement.Monitor.Adc, HR ADC, HR ADC
TestParameter, Measurement.Monitor.Measurement, Compliance Side, Compliance Side
TestParameter, Measurement.Monitor.RangingMode, LIMITED, LIMITED
TestParameter, Measurement.Monitor.RangeBoundary, 1nA, 1nA
TestParameter, Measurement.Monitor.RangeRating, BY FULL RANGE, BY FULL RANGE
TestParameter, Measurement.Monitor.RangeRatingCoeff, 50, 50
TestParameter, Measurement.Timing.Hold, 0
TestParameter, Measurement.Timing.Delay, 0
TestParameter, Measurement.Adc.HighSpeed.Mode, AUTO
TestParameter, Measurement.Adc.HighSpeed.Coeff, 1
TestParameter, Measurement.Adc.HighResolution.AutoZero, OFF
TestParameter, Measurement.Adc.HighResolution.Mode, AUTO
TestParameter, Measurement.Adc.HighResolution.Coeff, 6
TestParameter, Measurement.WaitTime.Source.Coeff, 1
TestParameter, Measurement.WaitTime.Source.Offset, 0
TestParameter, Measurement.WaitTime.Monitor.Coeff, 1
TestParameter, Measurement.WaitTime.Monitor.Offset, 0
TestParameter, Output.Graph.Enabled, true
TestParameter, Output.Graph.AutoScaling, false
TestParameter, Output.Graph.XAxis.Data, Vd
TestParameter, Output.Graph.XAxis.Scale, Linear
TestParameter, Output.Graph.XAxis.Left, 0
TestParameter, Output.Graph.XAxis.Right, -0.5
TestParameter, Output.Graph.XAxis.RunTimeAutoScale, true
TestParameter, Output.Graph.YAxis.Data, Id
TestParameter, Output.Graph.YAxis.Scale, Linear
TestParameter, Output.Graph.YAxis.Bottom, -0.1
TestParameter, Output.Graph.YAxis.Top, 0.1
TestParameter, Output.Graph.YAxis.Group, 
TestParameter, Output.Graph.YAxis.RunTimeAutoScale, true
TestParameter, Output.List.Data, Vd, Vg, Id
TestParameter, AutoAnalysis.Interpolation, false
TestParameter, AutoAnalysis.Var2StepCount, 1
TestParameter, AutoAnalysis.Var2StepScript, 
TestParameter, AutoAnalysis.Line1.Enabled, false
TestParameter, AutoAnalysis.Line1.Type, 1
TestParameter, AutoAnalysis.Line1.Fix, True
TestParameter, AutoAnalysis.Line1.YAxis, 0
TestParameter, AutoAnalysis.Line1.Point1.Type, 0
TestParameter, AutoAnalysis.Line1.Point1.XY.X, 
TestParameter, AutoAnalysis.Line1.Point1.XY.Y, 
TestParameter, AutoAnalysis.Line1.Point1.Data.Var, 
TestParameter, AutoAnalysis.Line1.Point1.Data.Condition, 
TestParameter, AutoAnalysis.Line1.Point1.Data.Start, false
TestParameter, AutoAnalysis.Line1.Point1.Data.StartVar, 
TestParameter, AutoAnalysis.Line1.Point1.Data.StartCondition, 
TestParameter, AutoAnalysis.Line1.Point2.Type, 0
TestParameter, AutoAnalysis.Line1.Point2.XY.X, 
TestParameter, AutoAnalysis.Line1.Point2.XY.Y, 
TestParameter, AutoAnalysis.Line1.Point2.Data.Var, 
TestParameter, AutoAnalysis.Line1.Point2.Data.Condition, 
TestParameter, AutoAnalysis.Line1.Point2.Data.Start, false
TestParameter, AutoAnalysis.Line1.Point2.Data.StartVar, 
TestParameter, AutoAnalysis.Line1.Point2.Data.StartCondition, 
TestParameter, AutoAnalysis.Line1.GradientExpr, 0
TestParameter, AutoAnalysis.Line2.Enabled, false
TestParameter, AutoAnalysis.Line2.Type, 1
TestParameter, AutoAnalysis.Line2.Fix, True
TestParameter, AutoAnalysis.Line2.YAxis, 0
TestParameter, AutoAnalysis.Line2.Point1.Type, 0
TestParameter, AutoAnalysis.Line2.Point1.XY.X, 
TestParameter, AutoAnalysis.Line2.Point1.XY.Y, 
TestParameter, AutoAnalysis.Line2.Point1.Data.Var, 
TestParameter, AutoAnalysis.Line2.Point1.Data.Condition, 
TestParameter, AutoAnalysis.Line2.Point1.Data.Start, false
TestParameter, AutoAnalysis.Line2.Point1.Data.StartVar, 
TestParameter, AutoAnalysis.Line2.Point1.Data.StartCondition, 
TestParameter, AutoAnalysis.Line2.Point2.Type, 0
TestParameter, AutoAnalysis.Line2.Point2.XY.X, 
TestParameter, AutoAnalysis.Line2.Point2.XY.Y, 
TestParameter, AutoAnalysis.Line2.Point2.Data.Var, 
TestParameter, AutoAnalysis.Line2.Point2.Data.Condition, 
TestParameter, AutoAnalysis.Line2.Point2.Data.Start, false
TestParameter, AutoAnalysis.Line2.Point2.Data.StartVar, 
TestParameter, AutoAnalysis.Line2.Point2.Data.StartCondition, 
TestParameter, AutoAnalysis.Line2.GradientExpr, 0
TestParameter, AutoAnalysis.Marker.Enabled, false
TestParameter, AutoAnalysis.Marker.Data.Var, 
TestParameter, AutoAnalysis.Marker.Data.Condition, 
TestParameter, AutoAnalysis.Marker.Data.Start, false
TestParameter, AutoAnalysis.Marker.Data.StartVar, 
TestParameter, AutoAnalysis.Marker.Data.StartCondition, 
MetaData, TestRecord.EntryPoint, true
MetaData, TestRecord.RecordTime, 12/22/2024 05:35:06
MetaData, TestRecord.TestTarget, 
MetaData, TestRecord.IterationIndex, 1
MetaData, TestRecord.Preservation, true
MetaData, TestRecord.Flag, 
MetaData, TestRecord.Remarks, 1.25wt-s21c4
MetaData, TestRecord.LinkKey, 51787aa9-88f1-4d29-b441-709eecbcaec9
MetaData, TestRecord.Parameters, 
Dimension1, 102, 102, 102
Dimension2, 6, 6, 6
DataName, Vd, Vg, Id
DataValue, 0.1, 0.1, 1.4876000000000001E-05
DataValue, 0.088000000000000009, 0.1, 1.2326E-05
DataValue, 0.076, 0.1, 1.0006E-05
DataValue, 0.064, 0.1, 7.823700000000001E-06
DataValue, 0.052000000000000005, 0.1, 5.9767000000000007E-06
DataValue, 0.04, 0.1, 4.2582E-06
DataValue, 0.028, 0.1, 2.7544000000000003E-06
DataValue, 0.016, 0.1, 1.4858000000000002E-06
DataValue, 0.004, 0.1, 3.1126E-07
DataValue, -0.008, 0.1, -6.2316E-07
DataValue, -0.02, 0.1, -1.4125000000000002E-06
DataValue, -0.032, 0.1, -2.1479000000000002E-06
DataValue, -0.044000000000000004, 0.1, -2.7314000000000002E-06
DataValue, -0.056, 0.1, -3.1849E-06
DataValue, -0.068, 0.1, -3.6257000000000003E-06
DataValue, -0.08, 0.1, -3.9189000000000007E-06
DataValue, -0.092, 0.1, -4.1535E-06
DataValue, -0.10400000000000001, 0.1, -4.3974000000000005E-06
DataValue, -0.116, 0.1, -4.5442000000000005E-06
DataValue, -0.128, 0.1, -4.6269000000000005E-06
DataValue, -0.14, 0.1, -4.7631E-06
DataValue, -0.152, 0.1, -4.8111E-06
DataValue, -0.164, 0.1, -4.8103E-06
DataValue, -0.17600000000000002, 0.1, -4.9108000000000005E-06
DataValue, -0.188, 0.1, -4.9278000000000005E-06
DataValue, -0.2, 0.1, -4.9031000000000005E-06
DataValue, -0.21200000000000002, 0.1, -4.9675E-06
DataValue, -0.224, 0.1, -4.9656E-06
DataValue, -0.23600000000000002, 0.1, -4.9153E-06
DataValue, -0.248, 0.1, -4.9527000000000009E-06
DataValue, -0.26, 0.1, -4.9755000000000009E-06
DataValue, -0.272, 0.1, -4.9484000000000008E-06
DataValue, -0.28400000000000003, 0.1, -4.9609E-06
DataValue, -0.29600000000000004, 0.1, -4.9818E-06
DataValue, -0.308, 0.1, -4.9507000000000007E-06
DataValue, -0.32, 0.1, -4.9496000000000009E-06
DataValue, -0.332, 0.1, -4.9651E-06
DataValue, -0.34400000000000003, 0.1, -4.9358E-06
DataValue, -0.35600000000000004, 0.1, -4.9432E-06
DataValue, -0.368, 0.1, -4.9746000000000006E-06
DataValue, -0.38, 0.1, -4.9274000000000005E-06
DataValue, -0.392, 0.1, -4.9455E-06
DataValue, -0.404, 0.1, -4.9536E-06
DataValue, -0.41600000000000004, 0.1, -4.9081000000000005E-06
DataValue, -0.42800000000000005, 0.1, -4.9435E-06
DataValue, -0.44, 0.1, -4.9506000000000005E-06
DataValue, -0.452, 0.1, -4.9070000000000006E-06
DataValue, -0.464, 0.1, -4.9098000000000008E-06
DataValue, -0.47600000000000003, 0.1, -4.9654000000000008E-06
DataValue, -0.48800000000000004, 0.1, -4.9170000000000005E-06
DataValue, -0.5, 0.1, -4.9431E-06
DataValue, -0.5, 0.1, -4.9698E-06
DataValue, -0.48800000000000004, 0.1, -4.9090000000000008E-06
DataValue, -0.47600000000000003, 0.1, -4.8871E-06
DataValue, -0.464, 0.1, -4.9040000000000008E-06
DataValue, -0.452, 0.1, -4.8461E-06
DataValue, -0.44, 0.1, -4.8342E-06
DataValue, -0.42800000000000005, 0.1, -4.8579000000000005E-06
DataValue, -0.41600000000000004, 0.1, -4.8287000000000009E-06
DataValue, -0.404, 0.1, -4.7854000000000008E-06
DataValue, -0.392, 0.1, -4.7884000000000006E-06
DataValue, -0.38, 0.1, -4.7932E-06
DataValue, -0.368, 0.1, -4.7307E-06
DataValue, -0.35600000000000004, 0.1, -4.7190000000000009E-06
DataValue, -0.34400000000000003, 0.1, -4.7331000000000005E-06
DataValue, -0.332, 0.1, -4.6753000000000008E-06
DataValue, -0.32, 0.1, -4.6402E-06
DataValue, -0.308, 0.1, -4.675E-06
DataValue, -0.29600000000000004, 0.1, -4.6371000000000009E-06
DataValue, -0.28400000000000003, 0.1, -4.5882E-06
DataValue, -0.272, 0.1, -4.6103000000000006E-06
DataValue, -0.26, 0.1, -4.5736000000000006E-06
DataValue, -0.248, 0.1, -4.5125E-06
DataValue, -0.23600000000000002, 0.1, -4.5166E-06
DataValue, -0.224, 0.1, -4.4966E-06
DataValue, -0.21200000000000002, 0.1, -4.4129000000000006E-06
DataValue, -0.2, 0.1, -4.4224E-06
DataValue, -0.188, 0.1, -4.3889000000000004E-06
DataValue, -0.17600000000000002, 0.1, -4.2856E-06
DataValue, -0.164, 0.1, -4.2382E-06
DataValue, -0.152, 0.1, -4.1853E-06
DataValue, -0.14, 0.1, -4.0563000000000004E-06
DataValue, -0.128, 0.1, -3.9703000000000008E-06
DataValue, -0.116, 0.1, -3.8743E-06
DataValue, -0.10400000000000001, 0.1, -3.6905000000000005E-06
DataValue, -0.092, 0.1, -3.5323000000000005E-06
DataValue, -0.08, 0.1, -3.2964000000000003E-06
DataValue, -0.068, 0.1, -2.99E-06
DataValue, -0.056, 0.1, -2.6962E-06
DataValue, -0.044000000000000004, 0.1, -2.2764000000000003E-06
DataValue, -0.032, 0.1, -1.7603000000000001E-06
DataValue, -0.02, 0.1, -1.2236E-06
DataValue, -0.008, 0.1, -5.1208E-07
DataValue, 0.004, 0.1, 2.6786E-07
DataValue, 0.016, 0.1, 1.2402000000000002E-06
DataValue, 0.028, 0.1, 2.4029000000000003E-06
DataValue, 0.04, 0.1, 3.6665000000000004E-06
DataValue, 0.052000000000000005, 0.1, 5.1161000000000009E-06
DataValue, 0.064, 0.1, 6.8450000000000005E-06
DataValue, 0.076, 0.1, 8.7380000000000017E-06
DataValue, 0.088000000000000009, 0.1, 1.0852E-05
DataValue, 0.1, 0.1, 1.3500000000000001E-05
DataValue, 0.1, 0, 3.2796E-05
DataValue, 0.088000000000000009, 0, 2.7716E-05
DataValue, 0.076, 0, 2.291E-05
DataValue, 0.064, 0, 1.848E-05
DataValue, 0.052000000000000005, 0, 1.4346000000000001E-05
DataValue, 0.04, 0, 1.0476000000000001E-05
DataValue, 0.028, 0, 7.0132000000000009E-06
DataValue, 0.016, 0, 3.7970000000000002E-06
DataValue, 0.004, 0, 9.0638E-07
DataValue, -0.008, 0, -1.7229000000000003E-06
DataValue, -0.02, 0, -4.1472000000000007E-06
DataValue, -0.032, 0, -6.2327000000000005E-06
DataValue, -0.044000000000000004, 0, -8.1384000000000016E-06
DataValue, -0.056, 0, -9.8753000000000018E-06
DataValue, -0.068, 0, -1.1315400000000002E-05
DataValue, -0.08, 0, -1.2566E-05
DataValue, -0.092, 0, -1.3706E-05
DataValue, -0.10400000000000001, 0, -1.4662000000000001E-05
DataValue, -0.116, 0, -1.5602E-05
DataValue, -0.128, 0, -1.6362E-05
DataValue, -0.14, 0, -1.6942E-05
DataValue, -0.152, 0, -1.7476E-05
DataValue, -0.164, 0, -1.7966E-05
DataValue, -0.17600000000000002, 0, -1.8390000000000002E-05
DataValue, -0.188, 0, -1.8658E-05
DataValue, -0.2, 0, -1.8916E-05
DataValue, -0.21200000000000002, 0, -1.919E-05
DataValue, -0.224, 0, -1.94E-05
DataValue, -0.23600000000000002, 0, -1.9518000000000002E-05
DataValue, -0.248, 0, -1.97E-05
DataValue, -0.26, 0, -1.9864E-05
DataValue, -0.272, 0, -1.9928E-05
DataValue, -0.28400000000000003, 0, -1.9986E-05
DataValue, -0.29600000000000004, 0, -2.0088E-05
DataValue, -0.308, 0, -2.018E-05
DataValue, -0.32, 0, -2.0216E-05
DataValue, -0.332, 0, -2.0258E-05
DataValue, -0.34400000000000003, 0, -2.037E-05
DataValue, -0.35600000000000004, 0, -2.0432E-05
DataValue, -0.368, 0, -2.0428E-05
DataValue, -0.38, 0, -2.0476000000000002E-05
DataValue, -0.392, 0, -2.0558000000000002E-05
DataValue, -0.404, 0, -2.0604E-05
DataValue, -0.41600000000000004, 0, -2.0566E-05
DataValue, -0.42800000000000005, 0, -2.061E-05
DataValue, -0.44, 0, -2.069E-05
DataValue, -0.452, 0, -2.0736E-05
DataValue, -0.464, 0, -2.0732E-05
DataValue, -0.47600000000000003, 0, -2.0828E-05
DataValue, -0.48800000000000004, 0, -2.0826E-05
DataValue, -0.5, 0, -2.0816000000000002E-05
DataValue, -0.5, 0, -2.0758E-05
DataValue, -0.48800000000000004, 0, -2.0742000000000002E-05
DataValue, -0.47600000000000003, 0, -2.0688E-05
DataValue, -0.464, 0, -2.058E-05
DataValue, -0.452, 0, -2.0528E-05
DataValue, -0.44, 0, -2.0482E-05
DataValue, -0.42800000000000005, 0, -2.0314000000000002E-05
DataValue, -0.41600000000000004, 0, -2.0324E-05
DataValue, -0.404, 0, -2.0196E-05
DataValue, -0.392, 0, -2.0194E-05
DataValue, -0.38, 0, -2.0098E-05
DataValue, -0.368, 0, -2.0084E-05
DataValue, -0.35600000000000004, 0, -1.9974000000000002E-05
DataValue, -0.34400000000000003, 0, -1.9908E-05
DataValue, -0.332, 0, -1.9822E-05
DataValue, -0.32, 0, -1.9758E-05
DataValue, -0.308, 0, -1.9652E-05
DataValue, -0.29600000000000004, 0, -1.957E-05
DataValue, -0.28400000000000003, 0, -1.9506E-05
DataValue, -0.272, 0, -1.929E-05
DataValue, -0.26, 0, -1.916E-05
DataValue, -0.248, 0, -1.9050000000000002E-05
DataValue, -0.23600000000000002, 0, -1.884E-05
DataValue, -0.224, 0, -1.863E-05
DataValue, -0.21200000000000002, 0, -1.8494E-05
DataValue, -0.2, 0, -1.8272E-05
DataValue, -0.188, 0, -1.7948E-05
DataValue, -0.17600000000000002, 0, -1.7602000000000002E-05
DataValue, -0.164, 0, -1.7236E-05
DataValue, -0.152, 0, -1.6736E-05
DataValue, -0.14, 0, -1.6156E-05
DataValue, -0.128, 0, -1.5602E-05
DataValue, -0.116, 0, -1.4938E-05
DataValue, -0.10400000000000001, 0, -1.4104E-05
DataValue, -0.092, 0, -1.3124E-05
DataValue, -0.08, 0, -1.2088E-05
DataValue, -0.068, 0, -1.0866E-05
DataValue, -0.056, 0, -9.4441000000000016E-06
DataValue, -0.044000000000000004, 0, -7.8757000000000015E-06
DataValue, -0.032, 0, -6.0468E-06
DataValue, -0.02, 0, -3.9546E-06
DataValue, -0.008, 0, -1.6962000000000002E-06
DataValue, 0.004, 0, 8.9856E-07
DataValue, 0.016, 0, 3.8105E-06
DataValue, 0.028, 0, 6.958800000000001E-06
DataValue, 0.04, 0, 1.0448900000000001E-05
DataValue, 0.052000000000000005, 0, 1.4458000000000001E-05
DataValue, 0.064, 0, 1.8594000000000002E-05
DataValue, 0.076, 0, 2.313E-05
DataValue, 0.088000000000000009, 0, 2.8064E-05
DataValue, 0.1, 0, 3.3358E-05
DataValue, 0.1, -0.1, 6.1774000000000009E-05
DataValue, 0.088000000000000009, -0.1, 5.2988E-05
DataValue, 0.076, -0.1, 4.4522E-05
DataValue, 0.064, -0.1, 3.6566E-05
DataValue, 0.052000000000000005, -0.1, 2.886E-05
DataValue, 0.04, -0.1, 2.15E-05
DataValue, 0.028, -0.1, 1.4608E-05
DataValue, 0.016, -0.1, 8.0658000000000016E-06
DataValue, 0.004, -0.1, 1.9003000000000003E-06
DataValue, -0.008, -0.1, -3.8299E-06
DataValue, -0.02, -0.1, -9.2835E-06
DataValue, -0.032, -0.1, -1.4232E-05
DataValue, -0.044000000000000004, -0.1, -1.8944E-05
DataValue, -0.056, -0.1, -2.3314E-05
DataValue, -0.068, -0.1, -2.7288E-05
DataValue, -0.08, -0.1, -3.0904E-05
DataValue, -0.092, -0.1, -3.4388000000000003E-05
DataValue, -0.10400000000000001, -0.1, -3.74E-05
DataValue, -0.116, -0.1, -4.006E-05
DataValue, -0.128, -0.1, -4.2688E-05
DataValue, -0.14, -0.1, -4.4938E-05
DataValue, -0.152, -0.1, -4.6828E-05
DataValue, -0.164, -0.1, -4.8604000000000004E-05
DataValue, -0.17600000000000002, -0.1, -5.0176E-05
DataValue, -0.188, -0.1, -5.1684E-05
DataValue, -0.2, -0.1, -5.2824E-05
DataValue, -0.21200000000000002, -0.1, -5.3906E-05
DataValue, -0.224, -0.1, -5.4804E-05
DataValue, -0.23600000000000002, -0.1, -5.5606E-05
DataValue, -0.248, -0.1, -5.6356E-05
DataValue, -0.26, -0.1, -5.7014E-05
DataValue, -0.272, -0.1, -5.763E-05
DataValue, -0.28400000000000003, -0.1, -5.8018E-05
DataValue, -0.29600000000000004, -0.1, -5.8426E-05
DataValue, -0.308, -0.1, -5.886E-05
DataValue, -0.32, -0.1, -5.9166E-05
DataValue, -0.332, -0.1, -5.9424E-05
DataValue, -0.34400000000000003, -0.1, -5.9746E-05
DataValue, -0.35600000000000004, -0.1, -5.9976E-05
DataValue, -0.368, -0.1, -6.0228E-05
DataValue, -0.38, -0.1, -6.0308E-05
DataValue, -0.392, -0.1, -6.063E-05
DataValue, -0.404, -0.1, -6.0832E-05
DataValue, -0.41600000000000004, -0.1, -6.0864000000000005E-05
DataValue, -0.42800000000000005, -0.1, -6.1196E-05
DataValue, -0.44, -0.1, -6.1208E-05
DataValue, -0.452, -0.1, -6.1388E-05
DataValue, -0.464, -0.1, -6.1346E-05
DataValue, -0.47600000000000003, -0.1, -6.167E-05
DataValue, -0.48800000000000004, -0.1, -6.163E-05
DataValue, -0.5, -0.1, -6.1552E-05
DataValue, -0.5, -0.1, -6.1528E-05
DataValue, -0.48800000000000004, -0.1, -6.1356E-05
DataValue, -0.47600000000000003, -0.1, -6.1226E-05
DataValue, -0.464, -0.1, -6.098E-05
DataValue, -0.452, -0.1, -6.079E-05
DataValue, -0.44, -0.1, -6.0544E-05
DataValue, -0.42800000000000005, -0.1, -6.0264000000000004E-05
DataValue, -0.41600000000000004, -0.1, -6.0072000000000004E-05
DataValue, -0.404, -0.1, -5.9892E-05
DataValue, -0.392, -0.1, -5.9664E-05
DataValue, -0.38, -0.1, -5.9456E-05
DataValue, -0.368, -0.1, -5.918E-05
DataValue, -0.35600000000000004, -0.1, -5.8836000000000004E-05
DataValue, -0.34400000000000003, -0.1, -5.859E-05
DataValue, -0.332, -0.1, -5.8174E-05
DataValue, -0.32, -0.1, -5.7694E-05
DataValue, -0.308, -0.1, -5.736E-05
DataValue, -0.29600000000000004, -0.1, -5.6982000000000004E-05
DataValue, -0.28400000000000003, -0.1, -5.6376000000000004E-05
DataValue, -0.272, -0.1, -5.5774000000000005E-05
DataValue, -0.26, -0.1, -5.5352E-05
DataValue, -0.248, -0.1, -5.4728E-05
DataValue, -0.23600000000000002, -0.1, -5.3902E-05
DataValue, -0.224, -0.1, -5.2900000000000005E-05
DataValue, -0.21200000000000002, -0.1, -5.2108E-05
DataValue, -0.2, -0.1, -5.0940000000000004E-05
DataValue, -0.188, -0.1, -4.9762E-05
DataValue, -0.17600000000000002, -0.1, -4.8338000000000004E-05
DataValue, -0.164, -0.1, -4.676E-05
DataValue, -0.152, -0.1, -4.517E-05
DataValue, -0.14, -0.1, -4.33E-05
DataValue, -0.128, -0.1, -4.1138E-05
DataValue, -0.116, -0.1, -3.8806E-05
DataValue, -0.10400000000000001, -0.1, -3.6142E-05
DataValue, -0.092, -0.1, -3.3156E-05
DataValue, -0.08, -0.1, -3.0014E-05
DataValue, -0.068, -0.1, -2.6538000000000002E-05
DataValue, -0.056, -0.1, -2.2694E-05
DataValue, -0.044000000000000004, -0.1, -1.8478E-05
DataValue, -0.032, -0.1, -1.3946E-05
DataValue, -0.02, -0.1, -9.0896E-06
DataValue, -0.008, -0.1, -3.751E-06
DataValue, 0.004, -0.1, 1.8809000000000003E-06
DataValue, 0.016, -0.1, 8.0027E-06
DataValue, 0.028, -0.1, 1.4626E-05
DataValue, 0.04, -0.1, 2.1488E-05
DataValue, 0.052000000000000005, -0.1, 2.8892E-05
DataValue, 0.064, -0.1, 3.6664E-05
DataValue, 0.076, -0.1, 4.4772000000000004E-05
DataValue, 0.088000000000000009, -0.1, 5.3388000000000005E-05
DataValue, 0.1, -0.1, 6.2372E-05
DataValue, 0.1, -0.2, 9.2438E-05
DataValue, 0.088000000000000009, -0.2, 8.03E-05
DataValue, 0.076, -0.2, 6.8556E-05
DataValue, 0.064, -0.2, 5.6880000000000004E-05
DataValue, 0.052000000000000005, -0.2, 4.549E-05
DataValue, 0.04, -0.2, 3.4426E-05
DataValue, 0.028, -0.2, 2.3726E-05
DataValue, 0.016, -0.2, 1.3258E-05
DataValue, 0.004, -0.2, 3.2393000000000005E-06
DataValue, -0.008, -0.2, -6.5298000000000006E-06
DataValue, -0.02, -0.2, -1.586E-05
DataValue, -0.032, -0.2, -2.4818000000000002E-05
