
SetupTitle, (c1) Output curve in LGP
PrimitiveTest, I/V Sweep
TestParameter, Context.MainFrame, B1500A
TestParameter, Channel.UnitType, SMU, SMU
TestParameter, Channel.Unit, SMU1:HR/AS, SMU2:HR/AS
TestParameter, Channel.IName, Ig, Id
TestParameter, Channel.VName, Vg, Vd
TestParameter, Channel.Mode, V, V
TestParameter, Channel.Func, VAR2, VAR1
TestParameter, Channel.Index, 
TestParameter, Channel.Time, 
TestParameter, Measurement.Port.Unit, SMU1:HR/AS, SMU2:HR/AS
TestParameter, Measurement.Port.SeriesResistor, NONE, NONE
TestParameter, Measurement.Port.Filter, ON, ON
TestParameter, Measurement.Port.OutputVoltageComparison, 0, 0
TestParameter, Measurement.Primary.Locus, Double
TestParameter, Measurement.Primary.Scale, LINEAR
TestParameter, Measurement.Primary.Start, 0.1
TestParameter, Measurement.Primary.Stop, -0.5
TestParameter, Measurement.Primary.Step, -0.012
TestParameter, Measurement.Primary.Compliance, 0.1
TestParameter, Measurement.Primary.PowerCompliance, 0
TestParameter, Measurement.Aborting.Condition, CONTINUE AT ANY
TestParameter, Measurement.PostOutput.Value, START
TestParameter, Measurement.PostOutput.Retention, OFF
TestParameter, Measurement.Secondary.Start, 0.1
TestParameter, Measurement.Secondary.Count, 6
TestParameter, Measurement.Secondary.Step, -0.1
TestParameter, Measurement.Secondary.Compliance, 0.0001
TestParameter, Measurement.Secondary.PowerCompliance, 0
TestParameter, Measurement.Bias.Source, 0.1, 0.1
TestParameter, Measurement.Bias.Compliance, 0.0001, 0.1
TestParameter, Measurement.Monitor.Unit, SMU1:HR/AS, SMU2:HR/AS
TestParameter, Measurement.Monitor.Adc, HR ADC, HR ADC
TestParameter, Measurement.Monitor.Measurement, Compliance Side, Compliance Side
TestParameter, Measurement.Monitor.RangingMode, LIMITED, LIMITED
TestParameter, Measurement.Monitor.RangeBoundary, 1nA, 1nA
TestParameter, Measurement.Monitor.RangeRating, BY FULL RANGE, BY FULL RANGE
TestParameter, Measurement.Monitor.RangeRatingCoeff, 50, 50
TestParameter, Measurement.Timing.Hold, 0
TestParameter, Measurement.Timing.Delay, 0
TestParameter, Measurement.Adc.HighSpeed.Mode, AUTO
TestParameter, Measurement.Adc.HighSpeed.Coeff, 1
TestParameter, Measurement.Adc.HighResolution.AutoZero, OFF
TestParameter, Measurement.Adc.HighResolution.Mode, AUTO
TestParameter, Measurement.Adc.HighResolution.Coeff, 6
TestParameter, Measurement.WaitTime.Source.Coeff, 1
TestParameter, Measurement.WaitTime.Source.Offset, 0
TestParameter, Measurement.WaitTime.Monitor.Coeff, 1
TestParameter, Measurement.WaitTime.Monitor.Offset, 0
TestParameter, Output.Graph.Enabled, true
TestParameter, Output.Graph.AutoScaling, false
TestParameter, Output.Graph.XAxis.Data, Vd
TestParameter, Output.Graph.XAxis.Scale, Linear
TestParameter, Output.Graph.XAxis.Left, 0
TestParameter, Output.Graph.XAxis.Right, -0.5
TestParameter, Output.Graph.XAxis.RunTimeAutoScale, true
TestParameter, Output.Graph.YAxis.Data, Id
TestParameter, Output.Graph.YAxis.Scale, Linear
TestParameter, Output.Graph.YAxis.Bottom, -0.1
TestParameter, Output.Graph.YAxis.Top, 0.1
TestParameter, Output.Graph.YAxis.Group, 
TestParameter, Output.Graph.YAxis.RunTimeAutoScale, true
TestParameter, Output.List.Data, Vd, Vg, Id
TestParameter, AutoAnalysis.Interpolation, false
TestParameter, AutoAnalysis.Var2StepCount, 1
TestParameter, AutoAnalysis.Var2StepScript, 
TestParameter, AutoAnalysis.Line1.Enabled, false
TestParameter, AutoAnalysis.Line1.Type, 1
TestParameter, AutoAnalysis.Line1.Fix, True
TestParameter, AutoAnalysis.Line1.YAxis, 0
TestParameter, AutoAnalysis.Line1.Point1.Type, 0
TestParameter, AutoAnalysis.Line1.Point1.XY.X, 
TestParameter, AutoAnalysis.Line1.Point1.XY.Y, 
TestParameter, AutoAnalysis.Line1.Point1.Data.Var, 
TestParameter, AutoAnalysis.Line1.Point1.Data.Condition, 
TestParameter, AutoAnalysis.Line1.Point1.Data.Start, false
TestParameter, AutoAnalysis.Line1.Point1.Data.StartVar, 
TestParameter, AutoAnalysis.Line1.Point1.Data.StartCondition, 
TestParameter, AutoAnalysis.Line1.Point2.Type, 0
TestParameter, AutoAnalysis.Line1.Point2.XY.X, 
TestParameter, AutoAnalysis.Line1.Point2.XY.Y, 
TestParameter, AutoAnalysis.Line1.Point2.Data.Var, 
TestParameter, AutoAnalysis.Line1.Point2.Data.Condition, 
TestParameter, AutoAnalysis.Line1.Point2.Data.Start, false
TestParameter, AutoAnalysis.Line1.Point2.Data.StartVar, 
TestParameter, AutoAnalysis.Line1.Point2.Data.StartCondition, 
TestParameter, AutoAnalysis.Line1.GradientExpr, 0
TestParameter, AutoAnalysis.Line2.Enabled, false
TestParameter, AutoAnalysis.Line2.Type, 1
TestParameter, AutoAnalysis.Line2.Fix, True
TestParameter, AutoAnalysis.Line2.YAxis, 0
TestParameter, AutoAnalysis.Line2.Point1.Type, 0
TestParameter, AutoAnalysis.Line2.Point1.XY.X, 
TestParameter, AutoAnalysis.Line2.Point1.XY.Y, 
TestParameter, AutoAnalysis.Line2.Point1.Data.Var, 
TestParameter, AutoAnalysis.Line2.Point1.Data.Condition, 
TestParameter, AutoAnalysis.Line2.Point1.Data.Start, false
TestParameter, AutoAnalysis.Line2.Point1.Data.StartVar, 
TestParameter, AutoAnalysis.Line2.Point1.Data.StartCondition, 
TestParameter, AutoAnalysis.Line2.Point2.Type, 0
TestParameter, AutoAnalysis.Line2.Point2.XY.X, 
TestParameter, AutoAnalysis.Line2.Point2.XY.Y, 
TestParameter, AutoAnalysis.Line2.Point2.Data.Var, 
TestParameter, AutoAnalysis.Line2.Point2.Data.Condition, 
TestParameter, AutoAnalysis.Line2.Point2.Data.Start, false
TestParameter, AutoAnalysis.Line2.Point2.Data.StartVar, 
TestParameter, AutoAnalysis.Line2.Point2.Data.StartCondition, 
TestParameter, AutoAnalysis.Line2.GradientExpr, 0
TestParameter, AutoAnalysis.Marker.Enabled, false
TestParameter, AutoAnalysis.Marker.Data.Var, 
TestParameter, AutoAnalysis.Marker.Data.Condition, 
TestParameter, AutoAnalysis.Marker.Data.Start, false
TestParameter, AutoAnalysis.Marker.Data.StartVar, 
TestParameter, AutoAnalysis.Marker.Data.StartCondition, 
MetaData, TestRecord.EntryPoint, true
MetaData, TestRecord.RecordTime, 12/22/2024 05:36:16
MetaData, TestRecord.TestTarget, 
MetaData, TestRecord.IterationIndex, 3
MetaData, TestRecord.Preservation, true
MetaData, TestRecord.Flag, 
MetaData, TestRecord.Remarks, 1.25wt-s21c5
MetaData, TestRecord.LinkKey, c7321b34-8070-436c-bb08-e4f196956dc8
MetaData, TestRecord.Parameters, 
Dimension1, 102, 102, 102
Dimension2, 6, 6, 6
DataName, Vd, Vg, Id
DataValue, 0.1, 0.1, 0.00020762000000000002
DataValue, 0.088000000000000009, 0.1, 0.00017534
DataValue, 0.076, 0.1, 0.00014472
DataValue, 0.064, 0.1, 0.00011622000000000001
DataValue, 0.052000000000000005, 0.1, 8.9542E-05
DataValue, 0.04, 0.1, 6.5372E-05
DataValue, 0.028, 0.1, 4.3310000000000004E-05
DataValue, 0.016, 0.1, 2.33E-05
DataValue, 0.004, 0.1, 5.3491E-06
DataValue, -0.008, 0.1, -1.0351600000000001E-05
DataValue, -0.02, 0.1, -2.3538E-05
DataValue, -0.032, 0.1, -3.5024E-05
DataValue, -0.044000000000000004, 0.1, -4.4768E-05
DataValue, -0.056, 0.1, -5.2916E-05
DataValue, -0.068, 0.1, -5.9354E-05
DataValue, -0.08, 0.1, -6.439E-05
DataValue, -0.092, 0.1, -6.8366E-05
DataValue, -0.10400000000000001, 0.1, -7.116E-05
DataValue, -0.116, 0.1, -7.3190000000000009E-05
DataValue, -0.128, 0.1, -7.4656E-05
DataValue, -0.14, 0.1, -7.5536E-05
DataValue, -0.152, 0.1, -7.6024E-05
DataValue, -0.164, 0.1, -7.6404000000000009E-05
DataValue, -0.17600000000000002, 0.1, -7.6638000000000007E-05
DataValue, -0.188, 0.1, -7.6626000000000008E-05
DataValue, -0.2, 0.1, -7.6546000000000009E-05
DataValue, -0.21200000000000002, 0.1, -7.6644000000000007E-05
DataValue, -0.224, 0.1, -7.6556E-05
DataValue, -0.23600000000000002, 0.1, -7.6444E-05
DataValue, -0.248, 0.1, -7.6444E-05
DataValue, -0.26, 0.1, -7.6358E-05
DataValue, -0.272, 0.1, -7.6168E-05
DataValue, -0.28400000000000003, 0.1, -7.6158E-05
DataValue, -0.29600000000000004, 0.1, -7.6134E-05
DataValue, -0.308, 0.1, -7.5944E-05
DataValue, -0.32, 0.1, -7.5848E-05
DataValue, -0.332, 0.1, -7.5814E-05
DataValue, -0.34400000000000003, 0.1, -7.5704E-05
DataValue, -0.35600000000000004, 0.1, -7.5502E-05
DataValue, -0.368, 0.1, -7.5454E-05
DataValue, -0.38, 0.1, -7.5394E-05
DataValue, -0.392, 0.1, -7.5178E-05
DataValue, -0.404, 0.1, -7.5102E-05
DataValue, -0.41600000000000004, 0.1, -7.5098E-05
DataValue, -0.42800000000000005, 0.1, -7.4936E-05
DataValue, -0.44, 0.1, -7.4794E-05
DataValue, -0.452, 0.1, -7.4718E-05
DataValue, -0.464, 0.1, -7.4676E-05
DataValue, -0.47600000000000003, 0.1, -7.4500000000000008E-05
DataValue, -0.48800000000000004, 0.1, -7.4458E-05
DataValue, -0.5, 0.1, -7.444E-05
DataValue, -0.5, 0.1, -7.4332E-05
DataValue, -0.48800000000000004, 0.1, -7.409E-05
DataValue, -0.47600000000000003, 0.1, -7.3988E-05
DataValue, -0.464, 0.1, -7.3870000000000009E-05
DataValue, -0.452, 0.1, -7.3690000000000008E-05
DataValue, -0.44, 0.1, -7.3494E-05
DataValue, -0.42800000000000005, 0.1, -7.3444E-05
DataValue, -0.41600000000000004, 0.1, -7.3332000000000009E-05
DataValue, -0.404, 0.1, -7.3158E-05
DataValue, -0.392, 0.1, -7.3004000000000008E-05
DataValue, -0.38, 0.1, -7.2958E-05
DataValue, -0.368, 0.1, -7.2816E-05
DataValue, -0.35600000000000004, 0.1, -7.2596000000000008E-05
DataValue, -0.34400000000000003, 0.1, -7.241E-05
DataValue, -0.332, 0.1, -7.2324000000000008E-05
DataValue, -0.32, 0.1, -7.2088E-05
DataValue, -0.308, 0.1, -7.1786000000000007E-05
DataValue, -0.29600000000000004, 0.1, -7.161E-05
DataValue, -0.28400000000000003, 0.1, -7.1410000000000009E-05
DataValue, -0.272, 0.1, -7.1156000000000008E-05
DataValue, -0.26, 0.1, -7.0760000000000007E-05
DataValue, -0.248, 0.1, -7.0478E-05
DataValue, -0.23600000000000002, 0.1, -7.0306E-05
DataValue, -0.224, 0.1, -6.9852000000000008E-05
DataValue, -0.21200000000000002, 0.1, -6.9356E-05
DataValue, -0.2, 0.1, -6.9054E-05
DataValue, -0.188, 0.1, -6.855E-05
DataValue, -0.17600000000000002, 0.1, -6.7916E-05
DataValue, -0.164, 0.1, -6.7252E-05
DataValue, -0.152, 0.1, -6.6354000000000009E-05
DataValue, -0.14, 0.1, -6.5354E-05
DataValue, -0.128, 0.1, -6.4056E-05
DataValue, -0.116, 0.1, -6.2278E-05
DataValue, -0.10400000000000001, 0.1, -6.021E-05
DataValue, -0.092, 0.1, -5.761E-05
DataValue, -0.08, 0.1, -5.4034000000000005E-05
DataValue, -0.068, 0.1, -4.9664000000000004E-05
DataValue, -0.056, 0.1, -4.4410000000000003E-05
DataValue, -0.044000000000000004, 0.1, -3.7708E-05
DataValue, -0.032, 0.1, -2.9586E-05
DataValue, -0.02, 0.1, -2E-05
DataValue, -0.008, 0.1, -8.7865000000000013E-06
DataValue, 0.004, 0.1, 4.5919000000000009E-06
DataValue, 0.016, 0.1, 2.0044E-05
DataValue, 0.028, 0.1, 3.7448000000000005E-05
DataValue, 0.04, 0.1, 5.7E-05
DataValue, 0.052000000000000005, 0.1, 7.8568E-05
DataValue, 0.064, 0.1, 0.000102306
DataValue, 0.076, 0.1, 0.00012998
DataValue, 0.088000000000000009, 0.1, 0.00015816000000000002
DataValue, 0.1, 0.1, 0.00018862000000000002
DataValue, 0.1, 0, 0.00035578000000000004
DataValue, 0.088000000000000009, 0, 0.00030736
DataValue, 0.076, 0, 0.00026010000000000003
DataValue, 0.064, 0, 0.00021424
DataValue, 0.052000000000000005, 0, 0.00017020000000000002
DataValue, 0.04, 0, 0.00012788
DataValue, 0.028, 0, 8.7156E-05
DataValue, 0.016, 0, 4.8574E-05
DataValue, 0.004, 0, 1.1548E-05
DataValue, -0.008, 0, -2.342E-05
DataValue, -0.02, 0, -5.6250000000000005E-05
DataValue, -0.032, 0, -8.7086E-05
DataValue, -0.044000000000000004, 0, -0.00011566
DataValue, -0.056, 0, -0.00014246000000000002
DataValue, -0.068, 0, -0.00016700000000000002
DataValue, -0.08, 0, -0.00018946000000000002
DataValue, -0.092, 0, -0.00021008000000000002
DataValue, -0.10400000000000001, 0, -0.00022830000000000002
DataValue, -0.116, 0, -0.00024446
DataValue, -0.128, 0, -0.00025896000000000003
DataValue, -0.14, 0, -0.00027130000000000004
DataValue, -0.152, 0, -0.00028182
DataValue, -0.164, 0, -0.00029096
DataValue, -0.17600000000000002, 0, -0.00029868
DataValue, -0.188, 0, -0.00030466
DataValue, -0.2, 0, -0.0003097
DataValue, -0.21200000000000002, 0, -0.00031396
DataValue, -0.224, 0, -0.00031698
DataValue, -0.23600000000000002, 0, -0.00031948
DataValue, -0.248, 0, -0.00032174000000000005
DataValue, -0.26, 0, -0.00032322000000000004
DataValue, -0.272, 0, -0.00032436000000000005
DataValue, -0.28400000000000003, 0, -0.0003257
DataValue, -0.29600000000000004, 0, -0.00032658000000000003
DataValue, -0.308, 0, -0.00032714
DataValue, -0.32, 0, -0.00032788
DataValue, -0.332, 0, -0.00032858000000000003
DataValue, -0.34400000000000003, 0, -0.00032896
DataValue, -0.35600000000000004, 0, -0.00032934
DataValue, -0.368, 0, -0.00033008
DataValue, -0.38, 0, -0.00033026
DataValue, -0.392, 0, -0.00033046000000000003
DataValue, -0.404, 0, -0.00033096000000000004
DataValue, -0.41600000000000004, 0, -0.00033122
DataValue, -0.42800000000000005, 0, -0.00033128000000000004
DataValue, -0.44, 0, -0.00033156
DataValue, -0.452, 0, -0.00033186
DataValue, -0.464, 0, -0.00033174
DataValue, -0.47600000000000003, 0, -0.00033174
DataValue, -0.48800000000000004, 0, -0.00033194
DataValue, -0.5, 0, -0.00033194
DataValue, -0.5, 0, -0.00033166
DataValue, -0.48800000000000004, 0, -0.00033102
DataValue, -0.47600000000000003, 0, -0.00033064000000000005
DataValue, -0.464, 0, -0.00033012000000000004
DataValue, -0.452, 0, -0.00032940000000000004
DataValue, -0.44, 0, -0.00032896
DataValue, -0.42800000000000005, 0, -0.00032844000000000005
DataValue, -0.41600000000000004, 0, -0.00032758
DataValue, -0.404, 0, -0.00032696
DataValue, -0.392, 0, -0.00032632
DataValue, -0.38, 0, -0.00032544000000000003
DataValue, -0.368, 0, -0.00032450000000000003
DataValue, -0.35600000000000004, 0, -0.00032384000000000004
DataValue, -0.34400000000000003, 0, -0.00032292000000000003
DataValue, -0.332, 0, -0.00032176000000000004
DataValue, -0.32, 0, -0.00032072000000000003
DataValue, -0.308, 0, -0.00031974
DataValue, -0.29600000000000004, 0, -0.00031824
DataValue, -0.28400000000000003, 0, -0.0003168
DataValue, -0.272, 0, -0.00031528000000000003
DataValue, -0.26, 0, -0.00031340000000000003
DataValue, -0.248, 0, -0.00031098000000000003
DataValue, -0.23600000000000002, 0, -0.00030888000000000004
DataValue, -0.224, 0, -0.00030572
DataValue, -0.21200000000000002, 0, -0.0003019
DataValue, -0.2, 0, -0.00029780000000000003
DataValue, -0.188, 0, -0.00029278
DataValue, -0.17600000000000002, 0, -0.00028646
DataValue, -0.164, 0, -0.00027928
DataValue, -0.152, 0, -0.00027088000000000004
DataValue, -0.14, 0, -0.00026068
DataValue, -0.128, 0, -0.00024896
DataValue, -0.116, 0, -0.00023572000000000003
DataValue, -0.10400000000000001, 0, -0.00022040000000000002
DataValue, -0.092, 0, -0.00020290000000000003
DataValue, -0.08, 0, -0.00018372
DataValue, -0.068, 0, -0.00016236
DataValue, -0.056, 0, -0.00013876
DataValue, -0.044000000000000004, 0, -0.00011300000000000001
DataValue, -0.032, 0, -8.5520000000000008E-05
DataValue, -0.02, 0, -5.5112000000000004E-05
DataValue, -0.008, 0, -2.286E-05
DataValue, 0.004, 0, 1.1346000000000001E-05
DataValue, 0.016, 0, 4.7802E-05
DataValue, 0.028, 0, 8.6410000000000008E-05
DataValue, 0.04, 0, 0.00012782
DataValue, 0.052000000000000005, 0, 0.00017028
DataValue, 0.064, 0, 0.00021456
DataValue, 0.076, 0, 0.00026092000000000004
DataValue, 0.088000000000000009, 0, 0.00030896
DataValue, 0.1, 0, 0.00035866
DataValue, 0.1, -0.1, 0.00050868000000000007
DataValue, 0.088000000000000009, -0.1, 0.00044404000000000004
DataValue, 0.076, -0.1, 0.0003799
DataValue, 0.064, -0.1, 0.00031706000000000003
DataValue, 0.052000000000000005, -0.1, 0.00025514
DataValue, 0.04, -0.1, 0.00019398
DataValue, 0.028, -0.1, 0.00013418000000000002
DataValue, 0.016, -0.1, 7.5904E-05
DataValue, 0.004, -0.1, 1.8284E-05
DataValue, -0.008, -0.1, -3.7634E-05
DataValue, -0.02, -0.1, -9.2394E-05
DataValue, -0.032, -0.1, -0.00014548
DataValue, -0.044000000000000004, -0.1, -0.0001975
DataValue, -0.056, -0.1, -0.00024752000000000004
DataValue, -0.068, -0.1, -0.00029628
DataValue, -0.08, -0.1, -0.00034344000000000003
DataValue, -0.092, -0.1, -0.00038884
DataValue, -0.10400000000000001, -0.1, -0.00043192
DataValue, -0.116, -0.1, -0.00047348000000000003
DataValue, -0.128, -0.1, -0.00051338
DataValue, -0.14, -0.1, -0.0005509
DataValue, -0.152, -0.1, -0.00058672
DataValue, -0.164, -0.1, -0.00062074
DataValue, -0.17600000000000002, -0.1, -0.00065214000000000005
DataValue, -0.188, -0.1, -0.00068136
DataValue, -0.2, -0.1, -0.00070892
DataValue, -0.21200000000000002, -0.1, -0.00073386
DataValue, -0.224, -0.1, -0.0007567
DataValue, -0.23600000000000002, -0.1, -0.00077772000000000008
DataValue, -0.248, -0.1, -0.00079664
DataValue, -0.26, -0.1, -0.00081318
DataValue, -0.272, -0.1, -0.00082806
DataValue, -0.28400000000000003, -0.1, -0.00084124
DataValue, -0.29600000000000004, -0.1, -0.00085212
DataValue, -0.308, -0.1, -0.00086156
DataValue, -0.32, -0.1, -0.00086990000000000006
DataValue, -0.332, -0.1, -0.0008769
DataValue, -0.34400000000000003, -0.1, -0.00088236
DataValue, -0.35600000000000004, -0.1, -0.00088752
DataValue, -0.368, -0.1, -0.00089184000000000008
DataValue, -0.38, -0.1, -0.00089468
DataValue, -0.392, -0.1, -0.00089758
DataValue, -0.404, -0.1, -0.0009001800000000001
DataValue, -0.41600000000000004, -0.1, -0.00090192000000000007
DataValue, -0.42800000000000005, -0.1, -0.00090354000000000009
DataValue, -0.44, -0.1, -0.00090554
DataValue, -0.452, -0.1, -0.00090658
DataValue, -0.464, -0.1, -0.0009076
DataValue, -0.47600000000000003, -0.1, -0.00090900000000000009
DataValue, -0.48800000000000004, -0.1, -0.00090980000000000011
DataValue, -0.5, -0.1, -0.00091042000000000011
DataValue, -0.5, -0.1, -0.00090948
DataValue, -0.48800000000000004, -0.1, -0.0009066
DataValue, -0.47600000000000003, -0.1, -0.00090368
DataValue, -0.464, -0.1, -0.00090058000000000011
DataValue, -0.452, -0.1, -0.0008982
DataValue, -0.44, -0.1, -0.00089552
DataValue, -0.42800000000000005, -0.1, -0.00089226000000000008
DataValue, -0.41600000000000004, -0.1, -0.00088916000000000006
DataValue, -0.404, -0.1, -0.00088624
DataValue, -0.392, -0.1, -0.00088234
DataValue, -0.38, -0.1, -0.00087812
DataValue, -0.368, -0.1, -0.0008738000000000001
DataValue, -0.35600000000000004, -0.1, -0.00086872
DataValue, -0.34400000000000003, -0.1, -0.00086282
DataValue, -0.332, -0.1, -0.00085614
DataValue, -0.32, -0.1, -0.0008488
DataValue, -0.308, -0.1, -0.00084010000000000009
DataValue, -0.29600000000000004, -0.1, -0.00082978
DataValue, -0.28400000000000003, -0.1, -0.00081880000000000006
DataValue, -0.272, -0.1, -0.00080628
DataValue, -0.26, -0.1, -0.00079162
DataValue, -0.248, -0.1, -0.00077512
DataValue, -0.23600000000000002, -0.1, -0.00075764000000000007
DataValue, -0.224, -0.1, -0.00073736000000000006
DataValue, -0.21200000000000002, -0.1, -0.00071546
DataValue, -0.2, -0.1, -0.0006912
DataValue, -0.188, -0.1, -0.00066534
DataValue, -0.17600000000000002, -0.1, -0.00063718
DataValue, -0.164, -0.1, -0.00060658
DataValue, -0.152, -0.1, -0.0005743
DataValue, -0.14, -0.1, -0.00054032000000000006
DataValue, -0.128, -0.1, -0.0005035
DataValue, -0.116, -0.1, -0.00046496000000000005
DataValue, -0.10400000000000001, -0.1, -0.00042474
DataValue, -0.092, -0.1, -0.00038260000000000003
DataValue, -0.08, -0.1, -0.00033822
DataValue, -0.068, -0.1, -0.00029236
DataValue, -0.056, -0.1, -0.00024486
DataValue, -0.044000000000000004, -0.1, -0.00019534
DataValue, -0.032, -0.1, -0.00014414
DataValue, -0.02, -0.1, -9.194E-05
DataValue, -0.008, -0.1, -3.7396E-05
DataValue, 0.004, -0.1, 1.8376E-05
DataValue, 0.016, -0.1, 7.5428E-05
DataValue, 0.028, -0.1, 0.0001341
DataValue, 0.04, -0.1, 0.00019412000000000002
DataValue, 0.052000000000000005, -0.1, 0.00025534
DataValue, 0.064, -0.1, 0.0003175
DataValue, 0.076, -0.1, 0.00038088
DataValue, 0.088000000000000009, -0.1, 0.00044558000000000005
DataValue, 0.1, -0.1, 0.00051142000000000006
DataValue, 0.1, -0.2, 0.00061574
DataValue, 0.088000000000000009, -0.2, 0.00053996
DataValue, 0.076, -0.2, 0.0004646
DataValue, 0.064, -0.2, 0.00038976
DataValue, 0.052000000000000005, -0.2, 0.00031542
DataValue, 0.04, -0.2, 0.00024124000000000002
DataValue, 0.028, -0.2, 0.00016800000000000002
DataValue, 0.016, -0.2, 9.5406E-05
DataValue, 0.004, -0.2, 2.322E-05
DataValue, -0.008, -0.2, -4.7956E-05
DataValue, -0.02, -0.2, -0.00011872
DataValue, -0.032, -0.2, -0.0001889
