
SetupTitle, (c2) Transfer curve in LGP
PrimitiveTest, I/V Sweep
TestParameter, Context.MainFrame, B1500A
TestParameter, Channel.UnitType, SMU, SMU
TestParameter, Channel.Unit, SMU1:HR/AS, SMU2:HR/AS
TestParameter, Channel.IName, Ig, Id
TestParameter, Channel.VName, Vg, Vd
TestParameter, Channel.Mode, V, V
TestParameter, Channel.Func, VAR1, VAR2
TestParameter, Channel.Index, 
TestParameter, Channel.Time, 
TestParameter, Measurement.Port.Unit, SMU1:HR/AS, SMU2:HR/AS
TestParameter, Measurement.Port.SeriesResistor, NONE, NONE
TestParameter, Measurement.Port.Filter, ON, ON
TestParameter, Measurement.Port.OutputVoltageComparison, 0, 0
TestParameter, Measurement.Primary.Locus, Double
TestParameter, Measurement.Primary.Scale, LINEAR
TestParameter, Measurement.Primary.Start, 0.1
TestParameter, Measurement.Primary.Stop, -0.4
TestParameter, Measurement.Primary.Step, -0.01
TestParameter, Measurement.Primary.Compliance, 0.1
TestParameter, Measurement.Primary.PowerCompliance, 1
TestParameter, Measurement.Aborting.Condition, SKIP AT ANY ABNORMAL
TestParameter, Measurement.PostOutput.Value, START
TestParameter, Measurement.PostOutput.Retention, OFF
TestParameter, Measurement.Secondary.Start, -0.25
TestParameter, Measurement.Secondary.Count, 5
TestParameter, Measurement.Secondary.Step, 0
TestParameter, Measurement.Secondary.Compliance, 0.1
TestParameter, Measurement.Secondary.PowerCompliance, 1
TestParameter, Measurement.Bias.Source, 0.1, -0.25
TestParameter, Measurement.Bias.Compliance, 0.1, 0.1
TestParameter, Measurement.Monitor.Unit, SMU1:HR/AS, SMU2:HR/AS
TestParameter, Measurement.Monitor.Adc, HR ADC, HR ADC
TestParameter, Measurement.Monitor.Measurement, Compliance Side, Compliance Side
TestParameter, Measurement.Monitor.RangingMode, LIMITED, LIMITED
TestParameter, Measurement.Monitor.RangeBoundary, 1nA, 1nA
TestParameter, Measurement.Monitor.RangeRating, BY FULL RANGE, BY FULL RANGE
TestParameter, Measurement.Monitor.RangeRatingCoeff, 50, 50
TestParameter, Measurement.Timing.Hold, 0
TestParameter, Measurement.Timing.Delay, 0
TestParameter, Measurement.Adc.HighSpeed.Mode, AUTO
TestParameter, Measurement.Adc.HighSpeed.Coeff, 1
TestParameter, Measurement.Adc.HighResolution.AutoZero, OFF
TestParameter, Measurement.Adc.HighResolution.Mode, AUTO
TestParameter, Measurement.Adc.HighResolution.Coeff, 6
TestParameter, Measurement.WaitTime.Source.Coeff, 1
TestParameter, Measurement.WaitTime.Source.Offset, 0
TestParameter, Measurement.WaitTime.Monitor.Coeff, 1
TestParameter, Measurement.WaitTime.Monitor.Offset, 0
TestParameter, Output.Graph.Enabled, true
TestParameter, Output.Graph.AutoScaling, false
TestParameter, Output.Graph.XAxis.Data, Vg
TestParameter, Output.Graph.XAxis.Scale, Linear
TestParameter, Output.Graph.XAxis.Left, 0.60000000000000009
TestParameter, Output.Graph.XAxis.Right, -0.60000000000000009
TestParameter, Output.Graph.XAxis.RunTimeAutoScale, true
TestParameter, Output.Graph.YAxis.Data, Id
TestParameter, Output.Graph.YAxis.Scale, Linear
TestParameter, Output.Graph.YAxis.Bottom, -0.1
TestParameter, Output.Graph.YAxis.Top, 0.1
TestParameter, Output.Graph.YAxis.Group, 
TestParameter, Output.Graph.YAxis.RunTimeAutoScale, true
TestParameter, Output.List.Data, Vd, Vg, Id
TestParameter, AutoAnalysis.Interpolation, false
TestParameter, AutoAnalysis.Var2StepCount, 1
TestParameter, AutoAnalysis.Var2StepScript, 
TestParameter, AutoAnalysis.Line1.Enabled, false
TestParameter, AutoAnalysis.Line1.Type, 1
TestParameter, AutoAnalysis.Line1.Fix, True
TestParameter, AutoAnalysis.Line1.YAxis, 0
TestParameter, AutoAnalysis.Line1.Point1.Type, 0
TestParameter, AutoAnalysis.Line1.Point1.XY.X, 
TestParameter, AutoAnalysis.Line1.Point1.XY.Y, 
TestParameter, AutoAnalysis.Line1.Point1.Data.Var, 
TestParameter, AutoAnalysis.Line1.Point1.Data.Condition, 
TestParameter, AutoAnalysis.Line1.Point1.Data.Start, false
TestParameter, AutoAnalysis.Line1.Point1.Data.StartVar, 
TestParameter, AutoAnalysis.Line1.Point1.Data.StartCondition, 
TestParameter, AutoAnalysis.Line1.Point2.Type, 0
TestParameter, AutoAnalysis.Line1.Point2.XY.X, 
TestParameter, AutoAnalysis.Line1.Point2.XY.Y, 
TestParameter, AutoAnalysis.Line1.Point2.Data.Var, 
TestParameter, AutoAnalysis.Line1.Point2.Data.Condition, 
TestParameter, AutoAnalysis.Line1.Point2.Data.Start, false
TestParameter, AutoAnalysis.Line1.Point2.Data.StartVar, 
TestParameter, AutoAnalysis.Line1.Point2.Data.StartCondition, 
TestParameter, AutoAnalysis.Line1.GradientExpr, 0
TestParameter, AutoAnalysis.Line2.Enabled, false
TestParameter, AutoAnalysis.Line2.Type, 1
TestParameter, AutoAnalysis.Line2.Fix, True
TestParameter, AutoAnalysis.Line2.YAxis, 0
TestParameter, AutoAnalysis.Line2.Point1.Type, 0
TestParameter, AutoAnalysis.Line2.Point1.XY.X, 
TestParameter, AutoAnalysis.Line2.Point1.XY.Y, 
TestParameter, AutoAnalysis.Line2.Point1.Data.Var, 
TestParameter, AutoAnalysis.Line2.Point1.Data.Condition, 
TestParameter, AutoAnalysis.Line2.Point1.Data.Start, false
TestParameter, AutoAnalysis.Line2.Point1.Data.StartVar, 
TestParameter, AutoAnalysis.Line2.Point1.Data.StartCondition, 
TestParameter, AutoAnalysis.Line2.Point2.Type, 0
TestParameter, AutoAnalysis.Line2.Point2.XY.X, 
TestParameter, AutoAnalysis.Line2.Point2.XY.Y, 
TestParameter, AutoAnalysis.Line2.Point2.Data.Var, 
TestParameter, AutoAnalysis.Line2.Point2.Data.Condition, 
TestParameter, AutoAnalysis.Line2.Point2.Data.Start, false
TestParameter, AutoAnalysis.Line2.Point2.Data.StartVar, 
TestParameter, AutoAnalysis.Line2.Point2.Data.StartCondition, 
TestParameter, AutoAnalysis.Line2.GradientExpr, 0
TestParameter, AutoAnalysis.Marker.Enabled, false
TestParameter, AutoAnalysis.Marker.Data.Var, 
TestParameter, AutoAnalysis.Marker.Data.Condition, 
TestParameter, AutoAnalysis.Marker.Data.Start, false
TestParameter, AutoAnalysis.Marker.Data.StartVar, 
TestParameter, AutoAnalysis.Marker.Data.StartCondition, 
MetaData, TestRecord.EntryPoint, true
MetaData, TestRecord.RecordTime, 12/22/2024 05:41:21
MetaData, TestRecord.TestTarget, 
MetaData, TestRecord.IterationIndex, 2
MetaData, TestRecord.Preservation, true
MetaData, TestRecord.Flag, 
MetaData, TestRecord.Remarks, 2.5wt-s21c1
MetaData, TestRecord.LinkKey, 75d54500-d125-4892-9559-da2b70f10b06
MetaData, TestRecord.Parameters, 
Dimension1, 102, 102, 102
Dimension2, 5, 5, 5
DataName, Vg, Vd, Id
DataValue, 0.1, -0.25, -3.6387000000000004E-06
DataValue, 0.090000000000000011, -0.25, -4.1571E-06
DataValue, 0.08, -0.25, -4.7228000000000008E-06
DataValue, 0.07, -0.25, -5.4438E-06
DataValue, 0.060000000000000005, -0.25, -6.2369E-06
DataValue, 0.05, -0.25, -7.062E-06
DataValue, 0.04, -0.25, -8.0848000000000009E-06
DataValue, 0.030000000000000002, -0.25, -9.1715E-06
DataValue, 0.02, -0.25, -1.03445E-05
DataValue, 0.01, -0.25, -1.1918E-05
DataValue, 0, -0.25, -1.3266E-05
DataValue, -0.01, -0.25, -1.4852000000000001E-05
DataValue, -0.02, -0.25, -1.6586E-05
DataValue, -0.030000000000000002, -0.25, -1.8418000000000002E-05
DataValue, -0.04, -0.25, -2.0432E-05
DataValue, -0.05, -0.25, -2.2706000000000002E-05
DataValue, -0.060000000000000005, -0.25, -2.5054E-05
DataValue, -0.07, -0.25, -2.7614E-05
DataValue, -0.08, -0.25, -3.0410000000000002E-05
DataValue, -0.090000000000000011, -0.25, -3.331E-05
DataValue, -0.1, -0.25, -3.6444E-05
DataValue, -0.11, -0.25, -3.9838E-05
DataValue, -0.12000000000000001, -0.25, -4.339E-05
DataValue, -0.13, -0.25, -4.7064E-05
DataValue, -0.14, -0.25, -5.105E-05
DataValue, -0.15, -0.25, -5.5180000000000004E-05
DataValue, -0.16, -0.25, -5.9552E-05
DataValue, -0.17, -0.25, -6.4062E-05
DataValue, -0.18000000000000002, -0.25, -6.8848E-05
DataValue, -0.19, -0.25, -7.3642E-05
DataValue, -0.2, -0.25, -7.8718E-05
DataValue, -0.21000000000000002, -0.25, -8.4062000000000009E-05
DataValue, -0.22, -0.25, -8.9372E-05
DataValue, -0.23, -0.25, -9.4854E-05
DataValue, -0.24000000000000002, -0.25, -0.000100542
DataValue, -0.25, -0.25, -0.000106302
DataValue, -0.26, -0.25, -0.0001121
DataValue, -0.27, -0.25, -0.0001207
DataValue, -0.28, -0.25, -0.00012618000000000002
DataValue, -0.29000000000000004, -0.25, -0.0001316
DataValue, -0.3, -0.25, -0.00013724
DataValue, -0.31, -0.25, -0.00014272000000000002
DataValue, -0.32, -0.25, -0.0001484
DataValue, -0.33, -0.25, -0.00015370000000000002
DataValue, -0.34, -0.25, -0.00015894000000000002
DataValue, -0.35000000000000003, -0.25, -0.00016424
DataValue, -0.36000000000000004, -0.25, -0.00016938
DataValue, -0.37, -0.25, -0.00017442
DataValue, -0.38, -0.25, -0.00017912
DataValue, -0.39, -0.25, -0.00018392000000000001
DataValue, -0.4, -0.25, -0.00018806
DataValue, -0.4, -0.25, -0.00018836000000000002
DataValue, -0.39, -0.25, -0.00018538000000000002
DataValue, -0.38, -0.25, -0.00018196
DataValue, -0.37, -0.25, -0.00017814
DataValue, -0.36000000000000004, -0.25, -0.0001741
DataValue, -0.35000000000000003, -0.25, -0.00016992
DataValue, -0.34, -0.25, -0.00016544000000000002
DataValue, -0.33, -0.25, -0.00016074
DataValue, -0.32, -0.25, -0.00015588
DataValue, -0.31, -0.25, -0.00015092
DataValue, -0.3, -0.25, -0.00014588
DataValue, -0.29000000000000004, -0.25, -0.00014054
DataValue, -0.28, -0.25, -0.00013518000000000002
DataValue, -0.27, -0.25, -0.00012978000000000002
DataValue, -0.26, -0.25, -0.00012422
DataValue, -0.25, -0.25, -0.00011856
DataValue, -0.24000000000000002, -0.25, -0.00011312
DataValue, -0.23, -0.25, -0.00010748000000000001
DataValue, -0.22, -0.25, -0.00010182000000000001
DataValue, -0.21000000000000002, -0.25, -9.5876E-05
DataValue, -0.2, -0.25, -9.056E-05
DataValue, -0.19, -0.25, -8.5310000000000008E-05
DataValue, -0.18000000000000002, -0.25, -8.0102E-05
DataValue, -0.17, -0.25, -7.4946E-05
DataValue, -0.16, -0.25, -6.9898E-05
DataValue, -0.15, -0.25, -6.506E-05
DataValue, -0.14, -0.25, -6.0454E-05
DataValue, -0.13, -0.25, -5.5768E-05
DataValue, -0.12000000000000001, -0.25, -5.1532E-05
DataValue, -0.11, -0.25, -4.7428E-05
DataValue, -0.1, -0.25, -4.3452000000000003E-05
DataValue, -0.090000000000000011, -0.25, -3.9686E-05
DataValue, -0.08, -0.25, -3.6186E-05
DataValue, -0.07, -0.25, -3.2834000000000004E-05
DataValue, -0.060000000000000005, -0.25, -2.9756E-05
DataValue, -0.05, -0.25, -2.6838E-05
DataValue, -0.04, -0.25, -2.4152000000000002E-05
DataValue, -0.030000000000000002, -0.25, -2.1672000000000002E-05
DataValue, -0.02, -0.25, -1.9296E-05
DataValue, -0.01, -0.25, -1.7160000000000002E-05
DataValue, 0, -0.25, -1.5254E-05
DataValue, 0.01, -0.25, -1.3372E-05
DataValue, 0.02, -0.25, -1.1682000000000001E-05
DataValue, 0.030000000000000002, -0.25, -1.0212E-05
DataValue, 0.04, -0.25, -8.8398000000000013E-06
DataValue, 0.05, -0.25, -7.6884E-06
DataValue, 0.060000000000000005, -0.25, -6.626200000000001E-06
DataValue, 0.07, -0.25, -5.7576000000000006E-06
DataValue, 0.08, -0.25, -4.9057E-06
DataValue, 0.090000000000000011, -0.25, -4.1517E-06
DataValue, 0.1, -0.25, -3.5512000000000004E-06
DataValue, 0.1, -0.25, -3.1162000000000003E-06
DataValue, 0.090000000000000011, -0.25, -3.5622000000000004E-06
DataValue, 0.08, -0.25, -4.1417000000000005E-06
DataValue, 0.07, -0.25, -4.8299E-06
DataValue, 0.060000000000000005, -0.25, -5.5391000000000009E-06
DataValue, 0.05, -0.25, -6.3816000000000009E-06
DataValue, 0.04, -0.25, -7.3565000000000006E-06
DataValue, 0.030000000000000002, -0.25, -8.3948000000000013E-06
DataValue, 0.02, -0.25, -9.5496000000000009E-06
DataValue, 0.01, -0.25, -1.0914800000000001E-05
DataValue, 0, -0.25, -1.2742000000000001E-05
DataValue, -0.01, -0.25, -1.4326E-05
DataValue, -0.02, -0.25, -1.6052E-05
DataValue, -0.030000000000000002, -0.25, -1.7902E-05
DataValue, -0.04, -0.25, -1.9978E-05
DataValue, -0.05, -0.25, -2.2264000000000002E-05
DataValue, -0.060000000000000005, -0.25, -2.468E-05
DataValue, -0.07, -0.25, -2.7328E-05
DataValue, -0.08, -0.25, -3.0268000000000002E-05
DataValue, -0.090000000000000011, -0.25, -3.3238E-05
DataValue, -0.1, -0.25, -3.6514E-05
DataValue, -0.11, -0.25, -4.0004E-05
DataValue, -0.12000000000000001, -0.25, -4.3704E-05
DataValue, -0.13, -0.25, -4.7536E-05
DataValue, -0.14, -0.25, -5.165E-05
DataValue, -0.15, -0.25, -5.6018000000000005E-05
DataValue, -0.16, -0.25, -6.0592000000000005E-05
DataValue, -0.17, -0.25, -6.5272000000000008E-05
DataValue, -0.18000000000000002, -0.25, -7.0314E-05
DataValue, -0.19, -0.25, -7.5396000000000008E-05
DataValue, -0.2, -0.25, -8.0614E-05
DataValue, -0.21000000000000002, -0.25, -8.621E-05
DataValue, -0.22, -0.25, -9.1712E-05
DataValue, -0.23, -0.25, -9.7254E-05
DataValue, -0.24000000000000002, -0.25, -0.00010303000000000001
DataValue, -0.25, -0.25, -0.0001089
DataValue, -0.26, -0.25, -0.00011485
DataValue, -0.27, -0.25, -0.00012368
DataValue, -0.28, -0.25, -0.00012902
DataValue, -0.29000000000000004, -0.25, -0.00013470000000000002
DataValue, -0.3, -0.25, -0.00014030000000000002
DataValue, -0.31, -0.25, -0.00014588
DataValue, -0.32, -0.25, -0.00015140000000000002
DataValue, -0.33, -0.25, -0.00015682
DataValue, -0.34, -0.25, -0.0001622
DataValue, -0.35000000000000003, -0.25, -0.00016722000000000002
DataValue, -0.36000000000000004, -0.25, -0.00017230000000000001
DataValue, -0.37, -0.25, -0.00017726000000000002
DataValue, -0.38, -0.25, -0.00018216
DataValue, -0.39, -0.25, -0.00018658000000000002
DataValue, -0.4, -0.25, -0.00019082000000000002
DataValue, -0.4, -0.25, -0.00019112
DataValue, -0.39, -0.25, -0.00018786
DataValue, -0.38, -0.25, -0.00018444000000000002
DataValue, -0.37, -0.25, -0.00018058
DataValue, -0.36000000000000004, -0.25, -0.00017644
DataValue, -0.35000000000000003, -0.25, -0.00017230000000000001
DataValue, -0.34, -0.25, -0.00016776
DataValue, -0.33, -0.25, -0.000163
DataValue, -0.32, -0.25, -0.0001582
DataValue, -0.31, -0.25, -0.00015316
DataValue, -0.3, -0.25, -0.00014800000000000002
DataValue, -0.29000000000000004, -0.25, -0.00014274
DataValue, -0.28, -0.25, -0.00013738000000000002
DataValue, -0.27, -0.25, -0.00013178000000000002
DataValue, -0.26, -0.25, -0.0001262
DataValue, -0.25, -0.25, -0.00012066000000000001
DataValue, -0.24000000000000002, -0.25, -0.0001149
DataValue, -0.23, -0.25, -0.00010926000000000001
DataValue, -0.22, -0.25, -0.00010364
DataValue, -0.21000000000000002, -0.25, -9.7482E-05
DataValue, -0.2, -0.25, -9.2194E-05
DataValue, -0.19, -0.25, -8.67E-05
DataValue, -0.18000000000000002, -0.25, -8.1384E-05
DataValue, -0.17, -0.25, -7.6232E-05
DataValue, -0.16, -0.25, -7.113E-05
DataValue, -0.15, -0.25, -6.6118E-05
DataValue, -0.14, -0.25, -6.1342E-05
DataValue, -0.13, -0.25, -5.6778000000000004E-05
DataValue, -0.12000000000000001, -0.25, -5.2204000000000004E-05
DataValue, -0.11, -0.25, -4.8014000000000005E-05
DataValue, -0.1, -0.25, -4.407E-05
DataValue, -0.090000000000000011, -0.25, -4.0238E-05
DataValue, -0.08, -0.25, -3.6632000000000004E-05
DataValue, -0.07, -0.25, -3.329E-05
DataValue, -0.060000000000000005, -0.25, -3.0088E-05
DataValue, -0.05, -0.25, -2.7076E-05
DataValue, -0.04, -0.25, -2.4414E-05
DataValue, -0.030000000000000002, -0.25, -2.1878E-05
DataValue, -0.02, -0.25, -1.9466E-05
DataValue, -0.01, -0.25, -1.736E-05
DataValue, 0, -0.25, -1.5364E-05
DataValue, 0.01, -0.25, -1.3548E-05
DataValue, 0.02, -0.25, -1.1920000000000001E-05
DataValue, 0.030000000000000002, -0.25, -1.0474E-05
DataValue, 0.04, -0.25, -8.9515E-06
DataValue, 0.05, -0.25, -7.8173E-06
DataValue, 0.060000000000000005, -0.25, -6.7840000000000006E-06
DataValue, 0.07, -0.25, -5.7864E-06
DataValue, 0.08, -0.25, -4.9802E-06
DataValue, 0.090000000000000011, -0.25, -4.2703000000000004E-06
DataValue, 0.1, -0.25, -3.5763000000000004E-06
DataValue, 0.1, -0.25, -3.0906E-06
DataValue, 0.090000000000000011, -0.25, -3.5393E-06
DataValue, 0.08, -0.25, -4.1064E-06
DataValue, 0.07, -0.25, -4.7984000000000005E-06
DataValue, 0.060000000000000005, -0.25, -5.5017E-06
DataValue, 0.05, -0.25, -6.3308000000000004E-06
DataValue, 0.04, -0.25, -7.3168000000000008E-06
DataValue, 0.030000000000000002, -0.25, -8.3242E-06
DataValue, 0.02, -0.25, -9.5059000000000016E-06
DataValue, 0.01, -0.25, -1.0856100000000001E-05
DataValue, 0, -0.25, -1.2686E-05
DataValue, -0.01, -0.25, -1.4256E-05
DataValue, -0.02, -0.25, -1.5984E-05
DataValue, -0.030000000000000002, -0.25, -1.7818E-05
DataValue, -0.04, -0.25, -1.9884E-05
DataValue, -0.05, -0.25, -2.2204E-05
DataValue, -0.060000000000000005, -0.25, -2.4616E-05
DataValue, -0.07, -0.25, -2.7236E-05
DataValue, -0.08, -0.25, -3.012E-05
DataValue, -0.090000000000000011, -0.25, -3.3248000000000004E-05
DataValue, -0.1, -0.25, -3.6514E-05
DataValue, -0.11, -0.25, -3.9968E-05
DataValue, -0.12000000000000001, -0.25, -4.3698E-05
DataValue, -0.13, -0.25, -4.7716E-05
DataValue, -0.14, -0.25, -5.1752E-05
DataValue, -0.15, -0.25, -5.6184E-05
DataValue, -0.16, -0.25, -6.0848000000000004E-05
DataValue, -0.17, -0.25, -6.5538000000000008E-05
DataValue, -0.18000000000000002, -0.25, -7.0538000000000008E-05
DataValue, -0.19, -0.25, -7.5854000000000009E-05
DataValue, -0.2, -0.25, -8.1142E-05
DataValue, -0.21000000000000002, -0.25, -8.676E-05
DataValue, -0.22, -0.25, -9.2656E-05
DataValue, -0.23, -0.25, -9.822E-05
DataValue, -0.24000000000000002, -0.25, -0.00010409
DataValue, -0.25, -0.25, -0.000110062
DataValue, -0.26, -0.25, -0.00011860000000000001
DataValue, -0.27, -0.25, -0.00012412
DataValue, -0.28, -0.25, -0.00012982
DataValue, -0.29000000000000004, -0.25, -0.00013558
DataValue, -0.3, -0.25, -0.00014116
DataValue, -0.31, -0.25, -0.00014690000000000002
DataValue, -0.32, -0.25, -0.00015248
DataValue, -0.33, -0.25, -0.00015782
DataValue, -0.34, -0.25, -0.00016322
DataValue, -0.35000000000000003, -0.25, -0.00016858000000000002
DataValue, -0.36000000000000004, -0.25, -0.00017364
DataValue, -0.37, -0.25, -0.00017848
DataValue, -0.38, -0.25, -0.00018324000000000001
DataValue, -0.39, -0.25, -0.00018774000000000002
DataValue, -0.4, -0.25, -0.00019196
DataValue, -0.4, -0.25, -0.00019232
DataValue, -0.39, -0.25, -0.00018914000000000002
DataValue, -0.38, -0.25, -0.0001855
DataValue, -0.37, -0.25, -0.00018158
DataValue, -0.36000000000000004, -0.25, -0.00017752000000000002
DataValue, -0.35000000000000003, -0.25, -0.00017316
DataValue, -0.34, -0.25, -0.00016856
DataValue, -0.33, -0.25, -0.00016396000000000002
DataValue, -0.32, -0.25, -0.00015902
DataValue, -0.31, -0.25, -0.00015382000000000002
DataValue, -0.3, -0.25, -0.00014874000000000002
DataValue, -0.29000000000000004, -0.25, -0.00014346
DataValue, -0.28, -0.25, -0.00013786
DataValue, -0.27, -0.25, -0.00013230000000000002
DataValue, -0.26, -0.25, -0.00012680000000000002
DataValue, -0.25, -0.25, -0.00012106000000000001
DataValue, -0.24000000000000002, -0.25, -0.00011542
DataValue, -0.23, -0.25, -0.00010980000000000001
DataValue, -0.22, -0.25, -0.00010410000000000001
DataValue, -0.21000000000000002, -0.25, -9.8044E-05
DataValue, -0.2, -0.25, -9.2682E-05
DataValue, -0.19, -0.25, -8.7082E-05
DataValue, -0.18000000000000002, -0.25, -8.1814E-05
DataValue, -0.17, -0.25, -7.6628E-05
DataValue, -0.16, -0.25, -7.1466E-05
DataValue, -0.15, -0.25, -6.6462E-05
DataValue, -0.14, -0.25, -6.1752E-05
DataValue, -0.13, -0.25, -5.7122E-05
DataValue, -0.12000000000000001, -0.25, -5.2646000000000004E-05
DataValue, -0.11, -0.25, -4.8396E-05
DataValue, -0.1, -0.25, -4.4382E-05
DataValue, -0.090000000000000011, -0.25, -4.0576E-05
DataValue, -0.08, -0.25, -3.6926E-05
DataValue, -0.07, -0.25, -3.3442E-05
DataValue, -0.060000000000000005, -0.25, -3.0324E-05
DataValue, -0.05, -0.25, -2.7336E-05
DataValue, -0.04, -0.25, -2.4554000000000002E-05
DataValue, -0.030000000000000002, -0.25, -2.2028E-05
DataValue, -0.02, -0.25, -1.9686E-05
DataValue, -0.01, -0.25, -1.745E-05
DataValue, 0, -0.25, -1.547E-05
DataValue, 0.01, -0.25, -1.3696E-05
DataValue, 0.02, -0.25, -1.2042000000000001E-05
DataValue, 0.030000000000000002, -0.25, -1.0522E-05
DataValue, 0.04, -0.25, -9.0617000000000017E-06
DataValue, 0.05, -0.25, -7.8729E-06
DataValue, 0.060000000000000005, -0.25, -6.8053000000000007E-06
DataValue, 0.07, -0.25, -5.901100000000001E-06
DataValue, 0.08, -0.25, -5.0269E-06
DataValue, 0.090000000000000011, -0.25, -4.276E-06
DataValue, 0.1, -0.25, -3.6678000000000003E-06
DataValue, 0.1, -0.25, -3.1946000000000003E-06
