
SetupTitle, (c2) Transfer curve in LGP
PrimitiveTest, I/V Sweep
TestParameter, Context.MainFrame, B1500A
TestParameter, Channel.UnitType, SMU, SMU
TestParameter, Channel.Unit, SMU1:HR/AS, SMU2:HR/AS
TestParameter, Channel.IName, Ig, Id
TestParameter, Channel.VName, Vg, Vd
TestParameter, Channel.Mode, V, V
TestParameter, Channel.Func, VAR1, VAR2
TestParameter, Channel.Index, 
TestParameter, Channel.Time, 
TestParameter, Measurement.Port.Unit, SMU1:HR/AS, SMU2:HR/AS
TestParameter, Measurement.Port.SeriesResistor, NONE, NONE
TestParameter, Measurement.Port.Filter, ON, ON
TestParameter, Measurement.Port.OutputVoltageComparison, 0, 0
TestParameter, Measurement.Primary.Locus, Double
TestParameter, Measurement.Primary.Scale, LINEAR
TestParameter, Measurement.Primary.Start, 0.1
TestParameter, Measurement.Primary.Stop, -0.4
TestParameter, Measurement.Primary.Step, -0.01
TestParameter, Measurement.Primary.Compliance, 0.1
TestParameter, Measurement.Primary.PowerCompliance, 1
TestParameter, Measurement.Aborting.Condition, SKIP AT ANY ABNORMAL
TestParameter, Measurement.PostOutput.Value, START
TestParameter, Measurement.PostOutput.Retention, OFF
TestParameter, Measurement.Secondary.Start, -0.25
TestParameter, Measurement.Secondary.Count, 5
TestParameter, Measurement.Secondary.Step, 0
TestParameter, Measurement.Secondary.Compliance, 0.1
TestParameter, Measurement.Secondary.PowerCompliance, 1
TestParameter, Measurement.Bias.Source, 0.1, -0.25
TestParameter, Measurement.Bias.Compliance, 0.1, 0.1
TestParameter, Measurement.Monitor.Unit, SMU1:HR/AS, SMU2:HR/AS
TestParameter, Measurement.Monitor.Adc, HR ADC, HR ADC
TestParameter, Measurement.Monitor.Measurement, Compliance Side, Compliance Side
TestParameter, Measurement.Monitor.RangingMode, LIMITED, LIMITED
TestParameter, Measurement.Monitor.RangeBoundary, 1nA, 1nA
TestParameter, Measurement.Monitor.RangeRating, BY FULL RANGE, BY FULL RANGE
TestParameter, Measurement.Monitor.RangeRatingCoeff, 50, 50
TestParameter, Measurement.Timing.Hold, 0
TestParameter, Measurement.Timing.Delay, 0
TestParameter, Measurement.Adc.HighSpeed.Mode, AUTO
TestParameter, Measurement.Adc.HighSpeed.Coeff, 1
TestParameter, Measurement.Adc.HighResolution.AutoZero, OFF
TestParameter, Measurement.Adc.HighResolution.Mode, AUTO
TestParameter, Measurement.Adc.HighResolution.Coeff, 6
TestParameter, Measurement.WaitTime.Source.Coeff, 1
TestParameter, Measurement.WaitTime.Source.Offset, 0
TestParameter, Measurement.WaitTime.Monitor.Coeff, 1
TestParameter, Measurement.WaitTime.Monitor.Offset, 0
TestParameter, Output.Graph.Enabled, true
TestParameter, Output.Graph.AutoScaling, false
TestParameter, Output.Graph.XAxis.Data, Vg
TestParameter, Output.Graph.XAxis.Scale, Linear
TestParameter, Output.Graph.XAxis.Left, 0.60000000000000009
TestParameter, Output.Graph.XAxis.Right, -0.60000000000000009
TestParameter, Output.Graph.XAxis.RunTimeAutoScale, true
TestParameter, Output.Graph.YAxis.Data, Id
TestParameter, Output.Graph.YAxis.Scale, Linear
TestParameter, Output.Graph.YAxis.Bottom, -0.1
TestParameter, Output.Graph.YAxis.Top, 0.1
TestParameter, Output.Graph.YAxis.Group, 
TestParameter, Output.Graph.YAxis.RunTimeAutoScale, true
TestParameter, Output.List.Data, Vd, Vg, Id
TestParameter, AutoAnalysis.Interpolation, false
TestParameter, AutoAnalysis.Var2StepCount, 1
TestParameter, AutoAnalysis.Var2StepScript, 
TestParameter, AutoAnalysis.Line1.Enabled, false
TestParameter, AutoAnalysis.Line1.Type, 1
TestParameter, AutoAnalysis.Line1.Fix, True
TestParameter, AutoAnalysis.Line1.YAxis, 0
TestParameter, AutoAnalysis.Line1.Point1.Type, 0
TestParameter, AutoAnalysis.Line1.Point1.XY.X, 
TestParameter, AutoAnalysis.Line1.Point1.XY.Y, 
TestParameter, AutoAnalysis.Line1.Point1.Data.Var, 
TestParameter, AutoAnalysis.Line1.Point1.Data.Condition, 
TestParameter, AutoAnalysis.Line1.Point1.Data.Start, false
TestParameter, AutoAnalysis.Line1.Point1.Data.StartVar, 
TestParameter, AutoAnalysis.Line1.Point1.Data.StartCondition, 
TestParameter, AutoAnalysis.Line1.Point2.Type, 0
TestParameter, AutoAnalysis.Line1.Point2.XY.X, 
TestParameter, AutoAnalysis.Line1.Point2.XY.Y, 
TestParameter, AutoAnalysis.Line1.Point2.Data.Var, 
TestParameter, AutoAnalysis.Line1.Point2.Data.Condition, 
TestParameter, AutoAnalysis.Line1.Point2.Data.Start, false
TestParameter, AutoAnalysis.Line1.Point2.Data.StartVar, 
TestParameter, AutoAnalysis.Line1.Point2.Data.StartCondition, 
TestParameter, AutoAnalysis.Line1.GradientExpr, 0
TestParameter, AutoAnalysis.Line2.Enabled, false
TestParameter, AutoAnalysis.Line2.Type, 1
TestParameter, AutoAnalysis.Line2.Fix, True
TestParameter, AutoAnalysis.Line2.YAxis, 0
TestParameter, AutoAnalysis.Line2.Point1.Type, 0
TestParameter, AutoAnalysis.Line2.Point1.XY.X, 
TestParameter, AutoAnalysis.Line2.Point1.XY.Y, 
TestParameter, AutoAnalysis.Line2.Point1.Data.Var, 
TestParameter, AutoAnalysis.Line2.Point1.Data.Condition, 
TestParameter, AutoAnalysis.Line2.Point1.Data.Start, false
TestParameter, AutoAnalysis.Line2.Point1.Data.StartVar, 
TestParameter, AutoAnalysis.Line2.Point1.Data.StartCondition, 
TestParameter, AutoAnalysis.Line2.Point2.Type, 0
TestParameter, AutoAnalysis.Line2.Point2.XY.X, 
TestParameter, AutoAnalysis.Line2.Point2.XY.Y, 
TestParameter, AutoAnalysis.Line2.Point2.Data.Var, 
TestParameter, AutoAnalysis.Line2.Point2.Data.Condition, 
TestParameter, AutoAnalysis.Line2.Point2.Data.Start, false
TestParameter, AutoAnalysis.Line2.Point2.Data.StartVar, 
TestParameter, AutoAnalysis.Line2.Point2.Data.StartCondition, 
TestParameter, AutoAnalysis.Line2.GradientExpr, 0
TestParameter, AutoAnalysis.Marker.Enabled, false
TestParameter, AutoAnalysis.Marker.Data.Var, 
TestParameter, AutoAnalysis.Marker.Data.Condition, 
TestParameter, AutoAnalysis.Marker.Data.Start, false
TestParameter, AutoAnalysis.Marker.Data.StartVar, 
TestParameter, AutoAnalysis.Marker.Data.StartCondition, 
MetaData, TestRecord.EntryPoint, true
MetaData, TestRecord.RecordTime, 12/22/2024 05:43:35
MetaData, TestRecord.TestTarget, 
MetaData, TestRecord.IterationIndex, 1
MetaData, TestRecord.Preservation, true
MetaData, TestRecord.Flag, 
MetaData, TestRecord.Remarks, 2.5wt-s21c2
MetaData, TestRecord.LinkKey, 7705e30f-33f6-47c6-928c-bb7622d46c67
MetaData, TestRecord.Parameters, 
Dimension1, 102, 102, 102
Dimension2, 5, 5, 5
DataName, Vg, Vd, Id
DataValue, 0.1, -0.25, -3.1068E-05
DataValue, 0.090000000000000011, -0.25, -3.6242E-05
DataValue, 0.08, -0.25, -4.2432E-05
DataValue, 0.07, -0.25, -4.9552E-05
DataValue, 0.060000000000000005, -0.25, -5.7444E-05
DataValue, 0.05, -0.25, -6.642E-05
DataValue, 0.04, -0.25, -7.646600000000001E-05
DataValue, 0.030000000000000002, -0.25, -8.7430000000000008E-05
DataValue, 0.02, -0.25, -9.9588000000000009E-05
DataValue, 0.01, -0.25, -0.000112972
DataValue, 0, -0.25, -0.00012962
DataValue, -0.01, -0.25, -0.00014464
DataValue, -0.02, -0.25, -0.00016138
DataValue, -0.030000000000000002, -0.25, -0.00017954
DataValue, -0.04, -0.25, -0.00019876
DataValue, -0.05, -0.25, -0.00021936000000000001
DataValue, -0.060000000000000005, -0.25, -0.0002414
DataValue, -0.07, -0.25, -0.00026446
DataValue, -0.08, -0.25, -0.00028868000000000003
DataValue, -0.090000000000000011, -0.25, -0.00031408
DataValue, -0.1, -0.25, -0.00034066
DataValue, -0.11, -0.25, -0.00036792000000000004
DataValue, -0.12000000000000001, -0.25, -0.00039630000000000004
DataValue, -0.13, -0.25, -0.00042548000000000005
DataValue, -0.14, -0.25, -0.00045506
DataValue, -0.15, -0.25, -0.00048546
DataValue, -0.16, -0.25, -0.00051628
DataValue, -0.17, -0.25, -0.00054714
DataValue, -0.18000000000000002, -0.25, -0.00057834
DataValue, -0.19, -0.25, -0.00060980000000000008
DataValue, -0.2, -0.25, -0.00064066
DataValue, -0.21000000000000002, -0.25, -0.00067134000000000009
DataValue, -0.22, -0.25, -0.00070202
DataValue, -0.23, -0.25, -0.00073210000000000007
DataValue, -0.24000000000000002, -0.25, -0.00076132
DataValue, -0.25, -0.25, -0.00079026000000000009
DataValue, -0.26, -0.25, -0.00081828
DataValue, -0.27, -0.25, -0.000845
DataValue, -0.28, -0.25, -0.00087188
DataValue, -0.29000000000000004, -0.25, -0.00089634
DataValue, -0.3, -0.25, -0.00092
DataValue, -0.31, -0.25, -0.00094274000000000007
DataValue, -0.32, -0.25, -0.00096406000000000009
DataValue, -0.33, -0.25, -0.00098406000000000014
DataValue, -0.34, -0.25, -0.00100278
DataValue, -0.35000000000000003, -0.25, -0.0010205400000000001
DataValue, -0.36000000000000004, -0.25, -0.00103654
DataValue, -0.37, -0.25, -0.0010513200000000001
DataValue, -0.38, -0.25, -0.0010654800000000002
DataValue, -0.39, -0.25, -0.0010782600000000002
DataValue, -0.4, -0.25, -0.00108928
DataValue, -0.4, -0.25, -0.00108982
DataValue, -0.39, -0.25, -0.0010807800000000002
DataValue, -0.38, -0.25, -0.00107032
DataValue, -0.37, -0.25, -0.0010580000000000001
DataValue, -0.36000000000000004, -0.25, -0.00104548
DataValue, -0.35000000000000003, -0.25, -0.00103118
DataValue, -0.34, -0.25, -0.0010156
DataValue, -0.33, -0.25, -0.00099932000000000016
DataValue, -0.32, -0.25, -0.00098178
DataValue, -0.31, -0.25, -0.00096228
DataValue, -0.3, -0.25, -0.0009422600000000001
DataValue, -0.29000000000000004, -0.25, -0.00092074000000000008
DataValue, -0.28, -0.25, -0.0008978
DataValue, -0.27, -0.25, -0.00087328
DataValue, -0.26, -0.25, -0.00084838
DataValue, -0.25, -0.25, -0.00082198
DataValue, -0.24000000000000002, -0.25, -0.00079406000000000008
DataValue, -0.23, -0.25, -0.00076592
DataValue, -0.22, -0.25, -0.00073654
DataValue, -0.21000000000000002, -0.25, -0.00070630000000000009
DataValue, -0.2, -0.25, -0.00067578000000000007
DataValue, -0.19, -0.25, -0.00064474000000000009
DataValue, -0.18000000000000002, -0.25, -0.00061306
DataValue, -0.17, -0.25, -0.00058066
DataValue, -0.16, -0.25, -0.00054944
DataValue, -0.15, -0.25, -0.00051768000000000007
DataValue, -0.14, -0.25, -0.00048644000000000004
DataValue, -0.13, -0.25, -0.00045552
DataValue, -0.12000000000000001, -0.25, -0.00042484
DataValue, -0.11, -0.25, -0.00039508
DataValue, -0.1, -0.25, -0.00036618
DataValue, -0.090000000000000011, -0.25, -0.00033790000000000003
DataValue, -0.08, -0.25, -0.00031068000000000003
DataValue, -0.07, -0.25, -0.00028478
DataValue, -0.060000000000000005, -0.25, -0.0002598
DataValue, -0.05, -0.25, -0.00023598000000000003
DataValue, -0.04, -0.25, -0.00021376
DataValue, -0.030000000000000002, -0.25, -0.00019288
DataValue, -0.02, -0.25, -0.00017302000000000002
DataValue, -0.01, -0.25, -0.0001544
DataValue, 0, -0.25, -0.00013738000000000002
DataValue, 0.01, -0.25, -0.00012156000000000001
DataValue, 0.02, -0.25, -0.00010678
DataValue, 0.030000000000000002, -0.25, -9.2508E-05
DataValue, 0.04, -0.25, -8.0832E-05
DataValue, 0.05, -0.25, -7.0068000000000007E-05
DataValue, 0.060000000000000005, -0.25, -6.0312E-05
DataValue, 0.07, -0.25, -5.1552000000000004E-05
DataValue, 0.08, -0.25, -4.3594E-05
DataValue, 0.090000000000000011, -0.25, -3.6622E-05
DataValue, 0.1, -0.25, -3.0588E-05
DataValue, 0.1, -0.25, -2.5418E-05
DataValue, 0.090000000000000011, -0.25, -3.0006E-05
DataValue, 0.08, -0.25, -3.5492E-05
DataValue, 0.07, -0.25, -4.168E-05
DataValue, 0.060000000000000005, -0.25, -4.8642E-05
DataValue, 0.05, -0.25, -5.6642000000000004E-05
DataValue, 0.04, -0.25, -6.5616E-05
DataValue, 0.030000000000000002, -0.25, -7.5452000000000009E-05
DataValue, 0.02, -0.25, -8.6458E-05
DataValue, 0.01, -0.25, -9.8672E-05
DataValue, 0, -0.25, -0.00011189400000000001
DataValue, -0.01, -0.25, -0.00012974000000000002
DataValue, -0.02, -0.25, -0.000145
DataValue, -0.030000000000000002, -0.25, -0.00016226
DataValue, -0.04, -0.25, -0.00018012
DataValue, -0.05, -0.25, -0.00019968
DataValue, -0.060000000000000005, -0.25, -0.00022086000000000002
DataValue, -0.07, -0.25, -0.00024312000000000002
DataValue, -0.08, -0.25, -0.00026668000000000004
DataValue, -0.090000000000000011, -0.25, -0.00029168
DataValue, -0.1, -0.25, -0.00031754
DataValue, -0.11, -0.25, -0.00034496
DataValue, -0.12000000000000001, -0.25, -0.0003728
DataValue, -0.13, -0.25, -0.00040232
DataValue, -0.14, -0.25, -0.00043228
DataValue, -0.15, -0.25, -0.00046306000000000006
DataValue, -0.16, -0.25, -0.0004945
DataValue, -0.17, -0.25, -0.00052604000000000008
DataValue, -0.18000000000000002, -0.25, -0.00055796
DataValue, -0.19, -0.25, -0.0005904
DataValue, -0.2, -0.25, -0.00062242
DataValue, -0.21000000000000002, -0.25, -0.00065422000000000006
DataValue, -0.22, -0.25, -0.0006859
DataValue, -0.23, -0.25, -0.00071712
DataValue, -0.24000000000000002, -0.25, -0.0007475
DataValue, -0.25, -0.25, -0.0007772
DataValue, -0.26, -0.25, -0.0008063800000000001
DataValue, -0.27, -0.25, -0.00083400000000000011
DataValue, -0.28, -0.25, -0.00086098
DataValue, -0.29000000000000004, -0.25, -0.00088680000000000009
DataValue, -0.3, -0.25, -0.00091090000000000008
DataValue, -0.31, -0.25, -0.00093414000000000008
DataValue, -0.32, -0.25, -0.00095626
DataValue, -0.33, -0.25, -0.000977
DataValue, -0.34, -0.25, -0.00099624
DataValue, -0.35000000000000003, -0.25, -0.00101412
DataValue, -0.36000000000000004, -0.25, -0.0010306
DataValue, -0.37, -0.25, -0.00104554
DataValue, -0.38, -0.25, -0.00105994
DataValue, -0.39, -0.25, -0.0010726400000000001
DataValue, -0.4, -0.25, -0.0010838
DataValue, -0.4, -0.25, -0.00108412
DataValue, -0.39, -0.25, -0.0010753800000000001
DataValue, -0.38, -0.25, -0.0010646
DataValue, -0.37, -0.25, -0.0010527800000000001
DataValue, -0.36000000000000004, -0.25, -0.0010400000000000001
DataValue, -0.35000000000000003, -0.25, -0.0010261
DataValue, -0.34, -0.25, -0.0010104
DataValue, -0.33, -0.25, -0.00099392000000000013
DataValue, -0.32, -0.25, -0.00097582000000000007
DataValue, -0.31, -0.25, -0.00095688
DataValue, -0.3, -0.25, -0.00093664000000000009
DataValue, -0.29000000000000004, -0.25, -0.00091524000000000011
DataValue, -0.28, -0.25, -0.0008922200000000001
DataValue, -0.27, -0.25, -0.00086784
DataValue, -0.26, -0.25, -0.00084244000000000007
DataValue, -0.25, -0.25, -0.00081540000000000009
DataValue, -0.24000000000000002, -0.25, -0.00078820000000000008
DataValue, -0.23, -0.25, -0.0007592600000000001
DataValue, -0.22, -0.25, -0.00072936000000000008
DataValue, -0.21000000000000002, -0.25, -0.00069922000000000007
DataValue, -0.2, -0.25, -0.00066806
DataValue, -0.19, -0.25, -0.0006361
DataValue, -0.18000000000000002, -0.25, -0.00060438000000000006
DataValue, -0.17, -0.25, -0.00057184
DataValue, -0.16, -0.25, -0.00053994
DataValue, -0.15, -0.25, -0.00050788
DataValue, -0.14, -0.25, -0.0004761
DataValue, -0.13, -0.25, -0.00044488000000000004
DataValue, -0.12000000000000001, -0.25, -0.00041392
DataValue, -0.11, -0.25, -0.00038354000000000003
DataValue, -0.1, -0.25, -0.00035476
DataValue, -0.090000000000000011, -0.25, -0.00032652
DataValue, -0.08, -0.25, -0.00029912
DataValue, -0.07, -0.25, -0.00027334
DataValue, -0.060000000000000005, -0.25, -0.00024864
DataValue, -0.05, -0.25, -0.00022490000000000002
DataValue, -0.04, -0.25, -0.00020302000000000002
DataValue, -0.030000000000000002, -0.25, -0.00018218000000000002
DataValue, -0.02, -0.25, -0.00016314
DataValue, -0.01, -0.25, -0.00014528000000000002
DataValue, 0, -0.25, -0.00012854
DataValue, 0.01, -0.25, -0.00011364
DataValue, 0.02, -0.25, -9.8744E-05
DataValue, 0.030000000000000002, -0.25, -8.657E-05
DataValue, 0.04, -0.25, -7.5284E-05
DataValue, 0.05, -0.25, -6.4946E-05
DataValue, 0.060000000000000005, -0.25, -5.5802E-05
DataValue, 0.07, -0.25, -4.749E-05
DataValue, 0.08, -0.25, -4.0246E-05
DataValue, 0.090000000000000011, -0.25, -3.3848E-05
DataValue, 0.1, -0.25, -2.8238E-05
DataValue, 0.1, -0.25, -2.569E-05
DataValue, 0.090000000000000011, -0.25, -3.038E-05
DataValue, 0.08, -0.25, -3.5826E-05
DataValue, 0.07, -0.25, -4.2154E-05
DataValue, 0.060000000000000005, -0.25, -4.9348E-05
DataValue, 0.05, -0.25, -5.7368000000000004E-05
DataValue, 0.04, -0.25, -6.6404E-05
DataValue, 0.030000000000000002, -0.25, -7.6536E-05
DataValue, 0.02, -0.25, -8.761000000000001E-05
DataValue, 0.01, -0.25, -9.991600000000001E-05
DataValue, 0, -0.25, -0.00011345800000000001
DataValue, -0.01, -0.25, -0.00013148
DataValue, -0.02, -0.25, -0.00014688
DataValue, -0.030000000000000002, -0.25, -0.00016392000000000002
DataValue, -0.04, -0.25, -0.00018250000000000002
DataValue, -0.05, -0.25, -0.00020224000000000002
DataValue, -0.060000000000000005, -0.25, -0.0002234
DataValue, -0.07, -0.25, -0.00024604
DataValue, -0.08, -0.25, -0.00026986
DataValue, -0.090000000000000011, -0.25, -0.00029482
DataValue, -0.1, -0.25, -0.00032122000000000004
DataValue, -0.11, -0.25, -0.00034866000000000004
DataValue, -0.12000000000000001, -0.25, -0.0003769
DataValue, -0.13, -0.25, -0.00040634000000000004
DataValue, -0.14, -0.25, -0.00043660000000000004
DataValue, -0.15, -0.25, -0.00046718000000000004
DataValue, -0.16, -0.25, -0.00049848
DataValue, -0.17, -0.25, -0.00053004000000000007
DataValue, -0.18000000000000002, -0.25, -0.0005619
DataValue, -0.19, -0.25, -0.00059358
DataValue, -0.2, -0.25, -0.00062666
DataValue, -0.21000000000000002, -0.25, -0.00065786
DataValue, -0.22, -0.25, -0.000689
DataValue, -0.23, -0.25, -0.0007203200000000001
DataValue, -0.24000000000000002, -0.25, -0.00075056
DataValue, -0.25, -0.25, -0.00077986000000000006
DataValue, -0.26, -0.25, -0.0008086800000000001
DataValue, -0.27, -0.25, -0.00083614000000000008
DataValue, -0.28, -0.25, -0.00086320000000000006
DataValue, -0.29000000000000004, -0.25, -0.00088882
DataValue, -0.3, -0.25, -0.00091282000000000006
DataValue, -0.31, -0.25, -0.00093664000000000009
DataValue, -0.32, -0.25, -0.00095814
DataValue, -0.33, -0.25, -0.00097794
DataValue, -0.34, -0.25, -0.00099712
DataValue, -0.35000000000000003, -0.25, -0.00101504
DataValue, -0.36000000000000004, -0.25, -0.00103158
DataValue, -0.37, -0.25, -0.0010467
DataValue, -0.38, -0.25, -0.00106072
DataValue, -0.39, -0.25, -0.0010735
DataValue, -0.4, -0.25, -0.0010853800000000002
DataValue, -0.4, -0.25, -0.0010855600000000002
DataValue, -0.39, -0.25, -0.00107624
DataValue, -0.38, -0.25, -0.0010657800000000001
DataValue, -0.37, -0.25, -0.0010535800000000001
DataValue, -0.36000000000000004, -0.25, -0.00104056
DataValue, -0.35000000000000003, -0.25, -0.0010263400000000002
DataValue, -0.34, -0.25, -0.0010112600000000002
DataValue, -0.33, -0.25, -0.00099484
DataValue, -0.32, -0.25, -0.00097674
DataValue, -0.31, -0.25, -0.0009579
DataValue, -0.3, -0.25, -0.0009374
DataValue, -0.29000000000000004, -0.25, -0.00091564
DataValue, -0.28, -0.25, -0.0008928400000000001
DataValue, -0.27, -0.25, -0.00086824
DataValue, -0.26, -0.25, -0.00084284000000000008
DataValue, -0.25, -0.25, -0.00081632
DataValue, -0.24000000000000002, -0.25, -0.00078846
DataValue, -0.23, -0.25, -0.00075978
DataValue, -0.22, -0.25, -0.00073018000000000009
DataValue, -0.21000000000000002, -0.25, -0.00069936
DataValue, -0.2, -0.25, -0.00066872
DataValue, -0.19, -0.25, -0.00063716
DataValue, -0.18000000000000002, -0.25, -0.00060268000000000008
DataValue, -0.17, -0.25, -0.00057152000000000006
DataValue, -0.16, -0.25, -0.00053974
DataValue, -0.15, -0.25, -0.00050792
DataValue, -0.14, -0.25, -0.00047608000000000004
DataValue, -0.13, -0.25, -0.00044484
DataValue, -0.12000000000000001, -0.25, -0.00041436
DataValue, -0.11, -0.25, -0.00038436000000000004
DataValue, -0.1, -0.25, -0.00035514000000000005
DataValue, -0.090000000000000011, -0.25, -0.00032700000000000003
DataValue, -0.08, -0.25, -0.00029988000000000004
DataValue, -0.07, -0.25, -0.00027386
DataValue, -0.060000000000000005, -0.25, -0.00024934
DataValue, -0.05, -0.25, -0.00022590000000000002
DataValue, -0.04, -0.25, -0.00020370000000000002
DataValue, -0.030000000000000002, -0.25, -0.00018298
DataValue, -0.02, -0.25, -0.00016370000000000002
DataValue, -0.01, -0.25, -0.00014570000000000002
DataValue, 0, -0.25, -0.00012906000000000002
DataValue, 0.01, -0.25, -0.00011388
DataValue, 0.02, -0.25, -9.9940000000000009E-05
DataValue, 0.030000000000000002, -0.25, -8.6326E-05
DataValue, 0.04, -0.25, -7.529E-05
DataValue, 0.05, -0.25, -6.498E-05
DataValue, 0.060000000000000005, -0.25, -5.5820000000000004E-05
DataValue, 0.07, -0.25, -4.7654E-05
DataValue, 0.08, -0.25, -4.0252E-05
