
SetupTitle, (c1) Output curve in LGP
PrimitiveTest, I/V Sweep
TestParameter, Context.MainFrame, B1500A
TestParameter, Channel.UnitType, SMU, SMU
TestParameter, Channel.Unit, SMU1:HR/AS, SMU2:HR/AS
TestParameter, Channel.IName, Ig, Id
TestParameter, Channel.VName, Vg, Vd
TestParameter, Channel.Mode, V, V
TestParameter, Channel.Func, VAR2, VAR1
TestParameter, Channel.Index, 
TestParameter, Channel.Time, 
TestParameter, Measurement.Port.Unit, SMU1:HR/AS, SMU2:HR/AS
TestParameter, Measurement.Port.SeriesResistor, NONE, NONE
TestParameter, Measurement.Port.Filter, ON, ON
TestParameter, Measurement.Port.OutputVoltageComparison, 0, 0
TestParameter, Measurement.Primary.Locus, Double
TestParameter, Measurement.Primary.Scale, LINEAR
TestParameter, Measurement.Primary.Start, 0.1
TestParameter, Measurement.Primary.Stop, -0.5
TestParameter, Measurement.Primary.Step, -0.012
TestParameter, Measurement.Primary.Compliance, 0.1
TestParameter, Measurement.Primary.PowerCompliance, 0
TestParameter, Measurement.Aborting.Condition, CONTINUE AT ANY
TestParameter, Measurement.PostOutput.Value, START
TestParameter, Measurement.PostOutput.Retention, OFF
TestParameter, Measurement.Secondary.Start, 0.1
TestParameter, Measurement.Secondary.Count, 6
TestParameter, Measurement.Secondary.Step, -0.1
TestParameter, Measurement.Secondary.Compliance, 0.0001
TestParameter, Measurement.Secondary.PowerCompliance, 0
TestParameter, Measurement.Bias.Source, 0.1, 0.1
TestParameter, Measurement.Bias.Compliance, 0.0001, 0.1
TestParameter, Measurement.Monitor.Unit, SMU1:HR/AS, SMU2:HR/AS
TestParameter, Measurement.Monitor.Adc, HR ADC, HR ADC
TestParameter, Measurement.Monitor.Measurement, Compliance Side, Compliance Side
TestParameter, Measurement.Monitor.RangingMode, LIMITED, LIMITED
TestParameter, Measurement.Monitor.RangeBoundary, 1nA, 1nA
TestParameter, Measurement.Monitor.RangeRating, BY FULL RANGE, BY FULL RANGE
TestParameter, Measurement.Monitor.RangeRatingCoeff, 50, 50
TestParameter, Measurement.Timing.Hold, 0
TestParameter, Measurement.Timing.Delay, 0
TestParameter, Measurement.Adc.HighSpeed.Mode, AUTO
TestParameter, Measurement.Adc.HighSpeed.Coeff, 1
TestParameter, Measurement.Adc.HighResolution.AutoZero, OFF
TestParameter, Measurement.Adc.HighResolution.Mode, AUTO
TestParameter, Measurement.Adc.HighResolution.Coeff, 6
TestParameter, Measurement.WaitTime.Source.Coeff, 1
TestParameter, Measurement.WaitTime.Source.Offset, 0
TestParameter, Measurement.WaitTime.Monitor.Coeff, 1
TestParameter, Measurement.WaitTime.Monitor.Offset, 0
TestParameter, Output.Graph.Enabled, true
TestParameter, Output.Graph.AutoScaling, false
TestParameter, Output.Graph.XAxis.Data, Vd
TestParameter, Output.Graph.XAxis.Scale, Linear
TestParameter, Output.Graph.XAxis.Left, 0
TestParameter, Output.Graph.XAxis.Right, -0.5
TestParameter, Output.Graph.XAxis.RunTimeAutoScale, true
TestParameter, Output.Graph.YAxis.Data, Id
TestParameter, Output.Graph.YAxis.Scale, Linear
TestParameter, Output.Graph.YAxis.Bottom, -0.1
TestParameter, Output.Graph.YAxis.Top, 0.1
TestParameter, Output.Graph.YAxis.Group, 
TestParameter, Output.Graph.YAxis.RunTimeAutoScale, true
TestParameter, Output.List.Data, Vd, Vg, Id
TestParameter, AutoAnalysis.Interpolation, false
TestParameter, AutoAnalysis.Var2StepCount, 1
TestParameter, AutoAnalysis.Var2StepScript, 
TestParameter, AutoAnalysis.Line1.Enabled, false
TestParameter, AutoAnalysis.Line1.Type, 1
TestParameter, AutoAnalysis.Line1.Fix, True
TestParameter, AutoAnalysis.Line1.YAxis, 0
TestParameter, AutoAnalysis.Line1.Point1.Type, 0
TestParameter, AutoAnalysis.Line1.Point1.XY.X, 
TestParameter, AutoAnalysis.Line1.Point1.XY.Y, 
TestParameter, AutoAnalysis.Line1.Point1.Data.Var, 
TestParameter, AutoAnalysis.Line1.Point1.Data.Condition, 
TestParameter, AutoAnalysis.Line1.Point1.Data.Start, false
TestParameter, AutoAnalysis.Line1.Point1.Data.StartVar, 
TestParameter, AutoAnalysis.Line1.Point1.Data.StartCondition, 
TestParameter, AutoAnalysis.Line1.Point2.Type, 0
TestParameter, AutoAnalysis.Line1.Point2.XY.X, 
TestParameter, AutoAnalysis.Line1.Point2.XY.Y, 
TestParameter, AutoAnalysis.Line1.Point2.Data.Var, 
TestParameter, AutoAnalysis.Line1.Point2.Data.Condition, 
TestParameter, AutoAnalysis.Line1.Point2.Data.Start, false
TestParameter, AutoAnalysis.Line1.Point2.Data.StartVar, 
TestParameter, AutoAnalysis.Line1.Point2.Data.StartCondition, 
TestParameter, AutoAnalysis.Line1.GradientExpr, 0
TestParameter, AutoAnalysis.Line2.Enabled, false
TestParameter, AutoAnalysis.Line2.Type, 1
TestParameter, AutoAnalysis.Line2.Fix, True
TestParameter, AutoAnalysis.Line2.YAxis, 0
TestParameter, AutoAnalysis.Line2.Point1.Type, 0
TestParameter, AutoAnalysis.Line2.Point1.XY.X, 
TestParameter, AutoAnalysis.Line2.Point1.XY.Y, 
TestParameter, AutoAnalysis.Line2.Point1.Data.Var, 
TestParameter, AutoAnalysis.Line2.Point1.Data.Condition, 
TestParameter, AutoAnalysis.Line2.Point1.Data.Start, false
TestParameter, AutoAnalysis.Line2.Point1.Data.StartVar, 
TestParameter, AutoAnalysis.Line2.Point1.Data.StartCondition, 
TestParameter, AutoAnalysis.Line2.Point2.Type, 0
TestParameter, AutoAnalysis.Line2.Point2.XY.X, 
TestParameter, AutoAnalysis.Line2.Point2.XY.Y, 
TestParameter, AutoAnalysis.Line2.Point2.Data.Var, 
TestParameter, AutoAnalysis.Line2.Point2.Data.Condition, 
TestParameter, AutoAnalysis.Line2.Point2.Data.Start, false
TestParameter, AutoAnalysis.Line2.Point2.Data.StartVar, 
TestParameter, AutoAnalysis.Line2.Point2.Data.StartCondition, 
TestParameter, AutoAnalysis.Line2.GradientExpr, 0
TestParameter, AutoAnalysis.Marker.Enabled, false
TestParameter, AutoAnalysis.Marker.Data.Var, 
TestParameter, AutoAnalysis.Marker.Data.Condition, 
TestParameter, AutoAnalysis.Marker.Data.Start, false
TestParameter, AutoAnalysis.Marker.Data.StartVar, 
TestParameter, AutoAnalysis.Marker.Data.StartCondition, 
MetaData, TestRecord.EntryPoint, true
MetaData, TestRecord.RecordTime, 12/22/2024 05:41:56
MetaData, TestRecord.TestTarget, 
MetaData, TestRecord.IterationIndex, 1
MetaData, TestRecord.Preservation, true
MetaData, TestRecord.Flag, 
MetaData, TestRecord.Remarks, 2.5wt-s21c1
MetaData, TestRecord.LinkKey, 4dc17a87-b6e2-4058-9593-1c472c425213
MetaData, TestRecord.Parameters, 
Dimension1, 102, 102, 102
Dimension2, 6, 6, 6
DataName, Vd, Vg, Id
DataValue, 0.1, 0.1, 1.2722000000000001E-05
DataValue, 0.088000000000000009, 0.1, 1.0574E-05
DataValue, 0.076, 0.1, 8.5385000000000013E-06
DataValue, 0.064, 0.1, 6.7564000000000011E-06
DataValue, 0.052000000000000005, 0.1, 5.1662000000000006E-06
DataValue, 0.04, 0.1, 3.6789000000000005E-06
DataValue, 0.028, 0.1, 2.4073000000000002E-06
DataValue, 0.016, 0.1, 1.3072000000000002E-06
DataValue, 0.004, 0.1, 2.894E-07
DataValue, -0.008, 0.1, -5.5046E-07
DataValue, -0.02, 0.1, -1.2528E-06
DataValue, -0.032, 0.1, -1.9200000000000003E-06
DataValue, -0.044000000000000004, 0.1, -2.4054000000000003E-06
DataValue, -0.056, 0.1, -2.8613000000000005E-06
DataValue, -0.068, 0.1, -3.2605000000000004E-06
DataValue, -0.08, 0.1, -3.5198E-06
DataValue, -0.092, 0.1, -3.7753000000000005E-06
DataValue, -0.10400000000000001, 0.1, -4.0037E-06
DataValue, -0.116, 0.1, -4.1229000000000008E-06
DataValue, -0.128, 0.1, -4.2235E-06
DataValue, -0.14, 0.1, -4.3523000000000007E-06
DataValue, -0.152, 0.1, -4.4139E-06
DataValue, -0.164, 0.1, -4.415E-06
DataValue, -0.17600000000000002, 0.1, -4.4811E-06
DataValue, -0.188, 0.1, -4.5018000000000007E-06
DataValue, -0.2, 0.1, -4.4718E-06
DataValue, -0.21200000000000002, 0.1, -4.4977E-06
DataValue, -0.224, 0.1, -4.5175E-06
DataValue, -0.23600000000000002, 0.1, -4.4792E-06
DataValue, -0.248, 0.1, -4.4785E-06
DataValue, -0.26, 0.1, -4.512E-06
DataValue, -0.272, 0.1, -4.475E-06
DataValue, -0.28400000000000003, 0.1, -4.4523000000000006E-06
DataValue, -0.29600000000000004, 0.1, -4.483E-06
DataValue, -0.308, 0.1, -4.4484000000000005E-06
DataValue, -0.32, 0.1, -4.4269000000000008E-06
DataValue, -0.332, 0.1, -4.4547000000000007E-06
DataValue, -0.34400000000000003, 0.1, -4.4408000000000007E-06
DataValue, -0.35600000000000004, 0.1, -4.4026000000000008E-06
DataValue, -0.368, 0.1, -4.4359E-06
DataValue, -0.38, 0.1, -4.3887000000000009E-06
DataValue, -0.392, 0.1, -4.3862000000000005E-06
DataValue, -0.404, 0.1, -4.4102000000000006E-06
DataValue, -0.41600000000000004, 0.1, -4.3620000000000008E-06
DataValue, -0.42800000000000005, 0.1, -4.3627000000000006E-06
DataValue, -0.44, 0.1, -4.3940000000000006E-06
DataValue, -0.452, 0.1, -4.3404000000000008E-06
DataValue, -0.464, 0.1, -4.3379000000000004E-06
DataValue, -0.47600000000000003, 0.1, -4.3719000000000004E-06
DataValue, -0.48800000000000004, 0.1, -4.3479E-06
DataValue, -0.5, 0.1, -4.3199000000000008E-06
DataValue, -0.5, 0.1, -4.3418000000000005E-06
DataValue, -0.48800000000000004, 0.1, -4.3297E-06
DataValue, -0.47600000000000003, 0.1, -4.2723000000000006E-06
DataValue, -0.464, 0.1, -4.2982000000000006E-06
DataValue, -0.452, 0.1, -4.2839000000000006E-06
DataValue, -0.44, 0.1, -4.2349000000000007E-06
DataValue, -0.42800000000000005, 0.1, -4.2668E-06
DataValue, -0.41600000000000004, 0.1, -4.2500000000000008E-06
DataValue, -0.404, 0.1, -4.2084E-06
DataValue, -0.392, 0.1, -4.2375000000000005E-06
DataValue, -0.38, 0.1, -4.2072E-06
DataValue, -0.368, 0.1, -4.1652E-06
DataValue, -0.35600000000000004, 0.1, -4.198E-06
DataValue, -0.34400000000000003, 0.1, -4.1677000000000008E-06
DataValue, -0.332, 0.1, -4.1286000000000006E-06
DataValue, -0.32, 0.1, -4.1560000000000005E-06
DataValue, -0.308, 0.1, -4.1260000000000008E-06
DataValue, -0.29600000000000004, 0.1, -4.0827000000000007E-06
DataValue, -0.28400000000000003, 0.1, -4.1121000000000008E-06
DataValue, -0.272, 0.1, -4.0746000000000008E-06
DataValue, -0.26, 0.1, -4.0348000000000007E-06
DataValue, -0.248, 0.1, -4.0613E-06
DataValue, -0.23600000000000002, 0.1, -4.0346E-06
DataValue, -0.224, 0.1, -3.9818000000000006E-06
DataValue, -0.21200000000000002, 0.1, -3.9919000000000007E-06
DataValue, -0.2, 0.1, -3.9643E-06
DataValue, -0.188, 0.1, -3.8915000000000008E-06
DataValue, -0.17600000000000002, 0.1, -3.853E-06
DataValue, -0.164, 0.1, -3.8416000000000006E-06
DataValue, -0.152, 0.1, -3.7511000000000004E-06
DataValue, -0.14, 0.1, -3.6566000000000003E-06
DataValue, -0.128, 0.1, -3.6105000000000004E-06
DataValue, -0.116, 0.1, -3.4839000000000002E-06
DataValue, -0.10400000000000001, 0.1, -3.3074000000000003E-06
DataValue, -0.092, 0.1, -3.1754E-06
DataValue, -0.08, 0.1, -2.9700000000000004E-06
DataValue, -0.068, 0.1, -2.6761E-06
DataValue, -0.056, 0.1, -2.3934000000000002E-06
DataValue, -0.044000000000000004, 0.1, -2.0514000000000004E-06
DataValue, -0.032, 0.1, -1.571E-06
DataValue, -0.02, 0.1, -1.0638E-06
DataValue, -0.008, 0.1, -4.4354E-07
DataValue, 0.004, 0.1, 2.4248E-07
DataValue, 0.016, 0.1, 1.05992E-06
DataValue, 0.028, 0.1, 2.0521000000000002E-06
DataValue, 0.04, 0.1, 3.2000000000000003E-06
DataValue, 0.052000000000000005, 0.1, 4.4688E-06
DataValue, 0.064, 0.1, 5.8625E-06
DataValue, 0.076, 0.1, 7.4926000000000009E-06
DataValue, 0.088000000000000009, 0.1, 9.3412000000000013E-06
DataValue, 0.1, 0.1, 1.1325100000000001E-05
DataValue, 0.1, 0, 2.7166E-05
DataValue, 0.088000000000000009, 0, 2.3002E-05
DataValue, 0.076, 0, 1.9006E-05
DataValue, 0.064, 0, 1.5294E-05
DataValue, 0.052000000000000005, 0, 1.1912E-05
DataValue, 0.04, 0, 8.694E-06
DataValue, 0.028, 0, 5.8300000000000009E-06
DataValue, 0.016, 0, 3.1770000000000002E-06
DataValue, 0.004, 0, 7.5278E-07
DataValue, -0.008, 0, -1.4287000000000002E-06
DataValue, -0.02, 0, -3.4595000000000005E-06
DataValue, -0.032, 0, -5.2466000000000007E-06
DataValue, -0.044000000000000004, 0, -6.8037000000000006E-06
DataValue, -0.056, 0, -8.2743000000000014E-06
DataValue, -0.068, 0, -9.5111000000000011E-06
DataValue, -0.08, 0, -1.0589100000000002E-05
DataValue, -0.092, 0, -1.1506E-05
DataValue, -0.10400000000000001, 0, -1.2324000000000001E-05
DataValue, -0.116, 0, -1.3064E-05
DataValue, -0.128, 0, -1.3724000000000001E-05
DataValue, -0.14, 0, -1.4246E-05
DataValue, -0.152, 0, -1.4666E-05
DataValue, -0.164, 0, -1.5088E-05
DataValue, -0.17600000000000002, 0, -1.541E-05
DataValue, -0.188, 0, -1.5622E-05
DataValue, -0.2, 0, -1.5854E-05
DataValue, -0.21200000000000002, 0, -1.6054E-05
DataValue, -0.224, 0, -1.6162000000000002E-05
DataValue, -0.23600000000000002, 0, -1.6238E-05
DataValue, -0.248, 0, -1.6386000000000002E-05
DataValue, -0.26, 0, -1.6468000000000002E-05
DataValue, -0.272, 0, -1.646E-05
DataValue, -0.28400000000000003, 0, -1.653E-05
DataValue, -0.29600000000000004, 0, -1.6622E-05
DataValue, -0.308, 0, -1.6616E-05
DataValue, -0.32, 0, -1.6586E-05
DataValue, -0.332, 0, -1.6636E-05
DataValue, -0.34400000000000003, 0, -1.6694E-05
DataValue, -0.35600000000000004, 0, -1.665E-05
DataValue, -0.368, 0, -1.6654E-05
DataValue, -0.38, 0, -1.673E-05
DataValue, -0.392, 0, -1.6746000000000002E-05
DataValue, -0.404, 0, -1.6702E-05
DataValue, -0.41600000000000004, 0, -1.6728E-05
DataValue, -0.42800000000000005, 0, -1.6764E-05
DataValue, -0.44, 0, -1.6768E-05
DataValue, -0.452, 0, -1.6722E-05
DataValue, -0.464, 0, -1.675E-05
DataValue, -0.47600000000000003, 0, -1.6788E-05
DataValue, -0.48800000000000004, 0, -1.6778E-05
DataValue, -0.5, 0, -1.6766000000000002E-05
DataValue, -0.5, 0, -1.674E-05
DataValue, -0.48800000000000004, 0, -1.675E-05
DataValue, -0.47600000000000003, 0, -1.6708E-05
DataValue, -0.464, 0, -1.6646E-05
DataValue, -0.452, 0, -1.6606E-05
DataValue, -0.44, 0, -1.66E-05
DataValue, -0.42800000000000005, 0, -1.6552E-05
DataValue, -0.41600000000000004, 0, -1.6494E-05
DataValue, -0.404, 0, -1.6504E-05
DataValue, -0.392, 0, -1.6494E-05
DataValue, -0.38, 0, -1.6456E-05
DataValue, -0.368, 0, -1.637E-05
DataValue, -0.35600000000000004, 0, -1.6352000000000002E-05
DataValue, -0.34400000000000003, 0, -1.6364E-05
DataValue, -0.332, 0, -1.6284000000000002E-05
DataValue, -0.32, 0, -1.6214E-05
DataValue, -0.308, 0, -1.6174E-05
DataValue, -0.29600000000000004, 0, -1.6156E-05
DataValue, -0.28400000000000003, 0, -1.6034E-05
DataValue, -0.272, 0, -1.5964E-05
DataValue, -0.26, 0, -1.5928E-05
DataValue, -0.248, 0, -1.5834E-05
DataValue, -0.23600000000000002, 0, -1.5692E-05
DataValue, -0.224, 0, -1.5574E-05
DataValue, -0.21200000000000002, 0, -1.5458E-05
DataValue, -0.2, 0, -1.5258E-05
DataValue, -0.188, 0, -1.5014E-05
DataValue, -0.17600000000000002, 0, -1.4742E-05
DataValue, -0.164, 0, -1.448E-05
DataValue, -0.152, 0, -1.4114E-05
DataValue, -0.14, 0, -1.364E-05
DataValue, -0.128, 0, -1.3138E-05
DataValue, -0.116, 0, -1.2616E-05
DataValue, -0.10400000000000001, 0, -1.1908E-05
DataValue, -0.092, 0, -1.1074000000000001E-05
DataValue, -0.08, 0, -1.019E-05
DataValue, -0.068, 0, -9.1976000000000015E-06
DataValue, -0.056, 0, -8.0172E-06
DataValue, -0.044000000000000004, 0, -6.6039E-06
DataValue, -0.032, 0, -5.0848000000000009E-06
DataValue, -0.02, 0, -3.3804000000000003E-06
DataValue, -0.008, 0, -1.3997000000000001E-06
DataValue, 0.004, 0, 7.1346E-07
DataValue, 0.016, 0, 3.1466000000000005E-06
DataValue, 0.028, 0, 5.8504000000000008E-06
DataValue, 0.04, 0, 8.7283E-06
DataValue, 0.052000000000000005, 0, 1.2066000000000001E-05
DataValue, 0.064, 0, 1.5554E-05
DataValue, 0.076, 0, 1.9286E-05
DataValue, 0.088000000000000009, 0, 2.3408E-05
DataValue, 0.1, 0, 2.7868E-05
DataValue, 0.1, -0.1, 5.0942E-05
DataValue, 0.088000000000000009, -0.1, 4.3824E-05
DataValue, 0.076, -0.1, 3.6858E-05
DataValue, 0.064, -0.1, 3.0136E-05
DataValue, 0.052000000000000005, -0.1, 2.3784E-05
DataValue, 0.04, -0.1, 1.7788E-05
DataValue, 0.028, -0.1, 1.2068E-05
DataValue, 0.016, -0.1, 6.6454000000000008E-06
DataValue, 0.004, -0.1, 1.6024000000000001E-06
DataValue, -0.008, -0.1, -3.2012000000000004E-06
DataValue, -0.02, -0.1, -7.6327E-06
DataValue, -0.032, -0.1, -1.1666E-05
DataValue, -0.044000000000000004, -0.1, -1.5542E-05
DataValue, -0.056, -0.1, -1.9024E-05
DataValue, -0.068, -0.1, -2.2262E-05
DataValue, -0.08, -0.1, -2.5286E-05
DataValue, -0.092, -0.1, -2.7974E-05
DataValue, -0.10400000000000001, -0.1, -3.0396000000000002E-05
DataValue, -0.116, -0.1, -3.2658E-05
DataValue, -0.128, -0.1, -3.4656E-05
DataValue, -0.14, -0.1, -3.642E-05
DataValue, -0.152, -0.1, -3.7964000000000004E-05
DataValue, -0.164, -0.1, -3.9422E-05
DataValue, -0.17600000000000002, -0.1, -4.0656E-05
DataValue, -0.188, -0.1, -4.1676E-05
DataValue, -0.2, -0.1, -4.2668E-05
DataValue, -0.21200000000000002, -0.1, -4.3512E-05
DataValue, -0.224, -0.1, -4.418E-05
DataValue, -0.23600000000000002, -0.1, -4.4794E-05
DataValue, -0.248, -0.1, -4.5328000000000004E-05
DataValue, -0.26, -0.1, -4.5736000000000004E-05
DataValue, -0.272, -0.1, -4.6088E-05
DataValue, -0.28400000000000003, -0.1, -4.6410000000000005E-05
DataValue, -0.29600000000000004, -0.1, -4.6664E-05
DataValue, -0.308, -0.1, -4.6782E-05
DataValue, -0.32, -0.1, -4.7034000000000004E-05
DataValue, -0.332, -0.1, -4.7178E-05
DataValue, -0.34400000000000003, -0.1, -4.7318E-05
DataValue, -0.35600000000000004, -0.1, -4.7386E-05
DataValue, -0.368, -0.1, -4.7516000000000004E-05
DataValue, -0.38, -0.1, -4.7594E-05
DataValue, -0.392, -0.1, -4.756E-05
DataValue, -0.404, -0.1, -4.7678E-05
DataValue, -0.41600000000000004, -0.1, -4.7768E-05
DataValue, -0.42800000000000005, -0.1, -4.7712E-05
DataValue, -0.44, -0.1, -4.7806E-05
DataValue, -0.452, -0.1, -4.7892E-05
DataValue, -0.464, -0.1, -4.7884000000000004E-05
DataValue, -0.47600000000000003, -0.1, -4.7932E-05
DataValue, -0.48800000000000004, -0.1, -4.8002E-05
DataValue, -0.5, -0.1, -4.8018E-05
DataValue, -0.5, -0.1, -4.7858E-05
DataValue, -0.48800000000000004, -0.1, -4.7788000000000004E-05
DataValue, -0.47600000000000003, -0.1, -4.7696E-05
DataValue, -0.464, -0.1, -4.7574E-05
DataValue, -0.452, -0.1, -4.7506E-05
DataValue, -0.44, -0.1, -4.7474E-05
DataValue, -0.42800000000000005, -0.1, -4.7282E-05
DataValue, -0.41600000000000004, -0.1, -4.7172E-05
DataValue, -0.404, -0.1, -4.7054E-05
DataValue, -0.392, -0.1, -4.6992E-05
DataValue, -0.38, -0.1, -4.6854E-05
DataValue, -0.368, -0.1, -4.667E-05
DataValue, -0.35600000000000004, -0.1, -4.6612E-05
DataValue, -0.34400000000000003, -0.1, -4.6394E-05
DataValue, -0.332, -0.1, -4.618E-05
DataValue, -0.32, -0.1, -4.5948E-05
DataValue, -0.308, -0.1, -4.5772E-05
DataValue, -0.29600000000000004, -0.1, -4.5438E-05
DataValue, -0.28400000000000003, -0.1, -4.5134E-05
DataValue, -0.272, -0.1, -4.4844E-05
DataValue, -0.26, -0.1, -4.4378E-05
DataValue, -0.248, -0.1, -4.3914E-05
DataValue, -0.23600000000000002, -0.1, -4.3424E-05
DataValue, -0.224, -0.1, -4.282E-05
DataValue, -0.21200000000000002, -0.1, -4.2088E-05
DataValue, -0.2, -0.1, -4.1276E-05
DataValue, -0.188, -0.1, -4.0374000000000003E-05
DataValue, -0.17600000000000002, -0.1, -3.9282E-05
DataValue, -0.164, -0.1, -3.8082E-05
DataValue, -0.152, -0.1, -3.6784E-05
DataValue, -0.14, -0.1, -3.523E-05
DataValue, -0.128, -0.1, -3.347E-05
DataValue, -0.116, -0.1, -3.1562E-05
DataValue, -0.10400000000000001, -0.1, -2.9468E-05
DataValue, -0.092, -0.1, -2.7154E-05
DataValue, -0.08, -0.1, -2.4496E-05
DataValue, -0.068, -0.1, -2.166E-05
DataValue, -0.056, -0.1, -1.8592E-05
DataValue, -0.044000000000000004, -0.1, -1.5166E-05
DataValue, -0.032, -0.1, -1.1416E-05
DataValue, -0.02, -0.1, -7.4960000000000007E-06
DataValue, -0.008, -0.1, -3.0933000000000005E-06
DataValue, 0.004, -0.1, 1.5693000000000002E-06
DataValue, 0.016, -0.1, 6.547400000000001E-06
DataValue, 0.028, -0.1, 1.2064E-05
DataValue, 0.04, -0.1, 1.7738000000000002E-05
DataValue, 0.052000000000000005, -0.1, 2.3804E-05
DataValue, 0.064, -0.1, 3.027E-05
DataValue, 0.076, -0.1, 3.7008E-05
DataValue, 0.088000000000000009, -0.1, 4.407E-05
DataValue, 0.1, -0.1, 5.1548E-05
DataValue, 0.1, -0.2, 7.5226E-05
DataValue, 0.088000000000000009, -0.2, 6.541E-05
DataValue, 0.076, -0.2, 5.5802E-05
DataValue, 0.064, -0.2, 4.6326E-05
DataValue, 0.052000000000000005, -0.2, 3.707E-05
DataValue, 0.04, -0.2, 2.811E-05
DataValue, 0.028, -0.2, 1.9358E-05
DataValue, 0.016, -0.2, 1.081E-05
DataValue, 0.004, -0.2, 2.6471000000000005E-06
DataValue, -0.008, -0.2, -5.3516000000000006E-06
DataValue, -0.02, -0.2, -1.2908E-05
DataValue, -0.032, -0.2, -2.0234E-05
