
SetupTitle, (c1) Output curve in LGP
PrimitiveTest, I/V Sweep
TestParameter, Context.MainFrame, B1500A
TestParameter, Channel.UnitType, SMU, SMU
TestParameter, Channel.Unit, SMU1:HR/AS, SMU2:HR/AS
TestParameter, Channel.IName, Ig, Id
TestParameter, Channel.VName, Vg, Vd
TestParameter, Channel.Mode, V, V
TestParameter, Channel.Func, VAR2, VAR1
TestParameter, Channel.Index, 
TestParameter, Channel.Time, 
TestParameter, Measurement.Port.Unit, SMU1:HR/AS, SMU2:HR/AS
TestParameter, Measurement.Port.SeriesResistor, NONE, NONE
TestParameter, Measurement.Port.Filter, ON, ON
TestParameter, Measurement.Port.OutputVoltageComparison, 0, 0
TestParameter, Measurement.Primary.Locus, Double
TestParameter, Measurement.Primary.Scale, LINEAR
TestParameter, Measurement.Primary.Start, 0.1
TestParameter, Measurement.Primary.Stop, -0.5
TestParameter, Measurement.Primary.Step, -0.012
TestParameter, Measurement.Primary.Compliance, 0.1
TestParameter, Measurement.Primary.PowerCompliance, 0
TestParameter, Measurement.Aborting.Condition, CONTINUE AT ANY
TestParameter, Measurement.PostOutput.Value, START
TestParameter, Measurement.PostOutput.Retention, OFF
TestParameter, Measurement.Secondary.Start, 0.1
TestParameter, Measurement.Secondary.Count, 6
TestParameter, Measurement.Secondary.Step, -0.1
TestParameter, Measurement.Secondary.Compliance, 0.0001
TestParameter, Measurement.Secondary.PowerCompliance, 0
TestParameter, Measurement.Bias.Source, 0.1, 0.1
TestParameter, Measurement.Bias.Compliance, 0.0001, 0.1
TestParameter, Measurement.Monitor.Unit, SMU1:HR/AS, SMU2:HR/AS
TestParameter, Measurement.Monitor.Adc, HR ADC, HR ADC
TestParameter, Measurement.Monitor.Measurement, Compliance Side, Compliance Side
TestParameter, Measurement.Monitor.RangingMode, LIMITED, LIMITED
TestParameter, Measurement.Monitor.RangeBoundary, 1nA, 1nA
TestParameter, Measurement.Monitor.RangeRating, BY FULL RANGE, BY FULL RANGE
TestParameter, Measurement.Monitor.RangeRatingCoeff, 50, 50
TestParameter, Measurement.Timing.Hold, 0
TestParameter, Measurement.Timing.Delay, 0
TestParameter, Measurement.Adc.HighSpeed.Mode, AUTO
TestParameter, Measurement.Adc.HighSpeed.Coeff, 1
TestParameter, Measurement.Adc.HighResolution.AutoZero, OFF
TestParameter, Measurement.Adc.HighResolution.Mode, AUTO
TestParameter, Measurement.Adc.HighResolution.Coeff, 6
TestParameter, Measurement.WaitTime.Source.Coeff, 1
TestParameter, Measurement.WaitTime.Source.Offset, 0
TestParameter, Measurement.WaitTime.Monitor.Coeff, 1
TestParameter, Measurement.WaitTime.Monitor.Offset, 0
TestParameter, Output.Graph.Enabled, true
TestParameter, Output.Graph.AutoScaling, false
TestParameter, Output.Graph.XAxis.Data, Vd
TestParameter, Output.Graph.XAxis.Scale, Linear
TestParameter, Output.Graph.XAxis.Left, 0
TestParameter, Output.Graph.XAxis.Right, -0.5
TestParameter, Output.Graph.XAxis.RunTimeAutoScale, true
TestParameter, Output.Graph.YAxis.Data, Id
TestParameter, Output.Graph.YAxis.Scale, Linear
TestParameter, Output.Graph.YAxis.Bottom, -0.1
TestParameter, Output.Graph.YAxis.Top, 0.1
TestParameter, Output.Graph.YAxis.Group, 
TestParameter, Output.Graph.YAxis.RunTimeAutoScale, true
TestParameter, Output.List.Data, Vd, Vg, Id
TestParameter, AutoAnalysis.Interpolation, false
TestParameter, AutoAnalysis.Var2StepCount, 1
TestParameter, AutoAnalysis.Var2StepScript, 
TestParameter, AutoAnalysis.Line1.Enabled, false
TestParameter, AutoAnalysis.Line1.Type, 1
TestParameter, AutoAnalysis.Line1.Fix, True
TestParameter, AutoAnalysis.Line1.YAxis, 0
TestParameter, AutoAnalysis.Line1.Point1.Type, 0
TestParameter, AutoAnalysis.Line1.Point1.XY.X, 
TestParameter, AutoAnalysis.Line1.Point1.XY.Y, 
TestParameter, AutoAnalysis.Line1.Point1.Data.Var, 
TestParameter, AutoAnalysis.Line1.Point1.Data.Condition, 
TestParameter, AutoAnalysis.Line1.Point1.Data.Start, false
TestParameter, AutoAnalysis.Line1.Point1.Data.StartVar, 
TestParameter, AutoAnalysis.Line1.Point1.Data.StartCondition, 
TestParameter, AutoAnalysis.Line1.Point2.Type, 0
TestParameter, AutoAnalysis.Line1.Point2.XY.X, 
TestParameter, AutoAnalysis.Line1.Point2.XY.Y, 
TestParameter, AutoAnalysis.Line1.Point2.Data.Var, 
TestParameter, AutoAnalysis.Line1.Point2.Data.Condition, 
TestParameter, AutoAnalysis.Line1.Point2.Data.Start, false
TestParameter, AutoAnalysis.Line1.Point2.Data.StartVar, 
TestParameter, AutoAnalysis.Line1.Point2.Data.StartCondition, 
TestParameter, AutoAnalysis.Line1.GradientExpr, 0
TestParameter, AutoAnalysis.Line2.Enabled, false
TestParameter, AutoAnalysis.Line2.Type, 1
TestParameter, AutoAnalysis.Line2.Fix, True
TestParameter, AutoAnalysis.Line2.YAxis, 0
TestParameter, AutoAnalysis.Line2.Point1.Type, 0
TestParameter, AutoAnalysis.Line2.Point1.XY.X, 
TestParameter, AutoAnalysis.Line2.Point1.XY.Y, 
TestParameter, AutoAnalysis.Line2.Point1.Data.Var, 
TestParameter, AutoAnalysis.Line2.Point1.Data.Condition, 
TestParameter, AutoAnalysis.Line2.Point1.Data.Start, false
TestParameter, AutoAnalysis.Line2.Point1.Data.StartVar, 
TestParameter, AutoAnalysis.Line2.Point1.Data.StartCondition, 
TestParameter, AutoAnalysis.Line2.Point2.Type, 0
TestParameter, AutoAnalysis.Line2.Point2.XY.X, 
TestParameter, AutoAnalysis.Line2.Point2.XY.Y, 
TestParameter, AutoAnalysis.Line2.Point2.Data.Var, 
TestParameter, AutoAnalysis.Line2.Point2.Data.Condition, 
TestParameter, AutoAnalysis.Line2.Point2.Data.Start, false
TestParameter, AutoAnalysis.Line2.Point2.Data.StartVar, 
TestParameter, AutoAnalysis.Line2.Point2.Data.StartCondition, 
TestParameter, AutoAnalysis.Line2.GradientExpr, 0
TestParameter, AutoAnalysis.Marker.Enabled, false
TestParameter, AutoAnalysis.Marker.Data.Var, 
TestParameter, AutoAnalysis.Marker.Data.Condition, 
TestParameter, AutoAnalysis.Marker.Data.Start, false
TestParameter, AutoAnalysis.Marker.Data.StartVar, 
TestParameter, AutoAnalysis.Marker.Data.StartCondition, 
MetaData, TestRecord.EntryPoint, true
MetaData, TestRecord.RecordTime, 12/22/2024 05:43:06
MetaData, TestRecord.TestTarget, 
MetaData, TestRecord.IterationIndex, 2
MetaData, TestRecord.Preservation, true
MetaData, TestRecord.Flag, 
MetaData, TestRecord.Remarks, 2.5wt-s21c2
MetaData, TestRecord.LinkKey, d9ced534-7389-4345-87dd-830ea991d899
MetaData, TestRecord.Parameters, 
Dimension1, 102, 102, 102
Dimension2, 6, 6, 6
DataName, Vd, Vg, Id
DataValue, 0.1, 0.1, 8.6604E-05
DataValue, 0.088000000000000009, 0.1, 7.2170000000000009E-05
DataValue, 0.076, 0.1, 5.8702E-05
DataValue, 0.064, 0.1, 4.6486E-05
DataValue, 0.052000000000000005, 0.1, 3.545E-05
DataValue, 0.04, 0.1, 2.5452E-05
DataValue, 0.028, 0.1, 1.6576000000000002E-05
DataValue, 0.016, 0.1, 8.7889000000000015E-06
DataValue, 0.004, 0.1, 1.9566E-06
DataValue, -0.008, 0.1, -3.8181000000000008E-06
DataValue, -0.02, 0.1, -8.7984E-06
DataValue, -0.032, 0.1, -1.2588E-05
DataValue, -0.044000000000000004, 0.1, -1.5968E-05
DataValue, -0.056, 0.1, -1.8788E-05
DataValue, -0.068, 0.1, -2.1038E-05
DataValue, -0.08, 0.1, -2.2718000000000002E-05
DataValue, -0.092, 0.1, -2.4048E-05
DataValue, -0.10400000000000001, 0.1, -2.5090000000000002E-05
DataValue, -0.116, 0.1, -2.5772E-05
DataValue, -0.128, 0.1, -2.6224E-05
DataValue, -0.14, 0.1, -2.6614E-05
DataValue, -0.152, 0.1, -2.6836000000000002E-05
DataValue, -0.164, 0.1, -2.6908E-05
DataValue, -0.17600000000000002, 0.1, -2.701E-05
DataValue, -0.188, 0.1, -2.7108000000000002E-05
DataValue, -0.2, 0.1, -2.7124E-05
DataValue, -0.21200000000000002, 0.1, -2.7082000000000003E-05
DataValue, -0.224, 0.1, -2.7098E-05
DataValue, -0.23600000000000002, 0.1, -2.7116000000000003E-05
DataValue, -0.248, 0.1, -2.7040000000000002E-05
DataValue, -0.26, 0.1, -2.6994E-05
DataValue, -0.272, 0.1, -2.7002E-05
DataValue, -0.28400000000000003, 0.1, -2.7000000000000002E-05
DataValue, -0.29600000000000004, 0.1, -2.6924000000000002E-05
DataValue, -0.308, 0.1, -2.6868E-05
DataValue, -0.32, 0.1, -2.6878000000000003E-05
DataValue, -0.332, 0.1, -2.6868E-05
DataValue, -0.34400000000000003, 0.1, -2.6778E-05
DataValue, -0.35600000000000004, 0.1, -2.675E-05
DataValue, -0.368, 0.1, -2.6772E-05
DataValue, -0.38, 0.1, -2.6732E-05
DataValue, -0.392, 0.1, -2.6632000000000002E-05
DataValue, -0.404, 0.1, -2.6660000000000002E-05
DataValue, -0.41600000000000004, 0.1, -2.6634E-05
DataValue, -0.42800000000000005, 0.1, -2.6558000000000002E-05
DataValue, -0.44, 0.1, -2.6558000000000002E-05
DataValue, -0.452, 0.1, -2.6578000000000002E-05
DataValue, -0.464, 0.1, -2.6508E-05
DataValue, -0.47600000000000003, 0.1, -2.6484000000000003E-05
DataValue, -0.48800000000000004, 0.1, -2.6516E-05
DataValue, -0.5, 0.1, -2.6492E-05
DataValue, -0.5, 0.1, -2.6428000000000002E-05
DataValue, -0.48800000000000004, 0.1, -2.6368000000000002E-05
DataValue, -0.47600000000000003, 0.1, -2.6394000000000002E-05
DataValue, -0.464, 0.1, -2.6356E-05
DataValue, -0.452, 0.1, -2.627E-05
DataValue, -0.44, 0.1, -2.6224E-05
DataValue, -0.42800000000000005, 0.1, -2.6236E-05
DataValue, -0.41600000000000004, 0.1, -2.6172E-05
DataValue, -0.404, 0.1, -2.6090000000000003E-05
DataValue, -0.392, 0.1, -2.6096000000000002E-05
DataValue, -0.38, 0.1, -2.6038E-05
DataValue, -0.368, 0.1, -2.5962E-05
DataValue, -0.35600000000000004, 0.1, -2.5954000000000003E-05
DataValue, -0.34400000000000003, 0.1, -2.5922E-05
DataValue, -0.332, 0.1, -2.5814E-05
DataValue, -0.32, 0.1, -2.5778E-05
DataValue, -0.308, 0.1, -2.5752E-05
DataValue, -0.29600000000000004, 0.1, -2.5664E-05
DataValue, -0.28400000000000003, 0.1, -2.5572000000000002E-05
DataValue, -0.272, 0.1, -2.5532000000000002E-05
DataValue, -0.26, 0.1, -2.5454E-05
DataValue, -0.248, 0.1, -2.5326E-05
DataValue, -0.23600000000000002, 0.1, -2.5242E-05
DataValue, -0.224, 0.1, -2.52E-05
DataValue, -0.21200000000000002, 0.1, -2.5058E-05
DataValue, -0.2, 0.1, -2.4900000000000002E-05
DataValue, -0.188, 0.1, -2.4802E-05
DataValue, -0.17600000000000002, 0.1, -2.4622000000000002E-05
DataValue, -0.164, 0.1, -2.4354E-05
DataValue, -0.152, 0.1, -2.4128E-05
DataValue, -0.14, 0.1, -2.3774E-05
DataValue, -0.128, 0.1, -2.3270000000000003E-05
DataValue, -0.116, 0.1, -2.27E-05
DataValue, -0.10400000000000001, 0.1, -2.2012000000000002E-05
DataValue, -0.092, 0.1, -2.1018E-05
DataValue, -0.08, 0.1, -1.9762E-05
DataValue, -0.068, 0.1, -1.823E-05
DataValue, -0.056, 0.1, -1.634E-05
DataValue, -0.044000000000000004, 0.1, -1.3938000000000001E-05
DataValue, -0.032, 0.1, -1.0968E-05
DataValue, -0.02, 0.1, -7.5589000000000006E-06
DataValue, -0.008, 0.1, -3.2602E-06
DataValue, 0.004, 0.1, 1.7593000000000003E-06
DataValue, 0.016, 0.1, 7.5779000000000007E-06
DataValue, 0.028, 0.1, 1.4654E-05
DataValue, 0.04, 0.1, 2.2458E-05
DataValue, 0.052000000000000005, 0.1, 3.128E-05
DataValue, 0.064, 0.1, 4.1304E-05
DataValue, 0.076, 0.1, 5.2514E-05
DataValue, 0.088000000000000009, 0.1, 6.4888E-05
DataValue, 0.1, 0.1, 7.8568E-05
DataValue, 0.1, 0, 0.00017558000000000002
DataValue, 0.088000000000000009, 0, 0.00015010000000000002
DataValue, 0.076, 0, 0.00012554000000000002
DataValue, 0.064, 0, 0.00010228
DataValue, 0.052000000000000005, 0, 8.0306E-05
DataValue, 0.04, 0, 5.9596E-05
DataValue, 0.028, 0, 4.0232000000000004E-05
DataValue, 0.016, 0, 2.2054E-05
DataValue, 0.004, 0, 5.2373000000000007E-06
DataValue, -0.008, 0, -1.0361900000000002E-05
DataValue, -0.02, 0, -2.4606E-05
DataValue, -0.032, 0, -3.7612E-05
DataValue, -0.044000000000000004, 0, -4.9590000000000005E-05
DataValue, -0.056, 0, -6.0242000000000004E-05
DataValue, -0.068, 0, -6.9732E-05
DataValue, -0.08, 0, -7.8244E-05
DataValue, -0.092, 0, -8.570000000000001E-05
DataValue, -0.10400000000000001, 0, -9.2086E-05
DataValue, -0.116, 0, -9.7674E-05
DataValue, -0.128, 0, -0.00010234
DataValue, -0.14, 0, -0.000106274
DataValue, -0.152, 0, -0.000109604
DataValue, -0.164, 0, -0.00011242
DataValue, -0.17600000000000002, 0, -0.00011344000000000001
DataValue, -0.188, 0, -0.00011534
DataValue, -0.2, 0, -0.00011688
DataValue, -0.21200000000000002, 0, -0.00011816000000000001
DataValue, -0.224, 0, -0.00011906
DataValue, -0.23600000000000002, 0, -0.00011974
DataValue, -0.248, 0, -0.00012042
DataValue, -0.26, 0, -0.00012082000000000001
DataValue, -0.272, 0, -0.00012106000000000001
DataValue, -0.28400000000000003, 0, -0.00012144
DataValue, -0.29600000000000004, 0, -0.0001217
DataValue, -0.308, 0, -0.00012182000000000001
DataValue, -0.32, 0, -0.00012204
DataValue, -0.332, 0, -0.00012222
DataValue, -0.34400000000000003, 0, -0.00012232
DataValue, -0.35600000000000004, 0, -0.00012244
DataValue, -0.368, 0, -0.00012264
DataValue, -0.38, 0, -0.0001227
DataValue, -0.392, 0, -0.0001227
DataValue, -0.404, 0, -0.00012286
DataValue, -0.41600000000000004, 0, -0.00012298000000000002
DataValue, -0.42800000000000005, 0, -0.00012286
DataValue, -0.44, 0, -0.00012298000000000002
DataValue, -0.452, 0, -0.0001231
DataValue, -0.464, 0, -0.00012308000000000002
DataValue, -0.47600000000000003, 0, -0.00012314000000000002
DataValue, -0.48800000000000004, 0, -0.00012322
DataValue, -0.5, 0, -0.00012318
DataValue, -0.5, 0, -0.00012316
DataValue, -0.48800000000000004, 0, -0.00012296
DataValue, -0.47600000000000003, 0, -0.0001229
DataValue, -0.464, 0, -0.00012274
DataValue, -0.452, 0, -0.00012258
DataValue, -0.44, 0, -0.00012240000000000002
DataValue, -0.42800000000000005, 0, -0.00012240000000000002
DataValue, -0.41600000000000004, 0, -0.00012216
DataValue, -0.404, 0, -0.00012192000000000001
DataValue, -0.392, 0, -0.00012178
DataValue, -0.38, 0, -0.00012168000000000001
DataValue, -0.368, 0, -0.00012134000000000001
DataValue, -0.35600000000000004, 0, -0.0001212
DataValue, -0.34400000000000003, 0, -0.00012108000000000001
DataValue, -0.332, 0, -0.00012076
DataValue, -0.32, 0, -0.00012042
DataValue, -0.308, 0, -0.00012020000000000001
DataValue, -0.29600000000000004, 0, -0.00011992
DataValue, -0.28400000000000003, 0, -0.0001195
DataValue, -0.272, 0, -0.00011902000000000001
DataValue, -0.26, 0, -0.00011856
DataValue, -0.248, 0, -0.00011800000000000001
DataValue, -0.23600000000000002, 0, -0.00011732000000000001
DataValue, -0.224, 0, -0.00011642000000000001
DataValue, -0.21200000000000002, 0, -0.00011548000000000001
DataValue, -0.2, 0, -0.00011428000000000001
DataValue, -0.188, 0, -0.0001127
DataValue, -0.17600000000000002, 0, -0.00011086
DataValue, -0.164, 0, -0.00010872
DataValue, -0.152, 0, -0.000106
DataValue, -0.14, 0, -0.00010268000000000001
DataValue, -0.128, 0, -9.9244E-05
DataValue, -0.116, 0, -9.4496E-05
DataValue, -0.10400000000000001, 0, -8.9072E-05
DataValue, -0.092, 0, -8.2948E-05
DataValue, -0.08, 0, -7.5854000000000009E-05
DataValue, -0.068, 0, -6.7646E-05
DataValue, -0.056, 0, -5.8474E-05
DataValue, -0.044000000000000004, 0, -4.8318E-05
DataValue, -0.032, 0, -3.6794E-05
DataValue, -0.02, 0, -2.4042E-05
DataValue, -0.008, 0, -1.0124E-05
DataValue, 0.004, 0, 5.1527000000000007E-06
DataValue, 0.016, 0, 2.1954E-05
DataValue, 0.028, 0, 4.0072E-05
DataValue, 0.04, 0, 5.9640000000000005E-05
DataValue, 0.052000000000000005, 0, 8.0512E-05
DataValue, 0.064, 0, 0.000102638
DataValue, 0.076, 0, 0.00012724
DataValue, 0.088000000000000009, 0, 0.00015222
DataValue, 0.1, 0, 0.00017864
DataValue, 0.1, -0.1, 0.00028772000000000004
DataValue, 0.088000000000000009, -0.1, 0.00024944
DataValue, 0.076, -0.1, 0.00021214
DataValue, 0.064, -0.1, 0.00017586000000000001
DataValue, 0.052000000000000005, -0.1, 0.00014034
DataValue, 0.04, -0.1, 0.00010588000000000001
DataValue, 0.028, -0.1, 7.2812000000000007E-05
DataValue, 0.016, -0.1, 4.0676E-05
DataValue, 0.004, -0.1, 9.9049E-06
DataValue, -0.008, -0.1, -1.993E-05
DataValue, -0.02, -0.1, -4.8302E-05
DataValue, -0.032, -0.1, -7.5508E-05
DataValue, -0.044000000000000004, -0.1, -0.000101506
DataValue, -0.056, -0.1, -0.00012578
DataValue, -0.068, -0.1, -0.00014890000000000001
DataValue, -0.08, -0.1, -0.00017076
DataValue, -0.092, -0.1, -0.00019148
DataValue, -0.10400000000000001, -0.1, -0.00021044000000000003
DataValue, -0.116, -0.1, -0.00022806
DataValue, -0.128, -0.1, -0.00024452
DataValue, -0.14, -0.1, -0.00025954
DataValue, -0.152, -0.1, -0.0002731
DataValue, -0.164, -0.1, -0.00028558
DataValue, -0.17600000000000002, -0.1, -0.0002969
DataValue, -0.188, -0.1, -0.00030686
DataValue, -0.2, -0.1, -0.00031572
DataValue, -0.21200000000000002, -0.1, -0.00032356
DataValue, -0.224, -0.1, -0.00033038
DataValue, -0.23600000000000002, -0.1, -0.00033618
DataValue, -0.248, -0.1, -0.00034112000000000004
DataValue, -0.26, -0.1, -0.00034552000000000004
DataValue, -0.272, -0.1, -0.00034910000000000003
DataValue, -0.28400000000000003, -0.1, -0.00035186
DataValue, -0.29600000000000004, -0.1, -0.00035444000000000003
DataValue, -0.308, -0.1, -0.00035654
DataValue, -0.32, -0.1, -0.00035800000000000003
DataValue, -0.332, -0.1, -0.0003593
DataValue, -0.34400000000000003, -0.1, -0.00036060000000000004
DataValue, -0.35600000000000004, -0.1, -0.00036154000000000004
DataValue, -0.368, -0.1, -0.00036226000000000005
DataValue, -0.38, -0.1, -0.00036272
DataValue, -0.392, -0.1, -0.00036334000000000003
DataValue, -0.404, -0.1, -0.00036394000000000004
DataValue, -0.41600000000000004, -0.1, -0.00036434
DataValue, -0.42800000000000005, -0.1, -0.00036458000000000004
DataValue, -0.44, -0.1, -0.00036496
DataValue, -0.452, -0.1, -0.00036542000000000004
DataValue, -0.464, -0.1, -0.00036544
DataValue, -0.47600000000000003, -0.1, -0.00036568
DataValue, -0.48800000000000004, -0.1, -0.00036596
DataValue, -0.5, -0.1, -0.00036614000000000004
DataValue, -0.5, -0.1, -0.00036598
DataValue, -0.48800000000000004, -0.1, -0.00036494
DataValue, -0.47600000000000003, -0.1, -0.00036438000000000003
DataValue, -0.464, -0.1, -0.00036366
DataValue, -0.452, -0.1, -0.00036292000000000003
DataValue, -0.44, -0.1, -0.00036242
DataValue, -0.42800000000000005, -0.1, -0.00036166000000000003
DataValue, -0.41600000000000004, -0.1, -0.00036082000000000003
DataValue, -0.404, -0.1, -0.00036022
DataValue, -0.392, -0.1, -0.00035928
DataValue, -0.38, -0.1, -0.00035834
DataValue, -0.368, -0.1, -0.00035738
DataValue, -0.35600000000000004, -0.1, -0.00035650000000000005
DataValue, -0.34400000000000003, -0.1, -0.00035502
DataValue, -0.332, -0.1, -0.00035346000000000005
DataValue, -0.32, -0.1, -0.00035186
DataValue, -0.308, -0.1, -0.00034988
DataValue, -0.29600000000000004, -0.1, -0.00034730000000000004
DataValue, -0.28400000000000003, -0.1, -0.00034464
DataValue, -0.272, -0.1, -0.00034156000000000003
DataValue, -0.26, -0.1, -0.00033774
DataValue, -0.248, -0.1, -0.0003333
DataValue, -0.23600000000000002, -0.1, -0.0003283
DataValue, -0.224, -0.1, -0.00032252
DataValue, -0.21200000000000002, -0.1, -0.00031594
DataValue, -0.2, -0.1, -0.00030808
DataValue, -0.188, -0.1, -0.00029944
DataValue, -0.17600000000000002, -0.1, -0.00029002
DataValue, -0.164, -0.1, -0.000279
DataValue, -0.152, -0.1, -0.00026688
DataValue, -0.14, -0.1, -0.00025386
DataValue, -0.128, -0.1, -0.00023940000000000002
DataValue, -0.116, -0.1, -0.00022354000000000002
DataValue, -0.10400000000000001, -0.1, -0.00020636000000000002
DataValue, -0.092, -0.1, -0.00018790000000000001
DataValue, -0.08, -0.1, -0.00016804
DataValue, -0.068, -0.1, -0.00014676
DataValue, -0.056, -0.1, -0.0001241
DataValue, -0.044000000000000004, -0.1, -0.00010012000000000001
DataValue, -0.032, -0.1, -7.4798E-05
DataValue, -0.02, -0.1, -4.8006E-05
DataValue, -0.008, -0.1, -1.9818000000000002E-05
DataValue, 0.004, -0.1, 9.8565000000000013E-06
DataValue, 0.016, -0.1, 4.0916E-05
DataValue, 0.028, -0.1, 7.3244E-05
DataValue, 0.04, -0.1, 0.000106676
DataValue, 0.052000000000000005, -0.1, 0.00014182000000000002
DataValue, 0.064, -0.1, 0.00017784000000000002
DataValue, 0.076, -0.1, 0.00021502
DataValue, 0.088000000000000009, -0.1, 0.00025306
DataValue, 0.1, -0.1, 0.00029236
DataValue, 0.1, -0.2, 0.00038364000000000003
DataValue, 0.088000000000000009, -0.2, 0.00033554
DataValue, 0.076, -0.2, 0.00028798
DataValue, 0.064, -0.2, 0.00024076000000000002
DataValue, 0.052000000000000005, -0.2, 0.0001941
DataValue, 0.04, -0.2, 0.00014806000000000002
DataValue, 0.028, -0.2, 0.00010272
DataValue, 0.016, -0.2, 5.8062E-05
DataValue, 0.004, -0.2, 1.4188E-05
DataValue, -0.008, -0.2, -2.9012E-05
DataValue, -0.02, -0.2, -7.1404E-05
