
SetupTitle, (c2) Transfer curve in LGP
PrimitiveTest, I/V Sweep
TestParameter, Context.MainFrame, B1500A
TestParameter, Channel.UnitType, SMU, SMU
TestParameter, Channel.Unit, SMU1:HR/AS, SMU2:HR/AS
TestParameter, Channel.IName, Ig, Id
TestParameter, Channel.VName, Vg, Vd
TestParameter, Channel.Mode, V, V
TestParameter, Channel.Func, VAR1, VAR2
TestParameter, Channel.Index, 
TestParameter, Channel.Time, 
TestParameter, Measurement.Port.Unit, SMU1:HR/AS, SMU2:HR/AS
TestParameter, Measurement.Port.SeriesResistor, NONE, NONE
TestParameter, Measurement.Port.Filter, ON, ON
TestParameter, Measurement.Port.OutputVoltageComparison, 0, 0
TestParameter, Measurement.Primary.Locus, Double
TestParameter, Measurement.Primary.Scale, LINEAR
TestParameter, Measurement.Primary.Start, 0.1
TestParameter, Measurement.Primary.Stop, -0.4
TestParameter, Measurement.Primary.Step, -0.01
TestParameter, Measurement.Primary.Compliance, 0.1
TestParameter, Measurement.Primary.PowerCompliance, 1
TestParameter, Measurement.Aborting.Condition, SKIP AT ANY ABNORMAL
TestParameter, Measurement.PostOutput.Value, START
TestParameter, Measurement.PostOutput.Retention, OFF
TestParameter, Measurement.Secondary.Start, -0.25
TestParameter, Measurement.Secondary.Count, 5
TestParameter, Measurement.Secondary.Step, 0
TestParameter, Measurement.Secondary.Compliance, 0.1
TestParameter, Measurement.Secondary.PowerCompliance, 1
TestParameter, Measurement.Bias.Source, 0.1, -0.25
TestParameter, Measurement.Bias.Compliance, 0.1, 0.1
TestParameter, Measurement.Monitor.Unit, SMU1:HR/AS, SMU2:HR/AS
TestParameter, Measurement.Monitor.Adc, HR ADC, HR ADC
TestParameter, Measurement.Monitor.Measurement, Compliance Side, Compliance Side
TestParameter, Measurement.Monitor.RangingMode, LIMITED, LIMITED
TestParameter, Measurement.Monitor.RangeBoundary, 1nA, 1nA
TestParameter, Measurement.Monitor.RangeRating, BY FULL RANGE, BY FULL RANGE
TestParameter, Measurement.Monitor.RangeRatingCoeff, 50, 50
TestParameter, Measurement.Timing.Hold, 0
TestParameter, Measurement.Timing.Delay, 0
TestParameter, Measurement.Adc.HighSpeed.Mode, AUTO
TestParameter, Measurement.Adc.HighSpeed.Coeff, 1
TestParameter, Measurement.Adc.HighResolution.AutoZero, OFF
TestParameter, Measurement.Adc.HighResolution.Mode, AUTO
TestParameter, Measurement.Adc.HighResolution.Coeff, 6
TestParameter, Measurement.WaitTime.Source.Coeff, 1
TestParameter, Measurement.WaitTime.Source.Offset, 0
TestParameter, Measurement.WaitTime.Monitor.Coeff, 1
TestParameter, Measurement.WaitTime.Monitor.Offset, 0
TestParameter, Output.Graph.Enabled, true
TestParameter, Output.Graph.AutoScaling, false
TestParameter, Output.Graph.XAxis.Data, Vg
TestParameter, Output.Graph.XAxis.Scale, Linear
TestParameter, Output.Graph.XAxis.Left, 0.60000000000000009
TestParameter, Output.Graph.XAxis.Right, -0.60000000000000009
TestParameter, Output.Graph.XAxis.RunTimeAutoScale, true
TestParameter, Output.Graph.YAxis.Data, Id
TestParameter, Output.Graph.YAxis.Scale, Linear
TestParameter, Output.Graph.YAxis.Bottom, -0.1
TestParameter, Output.Graph.YAxis.Top, 0.1
TestParameter, Output.Graph.YAxis.Group, 
TestParameter, Output.Graph.YAxis.RunTimeAutoScale, true
TestParameter, Output.List.Data, Vd, Vg, Id
TestParameter, AutoAnalysis.Interpolation, false
TestParameter, AutoAnalysis.Var2StepCount, 1
TestParameter, AutoAnalysis.Var2StepScript, 
TestParameter, AutoAnalysis.Line1.Enabled, false
TestParameter, AutoAnalysis.Line1.Type, 1
TestParameter, AutoAnalysis.Line1.Fix, True
TestParameter, AutoAnalysis.Line1.YAxis, 0
TestParameter, AutoAnalysis.Line1.Point1.Type, 0
TestParameter, AutoAnalysis.Line1.Point1.XY.X, 
TestParameter, AutoAnalysis.Line1.Point1.XY.Y, 
TestParameter, AutoAnalysis.Line1.Point1.Data.Var, 
TestParameter, AutoAnalysis.Line1.Point1.Data.Condition, 
TestParameter, AutoAnalysis.Line1.Point1.Data.Start, false
TestParameter, AutoAnalysis.Line1.Point1.Data.StartVar, 
TestParameter, AutoAnalysis.Line1.Point1.Data.StartCondition, 
TestParameter, AutoAnalysis.Line1.Point2.Type, 0
TestParameter, AutoAnalysis.Line1.Point2.XY.X, 
TestParameter, AutoAnalysis.Line1.Point2.XY.Y, 
TestParameter, AutoAnalysis.Line1.Point2.Data.Var, 
TestParameter, AutoAnalysis.Line1.Point2.Data.Condition, 
TestParameter, AutoAnalysis.Line1.Point2.Data.Start, false
TestParameter, AutoAnalysis.Line1.Point2.Data.StartVar, 
TestParameter, AutoAnalysis.Line1.Point2.Data.StartCondition, 
TestParameter, AutoAnalysis.Line1.GradientExpr, 0
TestParameter, AutoAnalysis.Line2.Enabled, false
TestParameter, AutoAnalysis.Line2.Type, 1
TestParameter, AutoAnalysis.Line2.Fix, True
TestParameter, AutoAnalysis.Line2.YAxis, 0
TestParameter, AutoAnalysis.Line2.Point1.Type, 0
TestParameter, AutoAnalysis.Line2.Point1.XY.X, 
TestParameter, AutoAnalysis.Line2.Point1.XY.Y, 
TestParameter, AutoAnalysis.Line2.Point1.Data.Var, 
TestParameter, AutoAnalysis.Line2.Point1.Data.Condition, 
TestParameter, AutoAnalysis.Line2.Point1.Data.Start, false
TestParameter, AutoAnalysis.Line2.Point1.Data.StartVar, 
TestParameter, AutoAnalysis.Line2.Point1.Data.StartCondition, 
TestParameter, AutoAnalysis.Line2.Point2.Type, 0
TestParameter, AutoAnalysis.Line2.Point2.XY.X, 
TestParameter, AutoAnalysis.Line2.Point2.XY.Y, 
TestParameter, AutoAnalysis.Line2.Point2.Data.Var, 
TestParameter, AutoAnalysis.Line2.Point2.Data.Condition, 
TestParameter, AutoAnalysis.Line2.Point2.Data.Start, false
TestParameter, AutoAnalysis.Line2.Point2.Data.StartVar, 
TestParameter, AutoAnalysis.Line2.Point2.Data.StartCondition, 
TestParameter, AutoAnalysis.Line2.GradientExpr, 0
TestParameter, AutoAnalysis.Marker.Enabled, false
TestParameter, AutoAnalysis.Marker.Data.Var, 
TestParameter, AutoAnalysis.Marker.Data.Condition, 
TestParameter, AutoAnalysis.Marker.Data.Start, false
TestParameter, AutoAnalysis.Marker.Data.StartVar, 
TestParameter, AutoAnalysis.Marker.Data.StartCondition, 
MetaData, TestRecord.EntryPoint, true
MetaData, TestRecord.RecordTime, 12/22/2024 06:21:28
MetaData, TestRecord.TestTarget, 
MetaData, TestRecord.IterationIndex, 1
MetaData, TestRecord.Preservation, true
MetaData, TestRecord.Flag, 
MetaData, TestRecord.Remarks, 5wt-s21c5
MetaData, TestRecord.LinkKey, a18405db-f46b-4e27-b0cc-c77fe397be75
MetaData, TestRecord.Parameters, 
Dimension1, 102, 102, 102
Dimension2, 5, 5, 5
DataName, Vg, Vd, Id
DataValue, 0.1, -0.25, -9.4464000000000016E-06
DataValue, 0.090000000000000011, -0.25, -1.1486800000000002E-05
DataValue, 0.08, -0.25, -1.375E-05
DataValue, 0.07, -0.25, -1.651E-05
DataValue, 0.060000000000000005, -0.25, -1.9928E-05
DataValue, 0.05, -0.25, -2.3860000000000002E-05
DataValue, 0.04, -0.25, -2.8334E-05
DataValue, 0.030000000000000002, -0.25, -3.3532000000000004E-05
DataValue, 0.02, -0.25, -3.9408E-05
DataValue, 0.01, -0.25, -4.5940000000000004E-05
DataValue, 0, -0.25, -5.331E-05
DataValue, -0.01, -0.25, -6.1572E-05
DataValue, -0.02, -0.25, -7.0542E-05
DataValue, -0.030000000000000002, -0.25, -8.0496E-05
DataValue, -0.04, -0.25, -9.15E-05
DataValue, -0.05, -0.25, -0.000103338
DataValue, -0.060000000000000005, -0.25, -0.00011908
DataValue, -0.07, -0.25, -0.00013254
DataValue, -0.08, -0.25, -0.00014736
DataValue, -0.090000000000000011, -0.25, -0.00016318000000000002
DataValue, -0.1, -0.25, -0.00018034
DataValue, -0.11, -0.25, -0.0001987
DataValue, -0.12000000000000001, -0.25, -0.00021808000000000003
DataValue, -0.13, -0.25, -0.00023852
DataValue, -0.14, -0.25, -0.00026028
DataValue, -0.15, -0.25, -0.000283
DataValue, -0.16, -0.25, -0.00030672
DataValue, -0.17, -0.25, -0.00033174
DataValue, -0.18000000000000002, -0.25, -0.00035764
DataValue, -0.19, -0.25, -0.00038418
DataValue, -0.2, -0.25, -0.00041218
DataValue, -0.21000000000000002, -0.25, -0.00044070000000000003
DataValue, -0.22, -0.25, -0.00046986
DataValue, -0.23, -0.25, -0.0005002
DataValue, -0.24000000000000002, -0.25, -0.00053090000000000006
DataValue, -0.25, -0.25, -0.0005622
DataValue, -0.26, -0.25, -0.00059402
DataValue, -0.27, -0.25, -0.00062634000000000008
DataValue, -0.28, -0.25, -0.00065902000000000007
DataValue, -0.29000000000000004, -0.25, -0.00069144000000000009
DataValue, -0.3, -0.25, -0.00072438000000000005
DataValue, -0.31, -0.25, -0.00075720000000000008
DataValue, -0.32, -0.25, -0.00078964000000000009
DataValue, -0.33, -0.25, -0.00082202
DataValue, -0.34, -0.25, -0.00085414000000000009
DataValue, -0.35000000000000003, -0.25, -0.00088542
DataValue, -0.36000000000000004, -0.25, -0.00091634000000000008
DataValue, -0.37, -0.25, -0.00094678
DataValue, -0.38, -0.25, -0.00097594
DataValue, -0.39, -0.25, -0.00100386
DataValue, -0.4, -0.25, -0.00103152
DataValue, -0.4, -0.25, -0.0010328800000000001
DataValue, -0.39, -0.25, -0.0010098400000000001
DataValue, -0.38, -0.25, -0.00098504
DataValue, -0.37, -0.25, -0.00095896
DataValue, -0.36000000000000004, -0.25, -0.00093154
DataValue, -0.35000000000000003, -0.25, -0.00090346
DataValue, -0.34, -0.25, -0.00087414
DataValue, -0.33, -0.25, -0.00084454000000000007
DataValue, -0.32, -0.25, -0.0008143200000000001
DataValue, -0.31, -0.25, -0.00078340000000000007
DataValue, -0.3, -0.25, -0.00075160000000000005
DataValue, -0.29000000000000004, -0.25, -0.00072076000000000009
DataValue, -0.28, -0.25, -0.00068920000000000006
DataValue, -0.27, -0.25, -0.00065708
DataValue, -0.26, -0.25, -0.00062568
DataValue, -0.25, -0.25, -0.00059434000000000006
DataValue, -0.24000000000000002, -0.25, -0.00056270000000000007
DataValue, -0.23, -0.25, -0.00053212000000000008
DataValue, -0.22, -0.25, -0.00050114000000000007
DataValue, -0.21000000000000002, -0.25, -0.00047176000000000005
DataValue, -0.2, -0.25, -0.00044254
DataValue, -0.19, -0.25, -0.00041402
DataValue, -0.18000000000000002, -0.25, -0.00038646000000000004
DataValue, -0.17, -0.25, -0.0003595
DataValue, -0.16, -0.25, -0.00033296000000000004
DataValue, -0.15, -0.25, -0.00030836000000000004
DataValue, -0.14, -0.25, -0.00028434
DataValue, -0.13, -0.25, -0.00026106
DataValue, -0.12000000000000001, -0.25, -0.00023916
DataValue, -0.11, -0.25, -0.00021834000000000003
DataValue, -0.1, -0.25, -0.00019834
DataValue, -0.090000000000000011, -0.25, -0.00017968000000000001
DataValue, -0.08, -0.25, -0.00016188000000000002
DataValue, -0.07, -0.25, -0.00014582
DataValue, -0.060000000000000005, -0.25, -0.0001305
DataValue, -0.05, -0.25, -0.00011612
DataValue, -0.04, -0.25, -0.00010318000000000001
DataValue, -0.030000000000000002, -0.25, -9.0078E-05
DataValue, -0.02, -0.25, -7.9484E-05
DataValue, -0.01, -0.25, -6.9580000000000008E-05
DataValue, 0, -0.25, -6.0324E-05
DataValue, 0.01, -0.25, -5.208E-05
DataValue, 0.02, -0.25, -4.4696E-05
DataValue, 0.030000000000000002, -0.25, -3.7996E-05
DataValue, 0.04, -0.25, -3.209E-05
DataValue, 0.05, -0.25, -2.6758E-05
DataValue, 0.060000000000000005, -0.25, -2.2358000000000002E-05
DataValue, 0.07, -0.25, -1.8402E-05
DataValue, 0.08, -0.25, -1.4936E-05
DataValue, 0.090000000000000011, -0.25, -1.2080000000000001E-05
DataValue, 0.1, -0.25, -9.3062E-06
DataValue, 0.1, -0.25, -8.0383E-06
DataValue, 0.090000000000000011, -0.25, -9.874E-06
DataValue, 0.08, -0.25, -1.2444E-05
DataValue, 0.07, -0.25, -1.4984000000000001E-05
DataValue, 0.060000000000000005, -0.25, -1.8146000000000002E-05
DataValue, 0.05, -0.25, -2.1786E-05
DataValue, 0.04, -0.25, -2.5934E-05
DataValue, 0.030000000000000002, -0.25, -3.0898E-05
DataValue, 0.02, -0.25, -3.6372000000000003E-05
DataValue, 0.01, -0.25, -4.2512E-05
DataValue, 0, -0.25, -4.9504E-05
DataValue, -0.01, -0.25, -5.7374E-05
DataValue, -0.02, -0.25, -6.598E-05
DataValue, -0.030000000000000002, -0.25, -7.5524E-05
DataValue, -0.04, -0.25, -8.6144000000000007E-05
DataValue, -0.05, -0.25, -9.759200000000001E-05
DataValue, -0.060000000000000005, -0.25, -0.000109968
DataValue, -0.07, -0.25, -0.00012746
DataValue, -0.08, -0.25, -0.00014154
DataValue, -0.090000000000000011, -0.25, -0.00015704
DataValue, -0.1, -0.25, -0.00017386000000000002
DataValue, -0.11, -0.25, -0.00019182000000000002
DataValue, -0.12000000000000001, -0.25, -0.00021086000000000002
DataValue, -0.13, -0.25, -0.00023086000000000002
DataValue, -0.14, -0.25, -0.00025256000000000003
DataValue, -0.15, -0.25, -0.00027488
DataValue, -0.16, -0.25, -0.00029824
DataValue, -0.17, -0.25, -0.00032302000000000003
DataValue, -0.18000000000000002, -0.25, -0.00034878000000000003
DataValue, -0.19, -0.25, -0.00037546000000000004
DataValue, -0.2, -0.25, -0.00040340000000000005
DataValue, -0.21000000000000002, -0.25, -0.00043186
DataValue, -0.22, -0.25, -0.00046156
DataValue, -0.23, -0.25, -0.00049192000000000007
DataValue, -0.24000000000000002, -0.25, -0.00052228000000000007
DataValue, -0.25, -0.25, -0.0005549
DataValue, -0.26, -0.25, -0.00058628
DataValue, -0.27, -0.25, -0.00061822
DataValue, -0.28, -0.25, -0.00065128000000000007
DataValue, -0.29000000000000004, -0.25, -0.00068392000000000008
DataValue, -0.3, -0.25, -0.00071662000000000006
DataValue, -0.31, -0.25, -0.00074962
DataValue, -0.32, -0.25, -0.00078224
DataValue, -0.33, -0.25, -0.00081494
DataValue, -0.34, -0.25, -0.00084706000000000007
DataValue, -0.35000000000000003, -0.25, -0.00087836
DataValue, -0.36000000000000004, -0.25, -0.00090980000000000011
DataValue, -0.37, -0.25, -0.00094182
DataValue, -0.38, -0.25, -0.00097082000000000006
DataValue, -0.39, -0.25, -0.00099976000000000015
DataValue, -0.4, -0.25, -0.0010272600000000001
DataValue, -0.4, -0.25, -0.00102878
DataValue, -0.39, -0.25, -0.0010062200000000002
DataValue, -0.38, -0.25, -0.00098150000000000017
DataValue, -0.37, -0.25, -0.00095498
DataValue, -0.36000000000000004, -0.25, -0.0009277
DataValue, -0.35000000000000003, -0.25, -0.00089974000000000011
DataValue, -0.34, -0.25, -0.0008704
DataValue, -0.33, -0.25, -0.00084074000000000009
DataValue, -0.32, -0.25, -0.00081072
DataValue, -0.31, -0.25, -0.00077962000000000007
DataValue, -0.3, -0.25, -0.00074828
DataValue, -0.29000000000000004, -0.25, -0.0007169
DataValue, -0.28, -0.25, -0.00068504
DataValue, -0.27, -0.25, -0.00065308
DataValue, -0.26, -0.25, -0.0006216
DataValue, -0.25, -0.25, -0.00059026
DataValue, -0.24000000000000002, -0.25, -0.00055854000000000006
DataValue, -0.23, -0.25, -0.00052776000000000006
DataValue, -0.22, -0.25, -0.0004975
DataValue, -0.21000000000000002, -0.25, -0.00046762
DataValue, -0.2, -0.25, -0.00043830000000000003
DataValue, -0.19, -0.25, -0.00040996
DataValue, -0.18000000000000002, -0.25, -0.00038214
DataValue, -0.17, -0.25, -0.00035508
DataValue, -0.16, -0.25, -0.00032868000000000003
DataValue, -0.15, -0.25, -0.00030372
DataValue, -0.14, -0.25, -0.00027946000000000004
DataValue, -0.13, -0.25, -0.0002565
DataValue, -0.12000000000000001, -0.25, -0.0002347
DataValue, -0.11, -0.25, -0.00021390000000000002
DataValue, -0.1, -0.25, -0.00019416000000000003
DataValue, -0.090000000000000011, -0.25, -0.00017574000000000002
DataValue, -0.08, -0.25, -0.00015826000000000002
DataValue, -0.07, -0.25, -0.000142
DataValue, -0.060000000000000005, -0.25, -0.00012688
DataValue, -0.05, -0.25, -0.00011292000000000001
DataValue, -0.04, -0.25, -9.894E-05
DataValue, -0.030000000000000002, -0.25, -8.7576E-05
DataValue, -0.02, -0.25, -7.6780000000000007E-05
DataValue, -0.01, -0.25, -6.6946E-05
DataValue, 0, -0.25, -5.8078E-05
DataValue, 0.01, -0.25, -5.0034E-05
DataValue, 0.02, -0.25, -4.2794000000000004E-05
DataValue, 0.030000000000000002, -0.25, -3.6404E-05
DataValue, 0.04, -0.25, -3.0696E-05
DataValue, 0.05, -0.25, -2.5598E-05
DataValue, 0.060000000000000005, -0.25, -2.1252E-05
DataValue, 0.07, -0.25, -1.7498E-05
DataValue, 0.08, -0.25, -1.4188E-05
DataValue, 0.090000000000000011, -0.25, -1.143E-05
DataValue, 0.1, -0.25, -8.8927E-06
DataValue, 0.1, -0.25, -7.6423000000000014E-06
DataValue, 0.090000000000000011, -0.25, -9.3555E-06
DataValue, 0.08, -0.25, -1.1756E-05
DataValue, 0.07, -0.25, -1.4234000000000001E-05
DataValue, 0.060000000000000005, -0.25, -1.7186E-05
DataValue, 0.05, -0.25, -2.0646000000000002E-05
DataValue, 0.04, -0.25, -2.4762E-05
DataValue, 0.030000000000000002, -0.25, -2.9378000000000002E-05
DataValue, 0.02, -0.25, -3.4656E-05
DataValue, 0.01, -0.25, -4.0692E-05
DataValue, 0, -0.25, -4.7528E-05
DataValue, -0.01, -0.25, -5.4974E-05
DataValue, -0.02, -0.25, -6.3356000000000008E-05
DataValue, -0.030000000000000002, -0.25, -7.2798E-05
DataValue, -0.04, -0.25, -8.283E-05
DataValue, -0.05, -0.25, -9.4114E-05
DataValue, -0.060000000000000005, -0.25, -0.00010639800000000001
DataValue, -0.07, -0.25, -0.00012366000000000002
DataValue, -0.08, -0.25, -0.00013724
DataValue, -0.090000000000000011, -0.25, -0.00015252
DataValue, -0.1, -0.25, -0.00016912
DataValue, -0.11, -0.25, -0.00018654
DataValue, -0.12000000000000001, -0.25, -0.0002054
DataValue, -0.13, -0.25, -0.00022556
DataValue, -0.14, -0.25, -0.00024676
DataValue, -0.15, -0.25, -0.00026920000000000004
DataValue, -0.16, -0.25, -0.00029274
DataValue, -0.17, -0.25, -0.00031734
DataValue, -0.18000000000000002, -0.25, -0.00034294
DataValue, -0.19, -0.25, -0.00036948000000000005
DataValue, -0.2, -0.25, -0.00039798000000000004
DataValue, -0.21000000000000002, -0.25, -0.00042590000000000005
DataValue, -0.22, -0.25, -0.00045498
DataValue, -0.23, -0.25, -0.00048550000000000004
DataValue, -0.24000000000000002, -0.25, -0.00051616
DataValue, -0.25, -0.25, -0.00054724
DataValue, -0.26, -0.25, -0.00058002
DataValue, -0.27, -0.25, -0.00061214000000000006
DataValue, -0.28, -0.25, -0.0006445
DataValue, -0.29000000000000004, -0.25, -0.0006778
DataValue, -0.3, -0.25, -0.0007109000000000001
DataValue, -0.31, -0.25, -0.00074402000000000008
DataValue, -0.32, -0.25, -0.00077722
DataValue, -0.33, -0.25, -0.00080958000000000007
DataValue, -0.34, -0.25, -0.00084328000000000007
DataValue, -0.35000000000000003, -0.25, -0.00087408000000000006
DataValue, -0.36000000000000004, -0.25, -0.00090484000000000007
DataValue, -0.37, -0.25, -0.0009355600000000001
DataValue, -0.38, -0.25, -0.00096496000000000006
DataValue, -0.39, -0.25, -0.00099342
DataValue, -0.4, -0.25, -0.00102176
DataValue, -0.4, -0.25, -0.0010229800000000002
DataValue, -0.39, -0.25, -0.00100048
DataValue, -0.38, -0.25, -0.00097518000000000008
DataValue, -0.37, -0.25, -0.0009491800000000001
DataValue, -0.36000000000000004, -0.25, -0.00092228
DataValue, -0.35000000000000003, -0.25, -0.00089366
DataValue, -0.34, -0.25, -0.00086462000000000008
DataValue, -0.33, -0.25, -0.00083514000000000006
DataValue, -0.32, -0.25, -0.0008042
DataValue, -0.31, -0.25, -0.00077352000000000009
DataValue, -0.3, -0.25, -0.00074292
DataValue, -0.29000000000000004, -0.25, -0.00071176000000000008
DataValue, -0.28, -0.25, -0.00067992000000000009
DataValue, -0.27, -0.25, -0.00064842
DataValue, -0.26, -0.25, -0.00061710000000000009
DataValue, -0.25, -0.25, -0.00058538
DataValue, -0.24000000000000002, -0.25, -0.00055412000000000007
DataValue, -0.23, -0.25, -0.00052328
DataValue, -0.22, -0.25, -0.0004928
DataValue, -0.21000000000000002, -0.25, -0.00046300000000000003
DataValue, -0.2, -0.25, -0.00043406
DataValue, -0.19, -0.25, -0.00040554
DataValue, -0.18000000000000002, -0.25, -0.00037776000000000004
DataValue, -0.17, -0.25, -0.00035106000000000004
DataValue, -0.16, -0.25, -0.00032494
DataValue, -0.15, -0.25, -0.00030000000000000003
DataValue, -0.14, -0.25, -0.00027612000000000003
DataValue, -0.13, -0.25, -0.00025338
DataValue, -0.12000000000000001, -0.25, -0.00023140000000000001
DataValue, -0.11, -0.25, -0.00021078
DataValue, -0.1, -0.25, -0.00019134000000000002
DataValue, -0.090000000000000011, -0.25, -0.00017284
DataValue, -0.08, -0.25, -0.00015556
DataValue, -0.07, -0.25, -0.00013966
DataValue, -0.060000000000000005, -0.25, -0.00012456000000000001
DataValue, -0.05, -0.25, -0.00011072000000000001
DataValue, -0.04, -0.25, -9.7090000000000007E-05
DataValue, -0.030000000000000002, -0.25, -8.570000000000001E-05
DataValue, -0.02, -0.25, -7.5182E-05
DataValue, -0.01, -0.25, -6.5556000000000007E-05
DataValue, 0, -0.25, -5.6662E-05
DataValue, 0.01, -0.25, -4.8784E-05
DataValue, 0.02, -0.25, -4.1592000000000004E-05
DataValue, 0.030000000000000002, -0.25, -3.5434E-05
DataValue, 0.04, -0.25, -2.9828E-05
DataValue, 0.05, -0.25, -2.4936E-05
