
SetupTitle, (c1) Output curve in LGP
PrimitiveTest, I/V Sweep
TestParameter, Context.MainFrame, B1500A
TestParameter, Channel.UnitType, SMU, SMU
TestParameter, Channel.Unit, SMU1:HR/AS, SMU2:HR/AS
TestParameter, Channel.IName, Ig, Id
TestParameter, Channel.VName, Vg, Vd
TestParameter, Channel.Mode, V, V
TestParameter, Channel.Func, VAR2, VAR1
TestParameter, Channel.Index, 
TestParameter, Channel.Time, 
TestParameter, Measurement.Port.Unit, SMU1:HR/AS, SMU2:HR/AS
TestParameter, Measurement.Port.SeriesResistor, NONE, NONE
TestParameter, Measurement.Port.Filter, ON, ON
TestParameter, Measurement.Port.OutputVoltageComparison, 0, 0
TestParameter, Measurement.Primary.Locus, Double
TestParameter, Measurement.Primary.Scale, LINEAR
TestParameter, Measurement.Primary.Start, 0.1
TestParameter, Measurement.Primary.Stop, -0.5
TestParameter, Measurement.Primary.Step, -0.012
TestParameter, Measurement.Primary.Compliance, 0.1
TestParameter, Measurement.Primary.PowerCompliance, 0
TestParameter, Measurement.Aborting.Condition, CONTINUE AT ANY
TestParameter, Measurement.PostOutput.Value, START
TestParameter, Measurement.PostOutput.Retention, OFF
TestParameter, Measurement.Secondary.Start, 0.1
TestParameter, Measurement.Secondary.Count, 6
TestParameter, Measurement.Secondary.Step, -0.1
TestParameter, Measurement.Secondary.Compliance, 0.0001
TestParameter, Measurement.Secondary.PowerCompliance, 0
TestParameter, Measurement.Bias.Source, 0.1, 0.1
TestParameter, Measurement.Bias.Compliance, 0.0001, 0.1
TestParameter, Measurement.Monitor.Unit, SMU1:HR/AS, SMU2:HR/AS
TestParameter, Measurement.Monitor.Adc, HR ADC, HR ADC
TestParameter, Measurement.Monitor.Measurement, Compliance Side, Compliance Side
TestParameter, Measurement.Monitor.RangingMode, LIMITED, LIMITED
TestParameter, Measurement.Monitor.RangeBoundary, 1nA, 1nA
TestParameter, Measurement.Monitor.RangeRating, BY FULL RANGE, BY FULL RANGE
TestParameter, Measurement.Monitor.RangeRatingCoeff, 50, 50
TestParameter, Measurement.Timing.Hold, 0
TestParameter, Measurement.Timing.Delay, 0
TestParameter, Measurement.Adc.HighSpeed.Mode, AUTO
TestParameter, Measurement.Adc.HighSpeed.Coeff, 1
TestParameter, Measurement.Adc.HighResolution.AutoZero, OFF
TestParameter, Measurement.Adc.HighResolution.Mode, AUTO
TestParameter, Measurement.Adc.HighResolution.Coeff, 6
TestParameter, Measurement.WaitTime.Source.Coeff, 1
TestParameter, Measurement.WaitTime.Source.Offset, 0
TestParameter, Measurement.WaitTime.Monitor.Coeff, 1
TestParameter, Measurement.WaitTime.Monitor.Offset, 0
TestParameter, Output.Graph.Enabled, true
TestParameter, Output.Graph.AutoScaling, false
TestParameter, Output.Graph.XAxis.Data, Vd
TestParameter, Output.Graph.XAxis.Scale, Linear
TestParameter, Output.Graph.XAxis.Left, 0
TestParameter, Output.Graph.XAxis.Right, -0.5
TestParameter, Output.Graph.XAxis.RunTimeAutoScale, true
TestParameter, Output.Graph.YAxis.Data, Id
TestParameter, Output.Graph.YAxis.Scale, Linear
TestParameter, Output.Graph.YAxis.Bottom, -0.1
TestParameter, Output.Graph.YAxis.Top, 0.1
TestParameter, Output.Graph.YAxis.Group, 
TestParameter, Output.Graph.YAxis.RunTimeAutoScale, true
TestParameter, Output.List.Data, Vd, Vg, Id
TestParameter, AutoAnalysis.Interpolation, false
TestParameter, AutoAnalysis.Var2StepCount, 1
TestParameter, AutoAnalysis.Var2StepScript, 
TestParameter, AutoAnalysis.Line1.Enabled, false
TestParameter, AutoAnalysis.Line1.Type, 1
TestParameter, AutoAnalysis.Line1.Fix, True
TestParameter, AutoAnalysis.Line1.YAxis, 0
TestParameter, AutoAnalysis.Line1.Point1.Type, 0
TestParameter, AutoAnalysis.Line1.Point1.XY.X, 
TestParameter, AutoAnalysis.Line1.Point1.XY.Y, 
TestParameter, AutoAnalysis.Line1.Point1.Data.Var, 
TestParameter, AutoAnalysis.Line1.Point1.Data.Condition, 
TestParameter, AutoAnalysis.Line1.Point1.Data.Start, false
TestParameter, AutoAnalysis.Line1.Point1.Data.StartVar, 
TestParameter, AutoAnalysis.Line1.Point1.Data.StartCondition, 
TestParameter, AutoAnalysis.Line1.Point2.Type, 0
TestParameter, AutoAnalysis.Line1.Point2.XY.X, 
TestParameter, AutoAnalysis.Line1.Point2.XY.Y, 
TestParameter, AutoAnalysis.Line1.Point2.Data.Var, 
TestParameter, AutoAnalysis.Line1.Point2.Data.Condition, 
TestParameter, AutoAnalysis.Line1.Point2.Data.Start, false
TestParameter, AutoAnalysis.Line1.Point2.Data.StartVar, 
TestParameter, AutoAnalysis.Line1.Point2.Data.StartCondition, 
TestParameter, AutoAnalysis.Line1.GradientExpr, 0
TestParameter, AutoAnalysis.Line2.Enabled, false
TestParameter, AutoAnalysis.Line2.Type, 1
TestParameter, AutoAnalysis.Line2.Fix, True
TestParameter, AutoAnalysis.Line2.YAxis, 0
TestParameter, AutoAnalysis.Line2.Point1.Type, 0
TestParameter, AutoAnalysis.Line2.Point1.XY.X, 
TestParameter, AutoAnalysis.Line2.Point1.XY.Y, 
TestParameter, AutoAnalysis.Line2.Point1.Data.Var, 
TestParameter, AutoAnalysis.Line2.Point1.Data.Condition, 
TestParameter, AutoAnalysis.Line2.Point1.Data.Start, false
TestParameter, AutoAnalysis.Line2.Point1.Data.StartVar, 
TestParameter, AutoAnalysis.Line2.Point1.Data.StartCondition, 
TestParameter, AutoAnalysis.Line2.Point2.Type, 0
TestParameter, AutoAnalysis.Line2.Point2.XY.X, 
TestParameter, AutoAnalysis.Line2.Point2.XY.Y, 
TestParameter, AutoAnalysis.Line2.Point2.Data.Var, 
TestParameter, AutoAnalysis.Line2.Point2.Data.Condition, 
TestParameter, AutoAnalysis.Line2.Point2.Data.Start, false
TestParameter, AutoAnalysis.Line2.Point2.Data.StartVar, 
TestParameter, AutoAnalysis.Line2.Point2.Data.StartCondition, 
TestParameter, AutoAnalysis.Line2.GradientExpr, 0
TestParameter, AutoAnalysis.Marker.Enabled, false
TestParameter, AutoAnalysis.Marker.Data.Var, 
TestParameter, AutoAnalysis.Marker.Data.Condition, 
TestParameter, AutoAnalysis.Marker.Data.Start, false
TestParameter, AutoAnalysis.Marker.Data.StartVar, 
TestParameter, AutoAnalysis.Marker.Data.StartCondition, 
MetaData, TestRecord.EntryPoint, true
MetaData, TestRecord.RecordTime, 12/22/2024 06:18:43
MetaData, TestRecord.TestTarget, 
MetaData, TestRecord.IterationIndex, 1
MetaData, TestRecord.Preservation, true
MetaData, TestRecord.Flag, 
MetaData, TestRecord.Remarks, 5wt-s21c3
MetaData, TestRecord.LinkKey, 37fed83c-2148-4d14-8304-f33d12c92405
MetaData, TestRecord.Parameters, 
Dimension1, 102, 102, 102
Dimension2, 6, 6, 6
DataName, Vd, Vg, Id
DataValue, 0.1, 0.1, 2.2693E-06
DataValue, 0.088000000000000009, 0.1, 1.8291000000000002E-06
DataValue, 0.076, 0.1, 1.4138000000000001E-06
DataValue, 0.064, 0.1, 1.1196E-06
DataValue, 0.052000000000000005, 0.1, 7.9308E-07
DataValue, 0.04, 0.1, 5.887E-07
DataValue, 0.028, 0.1, 3.5857999999999997E-07
DataValue, 0.016, 0.1, 1.558E-07
DataValue, 0.004, 0.1, 2.2873399999999998E-08
DataValue, -0.008, 0.1, -1.081E-07
DataValue, -0.02, 0.1, -1.818E-07
DataValue, -0.032, 0.1, -2.3632E-07
DataValue, -0.044000000000000004, 0.1, -3.4022E-07
DataValue, -0.056, 0.1, -3.7878E-07
DataValue, -0.068, 0.1, -3.8555999999999997E-07
DataValue, -0.08, 0.1, -4.5048E-07
DataValue, -0.092, 0.1, -4.7818E-07
DataValue, -0.10400000000000001, 0.1, -4.5462E-07
DataValue, -0.116, 0.1, -4.7895999999999994E-07
DataValue, -0.128, 0.1, -5.172E-07
DataValue, -0.14, 0.1, -4.859E-07
DataValue, -0.152, 0.1, -4.8096E-07
DataValue, -0.164, 0.1, -5.1845999999999995E-07
DataValue, -0.17600000000000002, 0.1, -5.096E-07
DataValue, -0.188, 0.1, -4.7682E-07
DataValue, -0.2, 0.1, -5.0396E-07
DataValue, -0.21200000000000002, 0.1, -5.2308E-07
DataValue, -0.224, 0.1, -4.896E-07
DataValue, -0.23600000000000002, 0.1, -4.7288E-07
DataValue, -0.248, 0.1, -5.0892E-07
DataValue, -0.26, 0.1, -5.175E-07
DataValue, -0.272, 0.1, -4.7662E-07
DataValue, -0.28400000000000003, 0.1, -4.7514E-07
DataValue, -0.29600000000000004, 0.1, -5.0868E-07
DataValue, -0.308, 0.1, -5.0356E-07
DataValue, -0.32, 0.1, -4.6791999999999997E-07
DataValue, -0.332, 0.1, -4.7644E-07
DataValue, -0.34400000000000003, 0.1, -5.1038E-07
DataValue, -0.35600000000000004, 0.1, -4.9646E-07
DataValue, -0.368, 0.1, -4.6287999999999997E-07
DataValue, -0.38, 0.1, -4.8194E-07
DataValue, -0.392, 0.1, -5.1072E-07
DataValue, -0.404, 0.1, -4.8856E-07
DataValue, -0.41600000000000004, 0.1, -4.6122E-07
DataValue, -0.42800000000000005, 0.1, -4.9628E-07
DataValue, -0.44, 0.1, -5.1036E-07
DataValue, -0.452, 0.1, -4.7046E-07
DataValue, -0.464, 0.1, -4.6902E-07
DataValue, -0.47600000000000003, 0.1, -5.0376E-07
DataValue, -0.48800000000000004, 0.1, -4.992E-07
DataValue, -0.5, 0.1, -4.6574E-07
DataValue, -0.5, 0.1, -4.6184E-07
DataValue, -0.48800000000000004, 0.1, -4.9322E-07
DataValue, -0.47600000000000003, 0.1, -4.937E-07
DataValue, -0.464, 0.1, -4.5549999999999997E-07
DataValue, -0.452, 0.1, -4.4998E-07
DataValue, -0.44, 0.1, -4.8128E-07
DataValue, -0.42800000000000005, 0.1, -4.7575999999999997E-07
DataValue, -0.41600000000000004, 0.1, -4.3696E-07
DataValue, -0.404, 0.1, -4.4032E-07
DataValue, -0.392, 0.1, -4.7382E-07
DataValue, -0.38, 0.1, -4.5526E-07
DataValue, -0.368, 0.1, -4.62E-07
DataValue, -0.35600000000000004, 0.1, -4.6174E-07
DataValue, -0.34400000000000003, 0.1, -4.2056E-07
DataValue, -0.332, 0.1, -4.3985999999999997E-07
DataValue, -0.32, 0.1, -4.6263999999999997E-07
DataValue, -0.308, 0.1, -4.2368E-07
DataValue, -0.29600000000000004, 0.1, -4.2038E-07
DataValue, -0.28400000000000003, 0.1, -4.5992E-07
DataValue, -0.272, 0.1, -4.2918E-07
DataValue, -0.26, 0.1, -4.042E-07
DataValue, -0.248, 0.1, -4.409E-07
DataValue, -0.23600000000000002, 0.1, -4.3476E-07
DataValue, -0.224, 0.1, -3.9377999999999997E-07
DataValue, -0.21200000000000002, 0.1, -4.1444E-07
DataValue, -0.2, 0.1, -4.3598E-07
DataValue, -0.188, 0.1, -3.9622E-07
DataValue, -0.17600000000000002, 0.1, -3.9068E-07
DataValue, -0.164, 0.1, -4.272E-07
DataValue, -0.152, 0.1, -3.9517999999999997E-07
DataValue, -0.14, 0.1, -3.6574E-07
DataValue, -0.128, 0.1, -3.9965999999999997E-07
DataValue, -0.116, 0.1, -3.8476E-07
DataValue, -0.10400000000000001, 0.1, -3.3611999999999997E-07
DataValue, -0.092, 0.1, -3.5542E-07
DataValue, -0.08, 0.1, -3.5021999999999997E-07
DataValue, -0.068, 0.1, -2.8582E-07
DataValue, -0.056, 0.1, -2.5357999999999997E-07
DataValue, -0.044000000000000004, 0.1, -2.4826E-07
DataValue, -0.032, 0.1, -1.9718E-07
DataValue, -0.02, 0.1, -1.0074E-07
DataValue, -0.008, 0.1, -5.4486799999999993E-08
DataValue, 0.004, 0.1, 3.9705599999999997E-08
DataValue, 0.016, 0.1, 1.4754E-07
DataValue, 0.028, 0.1, 2.8144E-07
DataValue, 0.04, 0.1, 4.885E-07
DataValue, 0.052000000000000005, 0.1, 6.9081999999999994E-07
DataValue, 0.064, 0.1, 8.9806E-07
DataValue, 0.076, 0.1, 1.2174000000000002E-06
DataValue, 0.088000000000000009, 0.1, 1.5825E-06
DataValue, 0.1, 0.1, 1.9928000000000002E-06
DataValue, 0.1, 0, 6.6361000000000007E-06
DataValue, 0.088000000000000009, 0, 5.5119000000000005E-06
DataValue, 0.076, 0, 4.5062E-06
DataValue, 0.064, 0, 3.5192000000000005E-06
DataValue, 0.052000000000000005, 0, 2.6895000000000003E-06
DataValue, 0.04, 0, 1.9621000000000002E-06
DataValue, 0.028, 0, 1.2442E-06
DataValue, 0.016, 0, 6.8699999999999994E-07
DataValue, 0.004, 0, 1.239E-07
DataValue, -0.008, 0, -2.9068E-07
DataValue, -0.02, 0, -6.8624E-07
DataValue, -0.032, 0, -1.06812E-06
DataValue, -0.044000000000000004, 0, -1.3345E-06
DataValue, -0.056, 0, -1.5696000000000002E-06
DataValue, -0.068, 0, -1.7574000000000001E-06
DataValue, -0.08, 0, -1.9814E-06
DataValue, -0.092, 0, -2.1000000000000002E-06
DataValue, -0.10400000000000001, 0, -2.2046E-06
DataValue, -0.116, 0, -2.3448000000000004E-06
DataValue, -0.128, 0, -2.4146E-06
DataValue, -0.14, 0, -2.4448000000000003E-06
DataValue, -0.152, 0, -2.5307E-06
DataValue, -0.164, 0, -2.5731000000000004E-06
DataValue, -0.17600000000000002, 0, -2.5624000000000002E-06
DataValue, -0.188, 0, -2.6090000000000003E-06
DataValue, -0.2, 0, -2.6482000000000003E-06
DataValue, -0.21200000000000002, 0, -2.6115000000000003E-06
DataValue, -0.224, 0, -2.6352E-06
DataValue, -0.23600000000000002, 0, -2.6753000000000005E-06
DataValue, -0.248, 0, -2.6404E-06
DataValue, -0.26, 0, -2.6377E-06
DataValue, -0.272, 0, -2.6825E-06
DataValue, -0.28400000000000003, 0, -2.6625000000000003E-06
DataValue, -0.29600000000000004, 0, -2.6394E-06
DataValue, -0.308, 0, -2.6835000000000002E-06
DataValue, -0.32, 0, -2.6779000000000002E-06
DataValue, -0.332, 0, -2.6414000000000002E-06
DataValue, -0.34400000000000003, 0, -2.6798E-06
DataValue, -0.35600000000000004, 0, -2.6884000000000004E-06
DataValue, -0.368, 0, -2.6465000000000004E-06
DataValue, -0.38, 0, -2.6945E-06
DataValue, -0.392, 0, -2.662E-06
DataValue, -0.404, 0, -2.6546000000000004E-06
DataValue, -0.41600000000000004, 0, -2.6992000000000003E-06
DataValue, -0.42800000000000005, 0, -2.6662000000000004E-06
DataValue, -0.44, 0, -2.6524000000000002E-06
DataValue, -0.452, 0, -2.6972E-06
DataValue, -0.464, 0, -2.6938000000000004E-06
DataValue, -0.47600000000000003, 0, -2.6558000000000005E-06
DataValue, -0.48800000000000004, 0, -2.685E-06
DataValue, -0.5, 0, -2.7139000000000004E-06
DataValue, -0.5, 0, -2.6855000000000004E-06
DataValue, -0.48800000000000004, 0, -2.6538000000000003E-06
DataValue, -0.47600000000000003, 0, -2.6891000000000002E-06
DataValue, -0.464, 0, -2.6728000000000005E-06
DataValue, -0.452, 0, -2.652E-06
DataValue, -0.44, 0, -2.6906E-06
DataValue, -0.42800000000000005, 0, -2.6513000000000003E-06
DataValue, -0.41600000000000004, 0, -2.6441000000000002E-06
DataValue, -0.404, 0, -2.6809000000000005E-06
DataValue, -0.392, 0, -2.6397000000000003E-06
DataValue, -0.38, 0, -2.6355000000000004E-06
DataValue, -0.368, 0, -2.6692E-06
DataValue, -0.35600000000000004, 0, -2.6283000000000003E-06
DataValue, -0.34400000000000003, 0, -2.6246000000000002E-06
DataValue, -0.332, 0, -2.6578E-06
DataValue, -0.32, 0, -2.6134000000000003E-06
DataValue, -0.308, 0, -2.6166E-06
DataValue, -0.29600000000000004, 0, -2.6404E-06
DataValue, -0.28400000000000003, 0, -2.5929E-06
DataValue, -0.272, 0, -2.5911E-06
DataValue, -0.26, 0, -2.6172E-06
DataValue, -0.248, 0, -2.5702000000000004E-06
DataValue, -0.23600000000000002, 0, -2.5608E-06
DataValue, -0.224, 0, -2.5887000000000003E-06
DataValue, -0.21200000000000002, 0, -2.5333000000000004E-06
DataValue, -0.2, 0, -2.5145000000000002E-06
DataValue, -0.188, 0, -2.5326E-06
DataValue, -0.17600000000000002, 0, -2.4707000000000003E-06
DataValue, -0.164, 0, -2.4302E-06
DataValue, -0.152, 0, -2.4247000000000003E-06
DataValue, -0.14, 0, -2.3611E-06
DataValue, -0.128, 0, -2.2663000000000002E-06
DataValue, -0.116, 0, -2.2268000000000004E-06
DataValue, -0.10400000000000001, 0, -2.1264E-06
DataValue, -0.092, 0, -1.974E-06
DataValue, -0.08, 0, -1.8637000000000003E-06
DataValue, -0.068, 0, -1.7102000000000002E-06
DataValue, -0.056, 0, -1.4706000000000002E-06
DataValue, -0.044000000000000004, 0, -1.2628000000000002E-06
DataValue, -0.032, 0, -1.0031000000000002E-06
DataValue, -0.02, 0, -6.6314E-07
DataValue, -0.008, 0, -2.992E-07
DataValue, 0.004, 0, 1.8094E-07
DataValue, 0.016, 0, 6.973E-07
DataValue, 0.028, 0, 1.2999E-06
DataValue, 0.04, 0, 1.9283000000000002E-06
DataValue, 0.052000000000000005, 0, 2.7169E-06
DataValue, 0.064, 0, 3.5927000000000003E-06
DataValue, 0.076, 0, 4.5168000000000005E-06
DataValue, 0.088000000000000009, 0, 5.6226E-06
DataValue, 0.1, 0, 6.8502000000000009E-06
DataValue, 0.1, -0.1, 1.6536000000000002E-05
DataValue, 0.088000000000000009, -0.1, 1.3966E-05
DataValue, 0.076, -0.1, 1.1556E-05
DataValue, 0.064, -0.1, 9.3501E-06
DataValue, 0.052000000000000005, -0.1, 7.2398000000000005E-06
DataValue, 0.04, -0.1, 5.3563000000000007E-06
DataValue, 0.028, -0.1, 3.5759000000000004E-06
DataValue, 0.016, -0.1, 1.9096000000000003E-06
DataValue, 0.004, -0.1, 4.6487999999999996E-07
DataValue, -0.008, -0.1, -9.2296E-07
DataValue, -0.02, -0.1, -2.1326E-06
DataValue, -0.032, -0.1, -3.1951E-06
DataValue, -0.044000000000000004, -0.1, -4.2081E-06
DataValue, -0.056, -0.1, -5.1183000000000006E-06
DataValue, -0.068, -0.1, -5.8508000000000008E-06
DataValue, -0.08, -0.1, -6.563200000000001E-06
DataValue, -0.092, -0.1, -7.2109000000000007E-06
DataValue, -0.10400000000000001, -0.1, -7.7012E-06
DataValue, -0.116, -0.1, -8.1632E-06
DataValue, -0.128, -0.1, -8.5971000000000011E-06
DataValue, -0.14, -0.1, -8.9130000000000009E-06
DataValue, -0.152, -0.1, -9.1784000000000018E-06
DataValue, -0.164, -0.1, -9.4658000000000018E-06
DataValue, -0.17600000000000002, -0.1, -9.6616E-06
DataValue, -0.188, -0.1, -9.782E-06
DataValue, -0.2, -0.1, -9.9616000000000013E-06
DataValue, -0.21200000000000002, -0.1, -1.00324E-05
DataValue, -0.224, -0.1, -1.0119000000000001E-05
DataValue, -0.23600000000000002, -0.1, -1.0231100000000001E-05
DataValue, -0.248, -0.1, -1.02425E-05
DataValue, -0.26, -0.1, -1.0291600000000002E-05
DataValue, -0.272, -0.1, -1.03722E-05
DataValue, -0.28400000000000003, -0.1, -1.0364300000000002E-05
DataValue, -0.29600000000000004, -0.1, -1.0373200000000001E-05
DataValue, -0.308, -0.1, -1.0436200000000002E-05
DataValue, -0.32, -0.1, -1.04519E-05
DataValue, -0.332, -0.1, -1.04195E-05
DataValue, -0.34400000000000003, -0.1, -1.0461700000000002E-05
DataValue, -0.35600000000000004, -0.1, -1.0492300000000001E-05
DataValue, -0.368, -0.1, -1.04388E-05
DataValue, -0.38, -0.1, -1.0491600000000001E-05
DataValue, -0.392, -0.1, -1.04983E-05
DataValue, -0.404, -0.1, -1.0466300000000002E-05
DataValue, -0.41600000000000004, -0.1, -1.0519500000000002E-05
DataValue, -0.42800000000000005, -0.1, -1.0516E-05
DataValue, -0.44, -0.1, -1.0492500000000002E-05
DataValue, -0.452, -0.1, -1.05391E-05
DataValue, -0.464, -0.1, -1.0552500000000001E-05
DataValue, -0.47600000000000003, -0.1, -1.05191E-05
DataValue, -0.48800000000000004, -0.1, -1.0532000000000002E-05
DataValue, -0.5, -0.1, -1.05793E-05
DataValue, -0.5, -0.1, -1.05477E-05
DataValue, -0.48800000000000004, -0.1, -1.05068E-05
DataValue, -0.47600000000000003, -0.1, -1.0546600000000002E-05
DataValue, -0.464, -0.1, -1.0505700000000002E-05
DataValue, -0.452, -0.1, -1.04767E-05
DataValue, -0.44, -0.1, -1.0514100000000002E-05
DataValue, -0.42800000000000005, -0.1, -1.0483300000000002E-05
DataValue, -0.41600000000000004, -0.1, -1.0439100000000001E-05
DataValue, -0.404, -0.1, -1.0470600000000001E-05
DataValue, -0.392, -0.1, -1.0434300000000001E-05
DataValue, -0.38, -0.1, -1.0397300000000001E-05
DataValue, -0.368, -0.1, -1.04295E-05
DataValue, -0.35600000000000004, -0.1, -1.0392800000000002E-05
DataValue, -0.34400000000000003, -0.1, -1.0347700000000001E-05
DataValue, -0.332, -0.1, -1.0376400000000001E-05
DataValue, -0.32, -0.1, -1.0326900000000001E-05
DataValue, -0.308, -0.1, -1.0278E-05
DataValue, -0.29600000000000004, -0.1, -1.02982E-05
DataValue, -0.28400000000000003, -0.1, -1.0240600000000002E-05
DataValue, -0.272, -0.1, -1.01674E-05
DataValue, -0.26, -0.1, -1.01635E-05
DataValue, -0.248, -0.1, -1.00841E-05
DataValue, -0.23600000000000002, -0.1, -9.9937E-06
DataValue, -0.224, -0.1, -9.957600000000001E-06
DataValue, -0.21200000000000002, -0.1, -9.8285000000000008E-06
DataValue, -0.2, -0.1, -9.6888000000000012E-06
DataValue, -0.188, -0.1, -9.5884000000000012E-06
DataValue, -0.17600000000000002, -0.1, -9.3778E-06
DataValue, -0.164, -0.1, -9.1660000000000017E-06
DataValue, -0.152, -0.1, -8.9713000000000017E-06
DataValue, -0.14, -0.1, -8.6435000000000012E-06
DataValue, -0.128, -0.1, -8.305000000000001E-06
DataValue, -0.116, -0.1, -7.9626E-06
DataValue, -0.10400000000000001, -0.1, -7.4752000000000009E-06
DataValue, -0.092, -0.1, -6.961500000000001E-06
DataValue, -0.08, -0.1, -6.4177E-06
DataValue, -0.068, -0.1, -5.7194000000000007E-06
DataValue, -0.056, -0.1, -4.9360000000000007E-06
DataValue, -0.044000000000000004, -0.1, -4.1182000000000007E-06
DataValue, -0.032, -0.1, -3.1595000000000004E-06
DataValue, -0.02, -0.1, -2.0390000000000003E-06
DataValue, -0.008, -0.1, -8.862E-07
DataValue, 0.004, -0.1, 4.9234E-07
DataValue, 0.016, -0.1, 1.9952000000000004E-06
DataValue, 0.028, -0.1, 3.6013000000000006E-06
DataValue, 0.04, -0.1, 5.3974E-06
DataValue, 0.052000000000000005, -0.1, 7.4035E-06
DataValue, 0.064, -0.1, 9.5216E-06
DataValue, 0.076, -0.1, 1.2038E-05
DataValue, 0.088000000000000009, -0.1, 1.4550000000000001E-05
DataValue, 0.1, -0.1, 1.7216E-05
