
SetupTitle, (c1) Output curve in LGP
PrimitiveTest, I/V Sweep
TestParameter, Context.MainFrame, B1500A
TestParameter, Channel.UnitType, SMU, SMU
TestParameter, Channel.Unit, SMU1:HR/AS, SMU2:HR/AS
TestParameter, Channel.IName, Ig, Id
TestParameter, Channel.VName, Vg, Vd
TestParameter, Channel.Mode, V, V
TestParameter, Channel.Func, VAR2, VAR1
TestParameter, Channel.Index, 
TestParameter, Channel.Time, 
TestParameter, Measurement.Port.Unit, SMU1:HR/AS, SMU2:HR/AS
TestParameter, Measurement.Port.SeriesResistor, NONE, NONE
TestParameter, Measurement.Port.Filter, ON, ON
TestParameter, Measurement.Port.OutputVoltageComparison, 0, 0
TestParameter, Measurement.Primary.Locus, Double
TestParameter, Measurement.Primary.Scale, LINEAR
TestParameter, Measurement.Primary.Start, 0.1
TestParameter, Measurement.Primary.Stop, -0.5
TestParameter, Measurement.Primary.Step, -0.012
TestParameter, Measurement.Primary.Compliance, 0.1
TestParameter, Measurement.Primary.PowerCompliance, 0
TestParameter, Measurement.Aborting.Condition, CONTINUE AT ANY
TestParameter, Measurement.PostOutput.Value, START
TestParameter, Measurement.PostOutput.Retention, OFF
TestParameter, Measurement.Secondary.Start, 0.1
TestParameter, Measurement.Secondary.Count, 6
TestParameter, Measurement.Secondary.Step, -0.1
TestParameter, Measurement.Secondary.Compliance, 0.0001
TestParameter, Measurement.Secondary.PowerCompliance, 0
TestParameter, Measurement.Bias.Source, 0.1, 0.1
TestParameter, Measurement.Bias.Compliance, 0.0001, 0.1
TestParameter, Measurement.Monitor.Unit, SMU1:HR/AS, SMU2:HR/AS
TestParameter, Measurement.Monitor.Adc, HR ADC, HR ADC
TestParameter, Measurement.Monitor.Measurement, Compliance Side, Compliance Side
TestParameter, Measurement.Monitor.RangingMode, LIMITED, LIMITED
TestParameter, Measurement.Monitor.RangeBoundary, 1nA, 1nA
TestParameter, Measurement.Monitor.RangeRating, BY FULL RANGE, BY FULL RANGE
TestParameter, Measurement.Monitor.RangeRatingCoeff, 50, 50
TestParameter, Measurement.Timing.Hold, 0
TestParameter, Measurement.Timing.Delay, 0
TestParameter, Measurement.Adc.HighSpeed.Mode, AUTO
TestParameter, Measurement.Adc.HighSpeed.Coeff, 1
TestParameter, Measurement.Adc.HighResolution.AutoZero, OFF
TestParameter, Measurement.Adc.HighResolution.Mode, AUTO
TestParameter, Measurement.Adc.HighResolution.Coeff, 6
TestParameter, Measurement.WaitTime.Source.Coeff, 1
TestParameter, Measurement.WaitTime.Source.Offset, 0
TestParameter, Measurement.WaitTime.Monitor.Coeff, 1
TestParameter, Measurement.WaitTime.Monitor.Offset, 0
TestParameter, Output.Graph.Enabled, true
TestParameter, Output.Graph.AutoScaling, false
TestParameter, Output.Graph.XAxis.Data, Vd
TestParameter, Output.Graph.XAxis.Scale, Linear
TestParameter, Output.Graph.XAxis.Left, 0
TestParameter, Output.Graph.XAxis.Right, -0.5
TestParameter, Output.Graph.XAxis.RunTimeAutoScale, true
TestParameter, Output.Graph.YAxis.Data, Id
TestParameter, Output.Graph.YAxis.Scale, Linear
TestParameter, Output.Graph.YAxis.Bottom, -0.1
TestParameter, Output.Graph.YAxis.Top, 0.1
TestParameter, Output.Graph.YAxis.Group, 
TestParameter, Output.Graph.YAxis.RunTimeAutoScale, true
TestParameter, Output.List.Data, Vd, Vg, Id
TestParameter, AutoAnalysis.Interpolation, false
TestParameter, AutoAnalysis.Var2StepCount, 1
TestParameter, AutoAnalysis.Var2StepScript, 
TestParameter, AutoAnalysis.Line1.Enabled, false
TestParameter, AutoAnalysis.Line1.Type, 1
TestParameter, AutoAnalysis.Line1.Fix, True
TestParameter, AutoAnalysis.Line1.YAxis, 0
TestParameter, AutoAnalysis.Line1.Point1.Type, 0
TestParameter, AutoAnalysis.Line1.Point1.XY.X, 
TestParameter, AutoAnalysis.Line1.Point1.XY.Y, 
TestParameter, AutoAnalysis.Line1.Point1.Data.Var, 
TestParameter, AutoAnalysis.Line1.Point1.Data.Condition, 
TestParameter, AutoAnalysis.Line1.Point1.Data.Start, false
TestParameter, AutoAnalysis.Line1.Point1.Data.StartVar, 
TestParameter, AutoAnalysis.Line1.Point1.Data.StartCondition, 
TestParameter, AutoAnalysis.Line1.Point2.Type, 0
TestParameter, AutoAnalysis.Line1.Point2.XY.X, 
TestParameter, AutoAnalysis.Line1.Point2.XY.Y, 
TestParameter, AutoAnalysis.Line1.Point2.Data.Var, 
TestParameter, AutoAnalysis.Line1.Point2.Data.Condition, 
TestParameter, AutoAnalysis.Line1.Point2.Data.Start, false
TestParameter, AutoAnalysis.Line1.Point2.Data.StartVar, 
TestParameter, AutoAnalysis.Line1.Point2.Data.StartCondition, 
TestParameter, AutoAnalysis.Line1.GradientExpr, 0
TestParameter, AutoAnalysis.Line2.Enabled, false
TestParameter, AutoAnalysis.Line2.Type, 1
TestParameter, AutoAnalysis.Line2.Fix, True
TestParameter, AutoAnalysis.Line2.YAxis, 0
TestParameter, AutoAnalysis.Line2.Point1.Type, 0
TestParameter, AutoAnalysis.Line2.Point1.XY.X, 
TestParameter, AutoAnalysis.Line2.Point1.XY.Y, 
TestParameter, AutoAnalysis.Line2.Point1.Data.Var, 
TestParameter, AutoAnalysis.Line2.Point1.Data.Condition, 
TestParameter, AutoAnalysis.Line2.Point1.Data.Start, false
TestParameter, AutoAnalysis.Line2.Point1.Data.StartVar, 
TestParameter, AutoAnalysis.Line2.Point1.Data.StartCondition, 
TestParameter, AutoAnalysis.Line2.Point2.Type, 0
TestParameter, AutoAnalysis.Line2.Point2.XY.X, 
TestParameter, AutoAnalysis.Line2.Point2.XY.Y, 
TestParameter, AutoAnalysis.Line2.Point2.Data.Var, 
TestParameter, AutoAnalysis.Line2.Point2.Data.Condition, 
TestParameter, AutoAnalysis.Line2.Point2.Data.Start, false
TestParameter, AutoAnalysis.Line2.Point2.Data.StartVar, 
TestParameter, AutoAnalysis.Line2.Point2.Data.StartCondition, 
TestParameter, AutoAnalysis.Line2.GradientExpr, 0
TestParameter, AutoAnalysis.Marker.Enabled, false
TestParameter, AutoAnalysis.Marker.Data.Var, 
TestParameter, AutoAnalysis.Marker.Data.Condition, 
TestParameter, AutoAnalysis.Marker.Data.Start, false
TestParameter, AutoAnalysis.Marker.Data.StartVar, 
TestParameter, AutoAnalysis.Marker.Data.StartCondition, 
MetaData, TestRecord.EntryPoint, true
MetaData, TestRecord.RecordTime, 12/22/2024 06:17:12
MetaData, TestRecord.TestTarget, 
MetaData, TestRecord.IterationIndex, 2
MetaData, TestRecord.Preservation, true
MetaData, TestRecord.Flag, 
MetaData, TestRecord.Remarks, 5wt-s21c2
MetaData, TestRecord.LinkKey, 72910b0c-f8cd-48d8-9bbf-64e4640bb10f
MetaData, TestRecord.Parameters, 
Dimension1, 102, 102, 102
Dimension2, 6, 6, 6
DataName, Vd, Vg, Id
DataValue, 0.1, 0.1, 3.9638E-05
DataValue, 0.088000000000000009, 0.1, 3.2158E-05
DataValue, 0.076, 0.1, 2.5458000000000003E-05
DataValue, 0.064, 0.1, 1.9482E-05
DataValue, 0.052000000000000005, 0.1, 1.4368E-05
DataValue, 0.04, 0.1, 1.003E-05
DataValue, 0.028, 0.1, 6.2139000000000008E-06
DataValue, 0.016, 0.1, 3.2206E-06
DataValue, 0.004, 0.1, 6.7774E-07
DataValue, -0.008, 0.1, -1.2236E-06
DataValue, -0.02, 0.1, -2.7402000000000005E-06
DataValue, -0.032, 0.1, -3.9661E-06
DataValue, -0.044000000000000004, 0.1, -4.8240000000000007E-06
DataValue, -0.056, 0.1, -5.4966000000000009E-06
DataValue, -0.068, 0.1, -6.0134000000000007E-06
DataValue, -0.08, 0.1, -6.296300000000001E-06
DataValue, -0.092, 0.1, -6.5319000000000009E-06
DataValue, -0.10400000000000001, 0.1, -6.7170000000000011E-06
DataValue, -0.116, 0.1, -6.7427000000000007E-06
DataValue, -0.128, 0.1, -6.8250000000000007E-06
DataValue, -0.14, 0.1, -6.8988000000000008E-06
DataValue, -0.152, 0.1, -6.867600000000001E-06
DataValue, -0.164, 0.1, -6.8838000000000009E-06
DataValue, -0.17600000000000002, 0.1, -6.9255000000000009E-06
DataValue, -0.188, 0.1, -6.8694000000000007E-06
DataValue, -0.2, 0.1, -6.8753000000000009E-06
DataValue, -0.21200000000000002, 0.1, -6.8999000000000006E-06
DataValue, -0.224, 0.1, -6.8477000000000005E-06
DataValue, -0.23600000000000002, 0.1, -6.862600000000001E-06
DataValue, -0.248, 0.1, -6.8917000000000004E-06
DataValue, -0.26, 0.1, -6.845200000000001E-06
DataValue, -0.272, 0.1, -6.8393000000000007E-06
DataValue, -0.28400000000000003, 0.1, -6.8836000000000005E-06
DataValue, -0.29600000000000004, 0.1, -6.8426E-06
DataValue, -0.308, 0.1, -6.8177000000000008E-06
DataValue, -0.32, 0.1, -6.8639000000000005E-06
DataValue, -0.332, 0.1, -6.8503E-06
DataValue, -0.34400000000000003, 0.1, -6.802700000000001E-06
DataValue, -0.35600000000000004, 0.1, -6.8436000000000009E-06
DataValue, -0.368, 0.1, -6.8486000000000008E-06
DataValue, -0.38, 0.1, -6.7963000000000005E-06
DataValue, -0.392, 0.1, -6.8274000000000009E-06
DataValue, -0.404, 0.1, -6.8561E-06
DataValue, -0.41600000000000004, 0.1, -6.8059E-06
DataValue, -0.42800000000000005, 0.1, -6.817800000000001E-06
DataValue, -0.44, 0.1, -6.8583000000000009E-06
DataValue, -0.452, 0.1, -6.8183000000000004E-06
DataValue, -0.464, 0.1, -6.8150000000000008E-06
DataValue, -0.47600000000000003, 0.1, -6.8699000000000009E-06
DataValue, -0.48800000000000004, 0.1, -6.8458000000000006E-06
DataValue, -0.5, 0.1, -6.826E-06
DataValue, -0.5, 0.1, -6.845600000000001E-06
DataValue, -0.48800000000000004, 0.1, -6.8648000000000007E-06
DataValue, -0.47600000000000003, 0.1, -6.8137000000000005E-06
DataValue, -0.464, 0.1, -6.7996000000000009E-06
DataValue, -0.452, 0.1, -6.8362000000000007E-06
DataValue, -0.44, 0.1, -6.7949000000000008E-06
DataValue, -0.42800000000000005, 0.1, -6.7657E-06
DataValue, -0.41600000000000004, 0.1, -6.8101000000000011E-06
DataValue, -0.404, 0.1, -6.7438000000000006E-06
DataValue, -0.392, 0.1, -6.7791000000000009E-06
DataValue, -0.38, 0.1, -6.7778000000000006E-06
DataValue, -0.368, 0.1, -6.7167E-06
DataValue, -0.35600000000000004, 0.1, -6.7514E-06
DataValue, -0.34400000000000003, 0.1, -6.7442000000000006E-06
DataValue, -0.332, 0.1, -6.6870000000000005E-06
DataValue, -0.32, 0.1, -6.7093E-06
DataValue, -0.308, 0.1, -6.7157000000000008E-06
DataValue, -0.29600000000000004, 0.1, -6.6550000000000007E-06
DataValue, -0.28400000000000003, 0.1, -6.6587E-06
DataValue, -0.272, 0.1, -6.6772000000000011E-06
DataValue, -0.26, 0.1, -6.6166E-06
DataValue, -0.248, 0.1, -6.5846000000000004E-06
DataValue, -0.23600000000000002, 0.1, -6.6107000000000009E-06
DataValue, -0.224, 0.1, -6.5749E-06
DataValue, -0.21200000000000002, 0.1, -6.5047000000000006E-06
DataValue, -0.2, 0.1, -6.513000000000001E-06
DataValue, -0.188, 0.1, -6.4955000000000007E-06
DataValue, -0.17600000000000002, 0.1, -6.4097000000000007E-06
DataValue, -0.164, 0.1, -6.3903000000000005E-06
DataValue, -0.152, 0.1, -6.3676000000000007E-06
DataValue, -0.14, 0.1, -6.2533000000000008E-06
DataValue, -0.128, 0.1, -6.189E-06
DataValue, -0.116, 0.1, -6.1076000000000006E-06
DataValue, -0.10400000000000001, 0.1, -5.9197E-06
DataValue, -0.092, 0.1, -5.7232000000000005E-06
DataValue, -0.08, 0.1, -5.5200000000000005E-06
DataValue, -0.068, 0.1, -5.1306000000000005E-06
DataValue, -0.056, 0.1, -4.7111000000000005E-06
DataValue, -0.044000000000000004, 0.1, -4.1379000000000006E-06
DataValue, -0.032, 0.1, -3.3124000000000003E-06
DataValue, -0.02, 0.1, -2.3579000000000003E-06
DataValue, -0.008, 0.1, -1.057E-06
DataValue, 0.004, 0.1, 5.6702E-07
DataValue, 0.016, 0.1, 2.6882000000000004E-06
DataValue, 0.028, 0.1, 5.2868000000000008E-06
DataValue, 0.04, 0.1, 8.4314E-06
DataValue, 0.052000000000000005, 0.1, 1.2408E-05
DataValue, 0.064, 0.1, 1.6884E-05
DataValue, 0.076, 0.1, 2.2098E-05
DataValue, 0.088000000000000009, 0.1, 2.8148000000000002E-05
DataValue, 0.1, 0.1, 3.5198000000000004E-05
DataValue, 0.1, 0, 0.00010644
DataValue, 0.088000000000000009, 0, 8.9874E-05
DataValue, 0.076, 0, 7.4094E-05
DataValue, 0.064, 0, 5.9334000000000005E-05
DataValue, 0.052000000000000005, 0, 4.5842E-05
DataValue, 0.04, 0, 3.3446E-05
DataValue, 0.028, 0, 2.2068E-05
DataValue, 0.016, 0, 1.1898E-05
DataValue, 0.004, 0, 2.7331E-06
DataValue, -0.008, 0, -5.4158000000000007E-06
DataValue, -0.02, 0, -1.251E-05
DataValue, -0.032, 0, -1.8880000000000002E-05
DataValue, -0.044000000000000004, 0, -2.4316000000000002E-05
DataValue, -0.056, 0, -2.9034E-05
DataValue, -0.068, 0, -3.3108E-05
DataValue, -0.08, 0, -3.6436E-05
DataValue, -0.092, 0, -3.9144E-05
DataValue, -0.10400000000000001, 0, -4.1458E-05
DataValue, -0.116, 0, -4.3236000000000004E-05
DataValue, -0.128, 0, -4.466E-05
DataValue, -0.14, 0, -4.583E-05
DataValue, -0.152, 0, -4.6750000000000005E-05
DataValue, -0.164, 0, -4.7388E-05
DataValue, -0.17600000000000002, 0, -4.7816000000000004E-05
DataValue, -0.188, 0, -4.8206E-05
DataValue, -0.2, 0, -4.8528E-05
DataValue, -0.21200000000000002, 0, -4.868E-05
DataValue, -0.224, 0, -4.8848000000000004E-05
DataValue, -0.23600000000000002, 0, -4.9042E-05
DataValue, -0.248, 0, -4.9134E-05
DataValue, -0.26, 0, -4.917E-05
DataValue, -0.272, 0, -4.9304E-05
DataValue, -0.28400000000000003, 0, -4.9348E-05
DataValue, -0.29600000000000004, 0, -4.9398000000000004E-05
DataValue, -0.308, 0, -4.9498E-05
DataValue, -0.32, 0, -4.9596000000000004E-05
DataValue, -0.332, 0, -4.957E-05
DataValue, -0.34400000000000003, 0, -4.9644E-05
DataValue, -0.35600000000000004, 0, -4.9764E-05
DataValue, -0.368, 0, -4.9800000000000004E-05
DataValue, -0.38, 0, -4.9786E-05
DataValue, -0.392, 0, -4.987E-05
DataValue, -0.404, 0, -4.996E-05
DataValue, -0.41600000000000004, 0, -4.9918E-05
DataValue, -0.42800000000000005, 0, -4.9968E-05
DataValue, -0.44, 0, -5.0078000000000004E-05
DataValue, -0.452, 0, -5.0054E-05
DataValue, -0.464, 0, -5.0086E-05
DataValue, -0.47600000000000003, 0, -5.0152000000000004E-05
DataValue, -0.48800000000000004, 0, -5.0202000000000005E-05
DataValue, -0.5, 0, -5.0180000000000004E-05
DataValue, -0.5, 0, -5.0164E-05
DataValue, -0.48800000000000004, 0, -5.0148E-05
DataValue, -0.47600000000000003, 0, -5.0148E-05
DataValue, -0.464, 0, -5.0038000000000004E-05
DataValue, -0.452, 0, -4.9988E-05
DataValue, -0.44, 0, -5.0022E-05
DataValue, -0.42800000000000005, 0, -4.9994E-05
DataValue, -0.41600000000000004, 0, -4.9896000000000005E-05
DataValue, -0.404, 0, -4.9858E-05
DataValue, -0.392, 0, -4.9856000000000005E-05
DataValue, -0.38, 0, -4.9788000000000005E-05
DataValue, -0.368, 0, -4.9676000000000003E-05
DataValue, -0.35600000000000004, 0, -4.9590000000000005E-05
DataValue, -0.34400000000000003, 0, -4.9568000000000004E-05
DataValue, -0.332, 0, -4.9438E-05
DataValue, -0.32, 0, -4.931E-05
DataValue, -0.308, 0, -4.9226E-05
DataValue, -0.29600000000000004, 0, -4.9156E-05
DataValue, -0.28400000000000003, 0, -4.9016E-05
DataValue, -0.272, 0, -4.8820000000000004E-05
DataValue, -0.26, 0, -4.8722E-05
DataValue, -0.248, 0, -4.8608E-05
DataValue, -0.23600000000000002, 0, -4.8346E-05
DataValue, -0.224, 0, -4.8084E-05
DataValue, -0.21200000000000002, 0, -4.7912000000000005E-05
DataValue, -0.2, 0, -4.7586E-05
DataValue, -0.188, 0, -4.7128E-05
DataValue, -0.17600000000000002, 0, -4.6678E-05
DataValue, -0.164, 0, -4.6102E-05
DataValue, -0.152, 0, -4.5352E-05
DataValue, -0.14, 0, -4.4396E-05
DataValue, -0.128, 0, -4.321E-05
DataValue, -0.116, 0, -4.18E-05
DataValue, -0.10400000000000001, 0, -4.0032E-05
DataValue, -0.092, 0, -3.7760000000000004E-05
DataValue, -0.08, 0, -3.5106E-05
DataValue, -0.068, 0, -3.2E-05
DataValue, -0.056, 0, -2.8126E-05
DataValue, -0.044000000000000004, 0, -2.3562000000000002E-05
DataValue, -0.032, 0, -1.8352E-05
DataValue, -0.02, 0, -1.2288E-05
DataValue, -0.008, 0, -5.253E-06
DataValue, 0.004, 0, 2.7133000000000003E-06
DataValue, 0.016, 0, 1.186E-05
DataValue, 0.028, 0, 2.1996E-05
DataValue, 0.04, 0, 3.336E-05
DataValue, 0.052000000000000005, 0, 4.5912000000000004E-05
DataValue, 0.064, 0, 5.9664E-05
DataValue, 0.076, 0, 7.4642000000000008E-05
DataValue, 0.088000000000000009, 0, 9.1078E-05
DataValue, 0.1, 0, 0.000108928
DataValue, 0.1, -0.1, 0.00021162
DataValue, 0.088000000000000009, -0.1, 0.00018204
DataValue, 0.076, -0.1, 0.00015358
DataValue, 0.064, -0.1, 0.000126
DataValue, 0.052000000000000005, -0.1, 9.9798000000000009E-05
DataValue, 0.04, -0.1, 7.467E-05
DataValue, 0.028, -0.1, 5.0624E-05
DataValue, 0.016, -0.1, 2.8022E-05
DataValue, 0.004, -0.1, 6.6782000000000007E-06
DataValue, -0.008, -0.1, -1.3376E-05
DataValue, -0.02, -0.1, -3.2202E-05
DataValue, -0.032, -0.1, -4.987E-05
DataValue, -0.044000000000000004, -0.1, -6.6134E-05
DataValue, -0.056, -0.1, -8.1046E-05
DataValue, -0.068, -0.1, -9.4896000000000008E-05
DataValue, -0.08, -0.1, -0.00010746800000000001
DataValue, -0.092, -0.1, -0.00011824
DataValue, -0.10400000000000001, -0.1, -0.00012848000000000002
DataValue, -0.116, -0.1, -0.00013778
DataValue, -0.128, -0.1, -0.000146
DataValue, -0.14, -0.1, -0.00015304
DataValue, -0.152, -0.1, -0.00015930000000000002
DataValue, -0.164, -0.1, -0.00016478
DataValue, -0.17600000000000002, -0.1, -0.00016934
DataValue, -0.188, -0.1, -0.00017322
DataValue, -0.2, -0.1, -0.00017656
DataValue, -0.21200000000000002, -0.1, -0.00017918
DataValue, -0.224, -0.1, -0.00018136
DataValue, -0.23600000000000002, -0.1, -0.00018322000000000003
DataValue, -0.248, -0.1, -0.00018466
DataValue, -0.26, -0.1, -0.00018582
DataValue, -0.272, -0.1, -0.00018680000000000001
DataValue, -0.28400000000000003, -0.1, -0.00018762000000000002
DataValue, -0.29600000000000004, -0.1, -0.00018822
DataValue, -0.308, -0.1, -0.00018864
DataValue, -0.32, -0.1, -0.00018932
DataValue, -0.332, -0.1, -0.0001898
DataValue, -0.34400000000000003, -0.1, -0.00018996
DataValue, -0.35600000000000004, -0.1, -0.00019030000000000002
DataValue, -0.368, -0.1, -0.00019076000000000002
DataValue, -0.38, -0.1, -0.00019088000000000002
DataValue, -0.392, -0.1, -0.00019106
DataValue, -0.404, -0.1, -0.00019140000000000002
DataValue, -0.41600000000000004, -0.1, -0.00019168
DataValue, -0.42800000000000005, -0.1, -0.00019196
DataValue, -0.44, -0.1, -0.000192
DataValue, -0.452, -0.1, -0.00019224000000000002
DataValue, -0.464, -0.1, -0.00019268
DataValue, -0.47600000000000003, -0.1, -0.00019270000000000002
DataValue, -0.48800000000000004, -0.1, -0.00019278
DataValue, -0.5, -0.1, -0.000193
DataValue, -0.5, -0.1, -0.000193
DataValue, -0.48800000000000004, -0.1, -0.00019264
DataValue, -0.47600000000000003, -0.1, -0.00019226
DataValue, -0.464, -0.1, -0.00019208000000000002
DataValue, -0.452, -0.1, -0.00019188
DataValue, -0.44, -0.1, -0.00019148
DataValue, -0.42800000000000005, -0.1, -0.0001911
DataValue, -0.41600000000000004, -0.1, -0.00019094
DataValue, -0.404, -0.1, -0.00019056000000000002
DataValue, -0.392, -0.1, -0.0001901
DataValue, -0.38, -0.1, -0.00018974
DataValue, -0.368, -0.1, -0.00018938
DataValue, -0.35600000000000004, -0.1, -0.00018906
DataValue, -0.34400000000000003, -0.1, -0.00018846000000000002
DataValue, -0.332, -0.1, -0.00018804000000000002
DataValue, -0.32, -0.1, -0.00018756
DataValue, -0.308, -0.1, -0.00018686
DataValue, -0.29600000000000004, -0.1, -0.00018624
DataValue, -0.28400000000000003, -0.1, -0.00018552
DataValue, -0.272, -0.1, -0.0001844
DataValue, -0.26, -0.1, -0.00018316
DataValue, -0.248, -0.1, -0.00018182000000000002
DataValue, -0.23600000000000002, -0.1, -0.00018022
DataValue, -0.224, -0.1, -0.00017814
DataValue, -0.21200000000000002, -0.1, -0.00017584000000000002
DataValue, -0.2, -0.1, -0.00017314
DataValue, -0.188, -0.1, -0.00016982000000000002
DataValue, -0.17600000000000002, -0.1, -0.00016588
DataValue, -0.164, -0.1, -0.00016140000000000002
DataValue, -0.152, -0.1, -0.00015638000000000002
DataValue, -0.14, -0.1, -0.00015016
DataValue, -0.128, -0.1, -0.00014318000000000002
DataValue, -0.116, -0.1, -0.00013570000000000002
DataValue, -0.10400000000000001, -0.1, -0.00012678
DataValue, -0.092, -0.1, -0.0001168
DataValue, -0.08, -0.1, -0.00010584
DataValue, -0.068, -0.1, -9.3790000000000008E-05
DataValue, -0.056, -0.1, -8.0254000000000008E-05
DataValue, -0.044000000000000004, -0.1, -6.5568E-05
DataValue, -0.032, -0.1, -4.9438E-05
DataValue, -0.02, -0.1, -3.2038E-05
DataValue, -0.008, -0.1, -1.3392E-05
DataValue, 0.004, -0.1, 6.814E-06
DataValue, 0.016, -0.1, 2.8416E-05
DataValue, 0.028, -0.1, 5.1454E-05
DataValue, 0.04, -0.1, 7.5818E-05
DataValue, 0.052000000000000005, -0.1, 0.000101438
DataValue, 0.064, -0.1, 0.00012926000000000002
DataValue, 0.076, -0.1, 0.00015772
DataValue, 0.088000000000000009, -0.1, 0.00018746000000000003
DataValue, 0.1, -0.1, 0.00021840000000000002
DataValue, 0.1, -0.2, 0.00032228000000000004
DataValue, 0.088000000000000009, -0.2, 0.00028044
DataValue, 0.076, -0.2, 0.00023946000000000002
