
SetupTitle, (c2) Transfer curve in LGP
PrimitiveTest, I/V Sweep
TestParameter, Context.MainFrame, B1500A
TestParameter, Channel.UnitType, SMU, SMU
TestParameter, Channel.Unit, SMU1:HR/AS, SMU2:HR/AS
TestParameter, Channel.IName, Ig, Id
TestParameter, Channel.VName, Vg, Vd
TestParameter, Channel.Mode, V, V
TestParameter, Channel.Func, VAR1, VAR2
TestParameter, Channel.Index, 
TestParameter, Channel.Time, 
TestParameter, Measurement.Port.Unit, SMU1:HR/AS, SMU2:HR/AS
TestParameter, Measurement.Port.SeriesResistor, NONE, NONE
TestParameter, Measurement.Port.Filter, ON, ON
TestParameter, Measurement.Port.OutputVoltageComparison, 0, 0
TestParameter, Measurement.Primary.Locus, Double
TestParameter, Measurement.Primary.Scale, LINEAR
TestParameter, Measurement.Primary.Start, 0.1
TestParameter, Measurement.Primary.Stop, -0.4
TestParameter, Measurement.Primary.Step, -0.01
TestParameter, Measurement.Primary.Compliance, 0.1
TestParameter, Measurement.Primary.PowerCompliance, 1
TestParameter, Measurement.Aborting.Condition, SKIP AT ANY ABNORMAL
TestParameter, Measurement.PostOutput.Value, START
TestParameter, Measurement.PostOutput.Retention, OFF
TestParameter, Measurement.Secondary.Start, -0.25
TestParameter, Measurement.Secondary.Count, 5
TestParameter, Measurement.Secondary.Step, 0
TestParameter, Measurement.Secondary.Compliance, 0.1
TestParameter, Measurement.Secondary.PowerCompliance, 1
TestParameter, Measurement.Bias.Source, 0.1, -0.25
TestParameter, Measurement.Bias.Compliance, 0.1, 0.1
TestParameter, Measurement.Monitor.Unit, SMU1:HR/AS, SMU2:HR/AS
TestParameter, Measurement.Monitor.Adc, HR ADC, HR ADC
TestParameter, Measurement.Monitor.Measurement, Compliance Side, Compliance Side
TestParameter, Measurement.Monitor.RangingMode, LIMITED, LIMITED
TestParameter, Measurement.Monitor.RangeBoundary, 1nA, 1nA
TestParameter, Measurement.Monitor.RangeRating, BY FULL RANGE, BY FULL RANGE
TestParameter, Measurement.Monitor.RangeRatingCoeff, 50, 50
TestParameter, Measurement.Timing.Hold, 0
TestParameter, Measurement.Timing.Delay, 0
TestParameter, Measurement.Adc.HighSpeed.Mode, AUTO
TestParameter, Measurement.Adc.HighSpeed.Coeff, 1
TestParameter, Measurement.Adc.HighResolution.AutoZero, OFF
TestParameter, Measurement.Adc.HighResolution.Mode, AUTO
TestParameter, Measurement.Adc.HighResolution.Coeff, 6
TestParameter, Measurement.WaitTime.Source.Coeff, 1
TestParameter, Measurement.WaitTime.Source.Offset, 0
TestParameter, Measurement.WaitTime.Monitor.Coeff, 1
TestParameter, Measurement.WaitTime.Monitor.Offset, 0
TestParameter, Output.Graph.Enabled, true
TestParameter, Output.Graph.AutoScaling, false
TestParameter, Output.Graph.XAxis.Data, Vg
TestParameter, Output.Graph.XAxis.Scale, Linear
TestParameter, Output.Graph.XAxis.Left, 0.60000000000000009
TestParameter, Output.Graph.XAxis.Right, -0.60000000000000009
TestParameter, Output.Graph.XAxis.RunTimeAutoScale, true
TestParameter, Output.Graph.YAxis.Data, Id
TestParameter, Output.Graph.YAxis.Scale, Linear
TestParameter, Output.Graph.YAxis.Bottom, -0.1
TestParameter, Output.Graph.YAxis.Top, 0.1
TestParameter, Output.Graph.YAxis.Group, 
TestParameter, Output.Graph.YAxis.RunTimeAutoScale, true
TestParameter, Output.List.Data, Vd, Vg, Id
TestParameter, AutoAnalysis.Interpolation, false
TestParameter, AutoAnalysis.Var2StepCount, 1
TestParameter, AutoAnalysis.Var2StepScript, 
TestParameter, AutoAnalysis.Line1.Enabled, false
TestParameter, AutoAnalysis.Line1.Type, 1
TestParameter, AutoAnalysis.Line1.Fix, True
TestParameter, AutoAnalysis.Line1.YAxis, 0
TestParameter, AutoAnalysis.Line1.Point1.Type, 0
TestParameter, AutoAnalysis.Line1.Point1.XY.X, 
TestParameter, AutoAnalysis.Line1.Point1.XY.Y, 
TestParameter, AutoAnalysis.Line1.Point1.Data.Var, 
TestParameter, AutoAnalysis.Line1.Point1.Data.Condition, 
TestParameter, AutoAnalysis.Line1.Point1.Data.Start, false
TestParameter, AutoAnalysis.Line1.Point1.Data.StartVar, 
TestParameter, AutoAnalysis.Line1.Point1.Data.StartCondition, 
TestParameter, AutoAnalysis.Line1.Point2.Type, 0
TestParameter, AutoAnalysis.Line1.Point2.XY.X, 
TestParameter, AutoAnalysis.Line1.Point2.XY.Y, 
TestParameter, AutoAnalysis.Line1.Point2.Data.Var, 
TestParameter, AutoAnalysis.Line1.Point2.Data.Condition, 
TestParameter, AutoAnalysis.Line1.Point2.Data.Start, false
TestParameter, AutoAnalysis.Line1.Point2.Data.StartVar, 
TestParameter, AutoAnalysis.Line1.Point2.Data.StartCondition, 
TestParameter, AutoAnalysis.Line1.GradientExpr, 0
TestParameter, AutoAnalysis.Line2.Enabled, false
TestParameter, AutoAnalysis.Line2.Type, 1
TestParameter, AutoAnalysis.Line2.Fix, True
TestParameter, AutoAnalysis.Line2.YAxis, 0
TestParameter, AutoAnalysis.Line2.Point1.Type, 0
TestParameter, AutoAnalysis.Line2.Point1.XY.X, 
TestParameter, AutoAnalysis.Line2.Point1.XY.Y, 
TestParameter, AutoAnalysis.Line2.Point1.Data.Var, 
TestParameter, AutoAnalysis.Line2.Point1.Data.Condition, 
TestParameter, AutoAnalysis.Line2.Point1.Data.Start, false
TestParameter, AutoAnalysis.Line2.Point1.Data.StartVar, 
TestParameter, AutoAnalysis.Line2.Point1.Data.StartCondition, 
TestParameter, AutoAnalysis.Line2.Point2.Type, 0
TestParameter, AutoAnalysis.Line2.Point2.XY.X, 
TestParameter, AutoAnalysis.Line2.Point2.XY.Y, 
TestParameter, AutoAnalysis.Line2.Point2.Data.Var, 
TestParameter, AutoAnalysis.Line2.Point2.Data.Condition, 
TestParameter, AutoAnalysis.Line2.Point2.Data.Start, false
TestParameter, AutoAnalysis.Line2.Point2.Data.StartVar, 
TestParameter, AutoAnalysis.Line2.Point2.Data.StartCondition, 
TestParameter, AutoAnalysis.Line2.GradientExpr, 0
TestParameter, AutoAnalysis.Marker.Enabled, false
TestParameter, AutoAnalysis.Marker.Data.Var, 
TestParameter, AutoAnalysis.Marker.Data.Condition, 
TestParameter, AutoAnalysis.Marker.Data.Start, false
TestParameter, AutoAnalysis.Marker.Data.StartVar, 
TestParameter, AutoAnalysis.Marker.Data.StartCondition, 
MetaData, TestRecord.EntryPoint, true
MetaData, TestRecord.RecordTime, 12/22/2024 06:15:46
MetaData, TestRecord.TestTarget, 
MetaData, TestRecord.IterationIndex, 2
MetaData, TestRecord.Preservation, true
MetaData, TestRecord.Flag, 
MetaData, TestRecord.Remarks, 5wt-s21c1
MetaData, TestRecord.LinkKey, aeebbb77-7c4d-4e23-b351-ed0134a5acbf
MetaData, TestRecord.Parameters, 
Dimension1, 102, 102, 102
Dimension2, 5, 5, 5
DataName, Vg, Vd, Id
DataValue, 0.1, -0.25, -7.294E-07
DataValue, 0.090000000000000011, -0.25, -8.3866E-07
DataValue, 0.08, -0.25, -9.9507999999999988E-07
DataValue, 0.07, -0.25, -1.1108E-06
DataValue, 0.060000000000000005, -0.25, -1.3244000000000002E-06
DataValue, 0.05, -0.25, -1.5225000000000003E-06
DataValue, 0.04, -0.25, -1.8082000000000001E-06
DataValue, 0.030000000000000002, -0.25, -2.0611E-06
DataValue, 0.02, -0.25, -2.3790000000000004E-06
DataValue, 0.01, -0.25, -2.7985000000000004E-06
DataValue, 0, -0.25, -3.2164000000000002E-06
DataValue, -0.01, -0.25, -3.6701000000000002E-06
DataValue, -0.02, -0.25, -4.2442000000000008E-06
DataValue, -0.030000000000000002, -0.25, -4.8820000000000009E-06
DataValue, -0.04, -0.25, -5.5360000000000009E-06
DataValue, -0.05, -0.25, -6.3485E-06
DataValue, -0.060000000000000005, -0.25, -7.1884000000000005E-06
DataValue, -0.07, -0.25, -8.0848000000000009E-06
DataValue, -0.08, -0.25, -9.1752000000000015E-06
DataValue, -0.090000000000000011, -0.25, -1.0298E-05
DataValue, -0.1, -0.25, -1.177E-05
DataValue, -0.11, -0.25, -1.3018E-05
DataValue, -0.12000000000000001, -0.25, -1.4512000000000001E-05
DataValue, -0.13, -0.25, -1.6096E-05
DataValue, -0.14, -0.25, -1.7774E-05
DataValue, -0.15, -0.25, -1.9688000000000002E-05
DataValue, -0.16, -0.25, -2.1716E-05
DataValue, -0.17, -0.25, -2.3828E-05
DataValue, -0.18000000000000002, -0.25, -2.6150000000000002E-05
DataValue, -0.19, -0.25, -2.8662E-05
DataValue, -0.2, -0.25, -3.1216E-05
DataValue, -0.21000000000000002, -0.25, -3.395E-05
DataValue, -0.22, -0.25, -3.694E-05
DataValue, -0.23, -0.25, -4.007E-05
DataValue, -0.24000000000000002, -0.25, -4.3218E-05
DataValue, -0.25, -0.25, -4.6750000000000005E-05
DataValue, -0.26, -0.25, -5.0342E-05
DataValue, -0.27, -0.25, -5.3988E-05
DataValue, -0.28, -0.25, -5.7862E-05
DataValue, -0.29000000000000004, -0.25, -6.1872E-05
DataValue, -0.3, -0.25, -6.5978E-05
DataValue, -0.31, -0.25, -7.015E-05
DataValue, -0.32, -0.25, -7.4534E-05
DataValue, -0.33, -0.25, -7.9006000000000009E-05
DataValue, -0.34, -0.25, -8.3602E-05
DataValue, -0.35000000000000003, -0.25, -8.8074E-05
DataValue, -0.36000000000000004, -0.25, -9.2762E-05
DataValue, -0.37, -0.25, -9.7492000000000008E-05
DataValue, -0.38, -0.25, -0.000102062
DataValue, -0.39, -0.25, -0.00010685000000000001
DataValue, -0.4, -0.25, -0.000111422
DataValue, -0.4, -0.25, -0.00011175200000000001
DataValue, -0.39, -0.25, -0.00010822200000000001
DataValue, -0.38, -0.25, -0.000104556
DataValue, -0.37, -0.25, -0.00010077400000000001
DataValue, -0.36000000000000004, -0.25, -9.6722E-05
DataValue, -0.35000000000000003, -0.25, -9.2656E-05
DataValue, -0.34, -0.25, -8.859E-05
DataValue, -0.33, -0.25, -8.4514E-05
DataValue, -0.32, -0.25, -8.0338E-05
DataValue, -0.31, -0.25, -7.6266E-05
DataValue, -0.3, -0.25, -7.2264E-05
DataValue, -0.29000000000000004, -0.25, -6.8252E-05
DataValue, -0.28, -0.25, -6.4204E-05
DataValue, -0.27, -0.25, -6.0166E-05
DataValue, -0.26, -0.25, -5.6492E-05
DataValue, -0.25, -0.25, -5.2812E-05
DataValue, -0.24000000000000002, -0.25, -4.9362E-05
DataValue, -0.23, -0.25, -4.587E-05
DataValue, -0.22, -0.25, -4.2512E-05
DataValue, -0.21000000000000002, -0.25, -3.938E-05
DataValue, -0.2, -0.25, -3.6360000000000004E-05
DataValue, -0.19, -0.25, -3.3408E-05
DataValue, -0.18000000000000002, -0.25, -3.0668E-05
DataValue, -0.17, -0.25, -2.8100000000000002E-05
DataValue, -0.16, -0.25, -2.561E-05
DataValue, -0.15, -0.25, -2.3330000000000002E-05
DataValue, -0.14, -0.25, -2.1190000000000002E-05
DataValue, -0.13, -0.25, -1.913E-05
DataValue, -0.12000000000000001, -0.25, -1.7256000000000002E-05
DataValue, -0.11, -0.25, -1.5576E-05
DataValue, -0.1, -0.25, -1.393E-05
DataValue, -0.090000000000000011, -0.25, -1.2438E-05
DataValue, -0.08, -0.25, -1.1104E-05
DataValue, -0.07, -0.25, -9.7001E-06
DataValue, -0.060000000000000005, -0.25, -8.6351000000000014E-06
DataValue, -0.05, -0.25, -7.6609000000000015E-06
DataValue, -0.04, -0.25, -6.6830000000000011E-06
DataValue, -0.030000000000000002, -0.25, -5.856300000000001E-06
DataValue, -0.02, -0.25, -5.1587E-06
DataValue, -0.01, -0.25, -4.4441E-06
DataValue, 0, -0.25, -3.8320000000000008E-06
DataValue, 0.01, -0.25, -3.3360000000000003E-06
DataValue, 0.02, -0.25, -2.8521E-06
DataValue, 0.030000000000000002, -0.25, -2.4147000000000004E-06
DataValue, 0.04, -0.25, -2.0886000000000002E-06
DataValue, 0.05, -0.25, -1.7782000000000002E-06
DataValue, 0.060000000000000005, -0.25, -1.4605000000000003E-06
DataValue, 0.07, -0.25, -1.2449000000000001E-06
DataValue, 0.08, -0.25, -1.072E-06
DataValue, 0.090000000000000011, -0.25, -8.2414E-07
DataValue, 0.1, -0.25, -7.175E-07
DataValue, 0.1, -0.25, -5.7296E-07
DataValue, 0.090000000000000011, -0.25, -6.1914E-07
DataValue, 0.08, -0.25, -7.3685999999999994E-07
DataValue, 0.07, -0.25, -9.2422E-07
DataValue, 0.060000000000000005, -0.25, -1.0578E-06
DataValue, 0.05, -0.25, -1.3487000000000001E-06
DataValue, 0.04, -0.25, -1.5476000000000002E-06
DataValue, 0.030000000000000002, -0.25, -1.8575000000000002E-06
DataValue, 0.02, -0.25, -2.1274E-06
DataValue, 0.01, -0.25, -2.4805000000000002E-06
DataValue, 0, -0.25, -2.933E-06
DataValue, -0.01, -0.25, -3.3649E-06
DataValue, -0.02, -0.25, -3.8801E-06
DataValue, -0.030000000000000002, -0.25, -4.5197E-06
DataValue, -0.04, -0.25, -5.1603E-06
DataValue, -0.05, -0.25, -5.8965E-06
DataValue, -0.060000000000000005, -0.25, -6.7876000000000009E-06
DataValue, -0.07, -0.25, -7.679E-06
DataValue, -0.08, -0.25, -8.7033E-06
DataValue, -0.090000000000000011, -0.25, -9.8952000000000014E-06
DataValue, -0.1, -0.25, -1.11217E-05
DataValue, -0.11, -0.25, -1.3092000000000001E-05
DataValue, -0.12000000000000001, -0.25, -1.4518E-05
DataValue, -0.13, -0.25, -1.6058E-05
DataValue, -0.14, -0.25, -1.7814E-05
DataValue, -0.15, -0.25, -1.9750000000000002E-05
DataValue, -0.16, -0.25, -2.1740000000000002E-05
DataValue, -0.17, -0.25, -2.392E-05
DataValue, -0.18000000000000002, -0.25, -2.6354000000000002E-05
DataValue, -0.19, -0.25, -2.883E-05
DataValue, -0.2, -0.25, -3.1526E-05
DataValue, -0.21000000000000002, -0.25, -3.4408E-05
DataValue, -0.22, -0.25, -3.74E-05
DataValue, -0.23, -0.25, -4.0564E-05
DataValue, -0.24000000000000002, -0.25, -4.3938E-05
DataValue, -0.25, -0.25, -4.7472E-05
DataValue, -0.26, -0.25, -5.11E-05
DataValue, -0.27, -0.25, -5.4954E-05
DataValue, -0.28, -0.25, -5.8954000000000005E-05
DataValue, -0.29000000000000004, -0.25, -6.2992E-05
DataValue, -0.3, -0.25, -6.7196E-05
DataValue, -0.31, -0.25, -7.1572E-05
DataValue, -0.32, -0.25, -7.598E-05
DataValue, -0.33, -0.25, -8.0454E-05
DataValue, -0.34, -0.25, -8.5038000000000008E-05
DataValue, -0.35000000000000003, -0.25, -8.9678E-05
DataValue, -0.36000000000000004, -0.25, -9.4274E-05
DataValue, -0.37, -0.25, -9.9034E-05
DataValue, -0.38, -0.25, -0.000103644
DataValue, -0.39, -0.25, -0.000108084
DataValue, -0.4, -0.25, -0.00011275200000000001
DataValue, -0.4, -0.25, -0.000113164
DataValue, -0.39, -0.25, -0.00010962600000000001
DataValue, -0.38, -0.25, -0.0001059
DataValue, -0.37, -0.25, -0.000102088
DataValue, -0.36000000000000004, -0.25, -9.7998E-05
DataValue, -0.35000000000000003, -0.25, -9.3870000000000008E-05
DataValue, -0.34, -0.25, -8.9796E-05
DataValue, -0.33, -0.25, -8.5616E-05
DataValue, -0.32, -0.25, -8.1442E-05
DataValue, -0.31, -0.25, -7.7278E-05
DataValue, -0.3, -0.25, -7.3248E-05
DataValue, -0.29000000000000004, -0.25, -6.9174E-05
DataValue, -0.28, -0.25, -6.5128E-05
DataValue, -0.27, -0.25, -6.1296E-05
DataValue, -0.26, -0.25, -5.7522E-05
DataValue, -0.25, -0.25, -5.3644000000000003E-05
DataValue, -0.24000000000000002, -0.25, -5.007E-05
DataValue, -0.23, -0.25, -4.6636E-05
DataValue, -0.22, -0.25, -4.3204E-05
DataValue, -0.21000000000000002, -0.25, -3.9916E-05
DataValue, -0.2, -0.25, -3.6846E-05
DataValue, -0.19, -0.25, -3.3948E-05
DataValue, -0.18000000000000002, -0.25, -3.1122E-05
DataValue, -0.17, -0.25, -2.8388E-05
DataValue, -0.16, -0.25, -2.5960000000000002E-05
DataValue, -0.15, -0.25, -2.3658E-05
DataValue, -0.14, -0.25, -2.1380000000000002E-05
DataValue, -0.13, -0.25, -1.9354E-05
DataValue, -0.12000000000000001, -0.25, -1.7498E-05
DataValue, -0.11, -0.25, -1.5686000000000002E-05
DataValue, -0.1, -0.25, -1.4022E-05
DataValue, -0.090000000000000011, -0.25, -1.2552000000000001E-05
DataValue, -0.08, -0.25, -1.1198E-05
DataValue, -0.07, -0.25, -9.756700000000001E-06
DataValue, -0.060000000000000005, -0.25, -8.7011E-06
DataValue, -0.05, -0.25, -7.657600000000001E-06
DataValue, -0.04, -0.25, -6.6889000000000005E-06
DataValue, -0.030000000000000002, -0.25, -5.8939000000000004E-06
DataValue, -0.02, -0.25, -5.1467E-06
DataValue, -0.01, -0.25, -4.4035E-06
DataValue, 0, -0.25, -3.8320000000000008E-06
DataValue, 0.01, -0.25, -3.3152000000000005E-06
DataValue, 0.02, -0.25, -2.8139000000000003E-06
DataValue, 0.030000000000000002, -0.25, -2.4014000000000004E-06
DataValue, 0.04, -0.25, -2.0736000000000004E-06
DataValue, 0.05, -0.25, -1.7279000000000002E-06
DataValue, 0.060000000000000005, -0.25, -1.4359E-06
DataValue, 0.07, -0.25, -1.249E-06
DataValue, 0.08, -0.25, -1.0348E-06
DataValue, 0.090000000000000011, -0.25, -8.3232E-07
DataValue, 0.1, -0.25, -6.6688E-07
DataValue, 0.1, -0.25, -5.501E-07
DataValue, 0.090000000000000011, -0.25, -6.0714E-07
DataValue, 0.08, -0.25, -6.9417999999999993E-07
DataValue, 0.07, -0.25, -8.7516E-07
DataValue, 0.060000000000000005, -0.25, -1.03368E-06
DataValue, 0.05, -0.25, -1.3151000000000001E-06
DataValue, 0.04, -0.25, -1.4853000000000002E-06
DataValue, 0.030000000000000002, -0.25, -1.7818000000000003E-06
DataValue, 0.02, -0.25, -2.0868E-06
DataValue, 0.01, -0.25, -2.3959000000000002E-06
DataValue, 0, -0.25, -2.8303000000000002E-06
DataValue, -0.01, -0.25, -3.3010000000000002E-06
DataValue, -0.02, -0.25, -3.7742000000000002E-06
DataValue, -0.030000000000000002, -0.25, -4.4003E-06
DataValue, -0.04, -0.25, -5.0781000000000006E-06
DataValue, -0.05, -0.25, -5.7987000000000009E-06
DataValue, -0.060000000000000005, -0.25, -6.6632000000000008E-06
DataValue, -0.07, -0.25, -7.5824000000000005E-06
DataValue, -0.08, -0.25, -8.5607000000000009E-06
DataValue, -0.090000000000000011, -0.25, -9.7492000000000015E-06
DataValue, -0.1, -0.25, -1.09834E-05
DataValue, -0.11, -0.25, -1.2936000000000001E-05
DataValue, -0.12000000000000001, -0.25, -1.4376000000000001E-05
DataValue, -0.13, -0.25, -1.5946E-05
DataValue, -0.14, -0.25, -1.7650000000000002E-05
DataValue, -0.15, -0.25, -1.9586000000000002E-05
DataValue, -0.16, -0.25, -2.1624E-05
DataValue, -0.17, -0.25, -2.3808E-05
DataValue, -0.18000000000000002, -0.25, -2.621E-05
DataValue, -0.19, -0.25, -2.8738E-05
DataValue, -0.2, -0.25, -3.147E-05
DataValue, -0.21000000000000002, -0.25, -3.4372E-05
DataValue, -0.22, -0.25, -3.7362E-05
DataValue, -0.23, -0.25, -4.0548E-05
DataValue, -0.24000000000000002, -0.25, -4.3964E-05
DataValue, -0.25, -0.25, -4.7504000000000005E-05
DataValue, -0.26, -0.25, -5.1096E-05
DataValue, -0.27, -0.25, -5.4878E-05
DataValue, -0.28, -0.25, -5.8972000000000004E-05
DataValue, -0.29000000000000004, -0.25, -6.303E-05
DataValue, -0.3, -0.25, -6.718E-05
DataValue, -0.31, -0.25, -7.1496000000000008E-05
DataValue, -0.32, -0.25, -7.5934000000000009E-05
DataValue, -0.33, -0.25, -8.0412E-05
DataValue, -0.34, -0.25, -8.5038000000000008E-05
DataValue, -0.35000000000000003, -0.25, -8.969E-05
DataValue, -0.36000000000000004, -0.25, -9.4288E-05
DataValue, -0.37, -0.25, -9.9074000000000007E-05
DataValue, -0.38, -0.25, -0.000103638
DataValue, -0.39, -0.25, -0.000108288
DataValue, -0.4, -0.25, -0.00011302
DataValue, -0.4, -0.25, -0.00011327
DataValue, -0.39, -0.25, -0.000109772
DataValue, -0.38, -0.25, -0.00010615
DataValue, -0.37, -0.25, -0.000102188
DataValue, -0.36000000000000004, -0.25, -9.8164E-05
DataValue, -0.35000000000000003, -0.25, -9.4148000000000007E-05
DataValue, -0.34, -0.25, -8.9996E-05
DataValue, -0.33, -0.25, -8.5696E-05
DataValue, -0.32, -0.25, -8.1644E-05
DataValue, -0.31, -0.25, -7.7544E-05
DataValue, -0.3, -0.25, -7.3368E-05
DataValue, -0.29000000000000004, -0.25, -6.9304E-05
DataValue, -0.28, -0.25, -6.5340000000000008E-05
DataValue, -0.27, -0.25, -6.1394E-05
DataValue, -0.26, -0.25, -5.7486000000000005E-05
DataValue, -0.25, -0.25, -5.3772E-05
DataValue, -0.24000000000000002, -0.25, -5.0182E-05
DataValue, -0.23, -0.25, -4.668E-05
DataValue, -0.22, -0.25, -4.3176E-05
DataValue, -0.21000000000000002, -0.25, -4.0008E-05
DataValue, -0.2, -0.25, -3.6954E-05
DataValue, -0.19, -0.25, -3.3934000000000004E-05
DataValue, -0.18000000000000002, -0.25, -3.1154E-05
DataValue, -0.17, -0.25, -2.855E-05
DataValue, -0.16, -0.25, -2.6016E-05
DataValue, -0.15, -0.25, -2.3656000000000002E-05
DataValue, -0.14, -0.25, -2.1456E-05
DataValue, -0.13, -0.25, -1.9426E-05
DataValue, -0.12000000000000001, -0.25, -1.7496E-05
DataValue, -0.11, -0.25, -1.5694E-05
DataValue, -0.1, -0.25, -1.408E-05
DataValue, -0.090000000000000011, -0.25, -1.259E-05
DataValue, -0.08, -0.25, -1.1124E-05
DataValue, -0.07, -0.25, -9.7901000000000014E-06
DataValue, -0.060000000000000005, -0.25, -8.5322000000000011E-06
DataValue, -0.05, -0.25, -7.5979000000000006E-06
DataValue, -0.04, -0.25, -6.6436000000000011E-06
DataValue, -0.030000000000000002, -0.25, -5.811100000000001E-06
DataValue, -0.02, -0.25, -5.1004E-06
DataValue, -0.01, -0.25, -4.3852000000000008E-06
DataValue, 0, -0.25, -3.8012000000000006E-06
DataValue, 0.01, -0.25, -3.3026000000000004E-06
DataValue, 0.02, -0.25, -2.7859000000000003E-06
DataValue, 0.030000000000000002, -0.25, -2.3911000000000003E-06
DataValue, 0.04, -0.25, -2.0633000000000002E-06
DataValue, 0.05, -0.25, -1.7045000000000002E-06
DataValue, 0.060000000000000005, -0.25, -1.4464000000000003E-06
DataValue, 0.07, -0.25, -1.2460000000000002E-06
DataValue, 0.08, -0.25, -1.0015E-06
