
SetupTitle, (c1) Output curve in LGP
PrimitiveTest, I/V Sweep
TestParameter, Context.MainFrame, B1500A
TestParameter, Channel.UnitType, SMU, SMU
TestParameter, Channel.Unit, SMU1:HR/AS, SMU2:HR/AS
TestParameter, Channel.IName, Ig, Id
TestParameter, Channel.VName, Vg, Vd
TestParameter, Channel.Mode, V, V
TestParameter, Channel.Func, VAR2, VAR1
TestParameter, Channel.Index, 
TestParameter, Channel.Time, 
TestParameter, Measurement.Port.Unit, SMU1:HR/AS, SMU2:HR/AS
TestParameter, Measurement.Port.SeriesResistor, NONE, NONE
TestParameter, Measurement.Port.Filter, ON, ON
TestParameter, Measurement.Port.OutputVoltageComparison, 0, 0
TestParameter, Measurement.Primary.Locus, Double
TestParameter, Measurement.Primary.Scale, LINEAR
TestParameter, Measurement.Primary.Start, 0.1
TestParameter, Measurement.Primary.Stop, -0.5
TestParameter, Measurement.Primary.Step, -0.012
TestParameter, Measurement.Primary.Compliance, 0.1
TestParameter, Measurement.Primary.PowerCompliance, 0
TestParameter, Measurement.Aborting.Condition, CONTINUE AT ANY
TestParameter, Measurement.PostOutput.Value, START
TestParameter, Measurement.PostOutput.Retention, OFF
TestParameter, Measurement.Secondary.Start, 0.1
TestParameter, Measurement.Secondary.Count, 6
TestParameter, Measurement.Secondary.Step, -0.1
TestParameter, Measurement.Secondary.Compliance, 0.0001
TestParameter, Measurement.Secondary.PowerCompliance, 0
TestParameter, Measurement.Bias.Source, 0.1, 0.1
TestParameter, Measurement.Bias.Compliance, 0.0001, 0.1
TestParameter, Measurement.Monitor.Unit, SMU1:HR/AS, SMU2:HR/AS
TestParameter, Measurement.Monitor.Adc, HR ADC, HR ADC
TestParameter, Measurement.Monitor.Measurement, Compliance Side, Compliance Side
TestParameter, Measurement.Monitor.RangingMode, LIMITED, LIMITED
TestParameter, Measurement.Monitor.RangeBoundary, 1nA, 1nA
TestParameter, Measurement.Monitor.RangeRating, BY FULL RANGE, BY FULL RANGE
TestParameter, Measurement.Monitor.RangeRatingCoeff, 50, 50
TestParameter, Measurement.Timing.Hold, 0
TestParameter, Measurement.Timing.Delay, 0
TestParameter, Measurement.Adc.HighSpeed.Mode, AUTO
TestParameter, Measurement.Adc.HighSpeed.Coeff, 1
TestParameter, Measurement.Adc.HighResolution.AutoZero, OFF
TestParameter, Measurement.Adc.HighResolution.Mode, AUTO
TestParameter, Measurement.Adc.HighResolution.Coeff, 6
TestParameter, Measurement.WaitTime.Source.Coeff, 1
TestParameter, Measurement.WaitTime.Source.Offset, 0
TestParameter, Measurement.WaitTime.Monitor.Coeff, 1
TestParameter, Measurement.WaitTime.Monitor.Offset, 0
TestParameter, Output.Graph.Enabled, true
TestParameter, Output.Graph.AutoScaling, false
TestParameter, Output.Graph.XAxis.Data, Vd
TestParameter, Output.Graph.XAxis.Scale, Linear
TestParameter, Output.Graph.XAxis.Left, 0
TestParameter, Output.Graph.XAxis.Right, -0.5
TestParameter, Output.Graph.XAxis.RunTimeAutoScale, true
TestParameter, Output.Graph.YAxis.Data, Id
TestParameter, Output.Graph.YAxis.Scale, Linear
TestParameter, Output.Graph.YAxis.Bottom, -0.1
TestParameter, Output.Graph.YAxis.Top, 0.1
TestParameter, Output.Graph.YAxis.Group, 
TestParameter, Output.Graph.YAxis.RunTimeAutoScale, true
TestParameter, Output.List.Data, Vd, Vg, Id
TestParameter, AutoAnalysis.Interpolation, false
TestParameter, AutoAnalysis.Var2StepCount, 1
TestParameter, AutoAnalysis.Var2StepScript, 
TestParameter, AutoAnalysis.Line1.Enabled, false
TestParameter, AutoAnalysis.Line1.Type, 1
TestParameter, AutoAnalysis.Line1.Fix, True
TestParameter, AutoAnalysis.Line1.YAxis, 0
TestParameter, AutoAnalysis.Line1.Point1.Type, 0
TestParameter, AutoAnalysis.Line1.Point1.XY.X, 
TestParameter, AutoAnalysis.Line1.Point1.XY.Y, 
TestParameter, AutoAnalysis.Line1.Point1.Data.Var, 
TestParameter, AutoAnalysis.Line1.Point1.Data.Condition, 
TestParameter, AutoAnalysis.Line1.Point1.Data.Start, false
TestParameter, AutoAnalysis.Line1.Point1.Data.StartVar, 
TestParameter, AutoAnalysis.Line1.Point1.Data.StartCondition, 
TestParameter, AutoAnalysis.Line1.Point2.Type, 0
TestParameter, AutoAnalysis.Line1.Point2.XY.X, 
TestParameter, AutoAnalysis.Line1.Point2.XY.Y, 
TestParameter, AutoAnalysis.Line1.Point2.Data.Var, 
TestParameter, AutoAnalysis.Line1.Point2.Data.Condition, 
TestParameter, AutoAnalysis.Line1.Point2.Data.Start, false
TestParameter, AutoAnalysis.Line1.Point2.Data.StartVar, 
TestParameter, AutoAnalysis.Line1.Point2.Data.StartCondition, 
TestParameter, AutoAnalysis.Line1.GradientExpr, 0
TestParameter, AutoAnalysis.Line2.Enabled, false
TestParameter, AutoAnalysis.Line2.Type, 1
TestParameter, AutoAnalysis.Line2.Fix, True
TestParameter, AutoAnalysis.Line2.YAxis, 0
TestParameter, AutoAnalysis.Line2.Point1.Type, 0
TestParameter, AutoAnalysis.Line2.Point1.XY.X, 
TestParameter, AutoAnalysis.Line2.Point1.XY.Y, 
TestParameter, AutoAnalysis.Line2.Point1.Data.Var, 
TestParameter, AutoAnalysis.Line2.Point1.Data.Condition, 
TestParameter, AutoAnalysis.Line2.Point1.Data.Start, false
TestParameter, AutoAnalysis.Line2.Point1.Data.StartVar, 
TestParameter, AutoAnalysis.Line2.Point1.Data.StartCondition, 
TestParameter, AutoAnalysis.Line2.Point2.Type, 0
TestParameter, AutoAnalysis.Line2.Point2.XY.X, 
TestParameter, AutoAnalysis.Line2.Point2.XY.Y, 
TestParameter, AutoAnalysis.Line2.Point2.Data.Var, 
TestParameter, AutoAnalysis.Line2.Point2.Data.Condition, 
TestParameter, AutoAnalysis.Line2.Point2.Data.Start, false
TestParameter, AutoAnalysis.Line2.Point2.Data.StartVar, 
TestParameter, AutoAnalysis.Line2.Point2.Data.StartCondition, 
TestParameter, AutoAnalysis.Line2.GradientExpr, 0
TestParameter, AutoAnalysis.Marker.Enabled, false
TestParameter, AutoAnalysis.Marker.Data.Var, 
TestParameter, AutoAnalysis.Marker.Data.Condition, 
TestParameter, AutoAnalysis.Marker.Data.Start, false
TestParameter, AutoAnalysis.Marker.Data.StartVar, 
TestParameter, AutoAnalysis.Marker.Data.StartCondition, 
MetaData, TestRecord.EntryPoint, true
MetaData, TestRecord.RecordTime, 12/22/2024 06:16:44
MetaData, TestRecord.TestTarget, 
MetaData, TestRecord.IterationIndex, 1
MetaData, TestRecord.Preservation, true
MetaData, TestRecord.Flag, 
MetaData, TestRecord.Remarks, 5wt-s21c1
MetaData, TestRecord.LinkKey, 2ce782bc-90a0-410b-8f5a-527e70175c60
MetaData, TestRecord.Parameters, 
Dimension1, 102, 102, 102
Dimension2, 6, 6, 6
DataName, Vd, Vg, Id
DataValue, 0.1, 0.1, 4.259E-06
DataValue, 0.088000000000000009, 0.1, 3.5056000000000004E-06
DataValue, 0.076, 0.1, 2.8008000000000004E-06
DataValue, 0.064, 0.1, 2.1363E-06
DataValue, 0.052000000000000005, 0.1, 1.6287000000000002E-06
DataValue, 0.04, 0.1, 1.1474E-06
DataValue, 0.028, 0.1, 7.5358E-07
DataValue, 0.016, 0.1, 3.502E-07
DataValue, 0.004, 0.1, 9.2059199999999988E-08
DataValue, -0.008, 0.1, -1.7324E-07
DataValue, -0.02, 0.1, -4.2862E-07
DataValue, -0.032, 0.1, -5.8314E-07
DataValue, -0.044000000000000004, 0.1, -7.1334E-07
DataValue, -0.056, 0.1, -8.7324E-07
DataValue, -0.068, 0.1, -9.745E-07
DataValue, -0.08, 0.1, -1.01532E-06
DataValue, -0.092, 0.1, -9.8926E-07
DataValue, -0.10400000000000001, 0.1, -9.9932E-07
DataValue, -0.116, 0.1, -1.01318E-06
DataValue, -0.128, 0.1, -1.03744E-06
DataValue, -0.14, 0.1, -1.0312000000000002E-06
DataValue, -0.152, 0.1, -1.0558000000000001E-06
DataValue, -0.164, 0.1, -1.0394000000000002E-06
DataValue, -0.17600000000000002, 0.1, -1.0971E-06
DataValue, -0.188, 0.1, -1.0936000000000002E-06
DataValue, -0.2, 0.1, -1.0698000000000001E-06
DataValue, -0.21200000000000002, 0.1, -1.1206000000000001E-06
DataValue, -0.224, 0.1, -1.1139E-06
DataValue, -0.23600000000000002, 0.1, -1.0871000000000002E-06
DataValue, -0.248, 0.1, -1.1286E-06
DataValue, -0.26, 0.1, -1.1421E-06
DataValue, -0.272, 0.1, -1.097E-06
DataValue, -0.28400000000000003, 0.1, -1.1305E-06
DataValue, -0.29600000000000004, 0.1, -1.1481E-06
DataValue, -0.308, 0.1, -1.1121000000000001E-06
DataValue, -0.32, 0.1, -1.1237000000000001E-06
DataValue, -0.332, 0.1, -1.1601000000000001E-06
DataValue, -0.34400000000000003, 0.1, -1.1279E-06
DataValue, -0.35600000000000004, 0.1, -1.1273000000000002E-06
DataValue, -0.368, 0.1, -1.1765E-06
DataValue, -0.38, 0.1, -1.1521000000000002E-06
DataValue, -0.392, 0.1, -1.1338E-06
DataValue, -0.404, 0.1, -1.1816E-06
DataValue, -0.41600000000000004, 0.1, -1.1801000000000001E-06
DataValue, -0.42800000000000005, 0.1, -1.1457E-06
DataValue, -0.44, 0.1, -1.1927E-06
DataValue, -0.452, 0.1, -1.1994000000000001E-06
DataValue, -0.464, 0.1, -1.1666000000000002E-06
DataValue, -0.47600000000000003, 0.1, -1.1959E-06
DataValue, -0.48800000000000004, 0.1, -1.221E-06
DataValue, -0.5, 0.1, -1.1873E-06
DataValue, -0.5, 0.1, -1.1765E-06
DataValue, -0.48800000000000004, 0.1, -1.1887000000000002E-06
DataValue, -0.47600000000000003, 0.1, -1.1532E-06
DataValue, -0.464, 0.1, -1.1277E-06
DataValue, -0.452, 0.1, -1.1421E-06
DataValue, -0.44, 0.1, -1.0854E-06
DataValue, -0.42800000000000005, 0.1, -1.0897000000000001E-06
DataValue, -0.41600000000000004, 0.1, -1.1111E-06
DataValue, -0.404, 0.1, -1.0553E-06
DataValue, -0.392, 0.1, -1.0662E-06
DataValue, -0.38, 0.1, -1.0871000000000002E-06
DataValue, -0.368, 0.1, -1.0373E-06
DataValue, -0.35600000000000004, 0.1, -1.0483000000000002E-06
DataValue, -0.34400000000000003, 0.1, -1.0732000000000002E-06
DataValue, -0.332, 0.1, -1.0183E-06
DataValue, -0.32, 0.1, -1.0305000000000001E-06
DataValue, -0.308, 0.1, -1.0526E-06
DataValue, -0.29600000000000004, 0.1, -1.0545E-06
DataValue, -0.28400000000000003, 0.1, -1.03586E-06
DataValue, -0.272, 0.1, -9.8146E-07
DataValue, -0.26, 0.1, -1.00278E-06
DataValue, -0.248, 0.1, -1.02034E-06
DataValue, -0.23600000000000002, 0.1, -9.697E-07
DataValue, -0.224, 0.1, -9.6588E-07
DataValue, -0.21200000000000002, 0.1, -9.974E-07
DataValue, -0.2, 0.1, -9.5334E-07
DataValue, -0.188, 0.1, -9.2868E-07
DataValue, -0.17600000000000002, 0.1, -9.6248E-07
DataValue, -0.164, 0.1, -9.3978E-07
DataValue, -0.152, 0.1, -8.9182E-07
DataValue, -0.14, 0.1, -9.1196E-07
DataValue, -0.128, 0.1, -8.9969999999999994E-07
DataValue, -0.116, 0.1, -8.2985999999999994E-07
DataValue, -0.10400000000000001, 0.1, -8.099E-07
DataValue, -0.092, 0.1, -8.0221999999999994E-07
DataValue, -0.08, 0.1, -7.2834E-07
DataValue, -0.068, 0.1, -6.3618E-07
DataValue, -0.056, 0.1, -5.8784E-07
DataValue, -0.044000000000000004, 0.1, -5.146E-07
DataValue, -0.032, 0.1, -3.6074E-07
DataValue, -0.02, 0.1, -2.1651999999999998E-07
DataValue, -0.008, 0.1, -7.62348E-08
DataValue, 0.004, 0.1, 1.1945999999999999E-07
DataValue, 0.016, 0.1, 3.4216E-07
DataValue, 0.028, 0.1, 6.2242E-07
DataValue, 0.04, 0.1, 1.00126E-06
DataValue, 0.052000000000000005, 0.1, 1.3934E-06
DataValue, 0.064, 0.1, 1.8738000000000002E-06
DataValue, 0.076, 0.1, 2.3766000000000003E-06
DataValue, 0.088000000000000009, 0.1, 3.0273000000000002E-06
DataValue, 0.1, 0.1, 3.7630000000000002E-06
DataValue, 0.1, 0, 1.0942E-05
DataValue, 0.088000000000000009, 0, 9.1225000000000012E-06
DataValue, 0.076, 0, 7.4506000000000011E-06
DataValue, 0.064, 0, 5.951E-06
DataValue, 0.052000000000000005, 0, 4.5169000000000007E-06
DataValue, 0.04, 0, 3.2710000000000005E-06
DataValue, 0.028, 0, 2.1755E-06
DataValue, 0.016, 0, 1.1252E-06
DataValue, 0.004, 0, 2.8176E-07
DataValue, -0.008, 0, -5.7363999999999994E-07
DataValue, -0.02, 0, -1.2435E-06
DataValue, -0.032, 0, -1.8541000000000002E-06
DataValue, -0.044000000000000004, 0, -2.3735000000000002E-06
DataValue, -0.056, 0, -2.8932E-06
DataValue, -0.068, 0, -3.2783000000000004E-06
DataValue, -0.08, 0, -3.5992E-06
DataValue, -0.092, 0, -3.9457E-06
DataValue, -0.10400000000000001, 0, -4.1695000000000005E-06
DataValue, -0.116, 0, -4.3589000000000007E-06
DataValue, -0.128, 0, -4.58E-06
DataValue, -0.14, 0, -4.7095E-06
DataValue, -0.152, 0, -4.7956E-06
DataValue, -0.164, 0, -4.9331E-06
DataValue, -0.17600000000000002, 0, -5.0209000000000005E-06
DataValue, -0.188, 0, -5.0338000000000008E-06
DataValue, -0.2, 0, -5.0898000000000008E-06
DataValue, -0.21200000000000002, 0, -5.1692E-06
DataValue, -0.224, 0, -5.1529E-06
DataValue, -0.23600000000000002, 0, -5.1733000000000009E-06
DataValue, -0.248, 0, -5.2324000000000009E-06
DataValue, -0.26, 0, -5.2292000000000007E-06
DataValue, -0.272, 0, -5.2152000000000005E-06
DataValue, -0.28400000000000003, 0, -5.2727E-06
DataValue, -0.29600000000000004, 0, -5.275E-06
DataValue, -0.308, 0, -5.2406E-06
DataValue, -0.32, 0, -5.2977E-06
DataValue, -0.332, 0, -5.3153000000000006E-06
DataValue, -0.34400000000000003, 0, -5.2645E-06
DataValue, -0.35600000000000004, 0, -5.2967000000000005E-06
DataValue, -0.368, 0, -5.3254000000000007E-06
DataValue, -0.38, 0, -5.3009E-06
DataValue, -0.392, 0, -5.3076000000000006E-06
DataValue, -0.404, 0, -5.3495E-06
DataValue, -0.41600000000000004, 0, -5.3211000000000006E-06
DataValue, -0.42800000000000005, 0, -5.3203000000000005E-06
DataValue, -0.44, 0, -5.3590000000000007E-06
DataValue, -0.452, 0, -5.3296000000000006E-06
DataValue, -0.464, 0, -5.3754E-06
DataValue, -0.47600000000000003, 0, -5.3899000000000007E-06
DataValue, -0.48800000000000004, 0, -5.3583000000000009E-06
DataValue, -0.5, 0, -5.4083E-06
DataValue, -0.5, 0, -5.4129E-06
DataValue, -0.48800000000000004, 0, -5.3417000000000009E-06
DataValue, -0.47600000000000003, 0, -5.3079000000000005E-06
DataValue, -0.464, 0, -5.3487E-06
DataValue, -0.452, 0, -5.2859000000000005E-06
DataValue, -0.44, 0, -5.2711E-06
DataValue, -0.42800000000000005, 0, -5.3098E-06
DataValue, -0.41600000000000004, 0, -5.2463000000000009E-06
DataValue, -0.404, 0, -5.2375E-06
DataValue, -0.392, 0, -5.2593000000000006E-06
DataValue, -0.38, 0, -5.2058E-06
DataValue, -0.368, 0, -5.1945000000000008E-06
DataValue, -0.35600000000000004, 0, -5.2180000000000007E-06
DataValue, -0.34400000000000003, 0, -5.1653E-06
DataValue, -0.332, 0, -5.1295000000000006E-06
DataValue, -0.32, 0, -5.1639000000000007E-06
DataValue, -0.308, 0, -5.1218000000000007E-06
DataValue, -0.29600000000000004, 0, -5.0783E-06
DataValue, -0.28400000000000003, 0, -5.1076000000000009E-06
DataValue, -0.272, 0, -5.0695E-06
DataValue, -0.26, 0, -5.0198000000000006E-06
DataValue, -0.248, 0, -5.0504000000000008E-06
DataValue, -0.23600000000000002, 0, -4.9796000000000006E-06
DataValue, -0.224, 0, -4.9388000000000009E-06
DataValue, -0.21200000000000002, 0, -4.9375000000000006E-06
DataValue, -0.2, 0, -4.8597E-06
DataValue, -0.188, 0, -4.7742000000000008E-06
DataValue, -0.17600000000000002, 0, -4.7481E-06
DataValue, -0.164, 0, -4.6685E-06
DataValue, -0.152, 0, -4.5196000000000007E-06
DataValue, -0.14, 0, -4.4269000000000008E-06
DataValue, -0.128, 0, -4.3152000000000006E-06
DataValue, -0.116, 0, -4.0954000000000006E-06
DataValue, -0.10400000000000001, 0, -3.9079E-06
DataValue, -0.092, 0, -3.7096000000000004E-06
DataValue, -0.08, 0, -3.3899000000000004E-06
DataValue, -0.068, 0, -3.0678000000000005E-06
DataValue, -0.056, 0, -2.718E-06
DataValue, -0.044000000000000004, 0, -2.2393000000000003E-06
DataValue, -0.032, 0, -1.7034E-06
DataValue, -0.02, 0, -1.1532E-06
DataValue, -0.008, 0, -4.5848E-07
DataValue, 0.004, 0, 2.8286E-07
DataValue, 0.016, 0, 1.1536E-06
DataValue, 0.028, 0, 2.2181000000000004E-06
DataValue, 0.04, 0, 3.3441000000000003E-06
DataValue, 0.052000000000000005, 0, 4.5693000000000004E-06
DataValue, 0.064, 0, 6.0101E-06
DataValue, 0.076, 0, 7.6007000000000008E-06
DataValue, 0.088000000000000009, 0, 9.2864000000000014E-06
DataValue, 0.1, 0, 1.12135E-05
DataValue, 0.1, -0.1, 2.4608000000000002E-05
DataValue, 0.088000000000000009, -0.1, 2.0876E-05
DataValue, 0.076, -0.1, 1.7394E-05
DataValue, 0.064, -0.1, 1.407E-05
DataValue, 0.052000000000000005, -0.1, 1.0944E-05
DataValue, 0.04, -0.1, 8.1069E-06
DataValue, 0.028, -0.1, 5.3840000000000005E-06
DataValue, 0.016, -0.1, 2.9548000000000005E-06
DataValue, 0.004, -0.1, 6.5648E-07
DataValue, -0.008, -0.1, -1.4016E-06
DataValue, -0.02, -0.1, -3.2633E-06
DataValue, -0.032, -0.1, -5.0422000000000006E-06
DataValue, -0.044000000000000004, -0.1, -6.6439000000000009E-06
DataValue, -0.056, -0.1, -8.0137000000000009E-06
DataValue, -0.068, -0.1, -9.3126000000000013E-06
DataValue, -0.08, -0.1, -1.04944E-05
DataValue, -0.092, -0.1, -1.1346000000000001E-05
DataValue, -0.10400000000000001, -0.1, -1.2336E-05
DataValue, -0.116, -0.1, -1.3158E-05
DataValue, -0.128, -0.1, -1.3836000000000001E-05
DataValue, -0.14, -0.1, -1.4492000000000001E-05
DataValue, -0.152, -0.1, -1.5048E-05
DataValue, -0.164, -0.1, -1.5476E-05
DataValue, -0.17600000000000002, -0.1, -1.5892E-05
DataValue, -0.188, -0.1, -1.6292E-05
DataValue, -0.2, -0.1, -1.6554E-05
DataValue, -0.21200000000000002, -0.1, -1.6776E-05
DataValue, -0.224, -0.1, -1.703E-05
DataValue, -0.23600000000000002, -0.1, -1.7208000000000002E-05
DataValue, -0.248, -0.1, -1.7314E-05
DataValue, -0.26, -0.1, -1.7460000000000002E-05
DataValue, -0.272, -0.1, -1.7594E-05
DataValue, -0.28400000000000003, -0.1, -1.7678E-05
DataValue, -0.29600000000000004, -0.1, -1.7696E-05
DataValue, -0.308, -0.1, -1.7796E-05
DataValue, -0.32, -0.1, -1.7854000000000002E-05
DataValue, -0.332, -0.1, -1.783E-05
DataValue, -0.34400000000000003, -0.1, -1.789E-05
DataValue, -0.35600000000000004, -0.1, -1.7986E-05
DataValue, -0.368, -0.1, -1.7986E-05
DataValue, -0.38, -0.1, -1.7978E-05
DataValue, -0.392, -0.1, -1.8058000000000002E-05
DataValue, -0.404, -0.1, -1.8122E-05
DataValue, -0.41600000000000004, -0.1, -1.8088E-05
DataValue, -0.42800000000000005, -0.1, -1.8156E-05
DataValue, -0.44, -0.1, -1.8212E-05
DataValue, -0.452, -0.1, -1.8184E-05
DataValue, -0.464, -0.1, -1.8188E-05
DataValue, -0.47600000000000003, -0.1, -1.8224E-05
DataValue, -0.48800000000000004, -0.1, -1.828E-05
DataValue, -0.5, -0.1, -1.8288000000000002E-05
DataValue, -0.5, -0.1, -1.8254000000000002E-05
DataValue, -0.48800000000000004, -0.1, -1.8176E-05
DataValue, -0.47600000000000003, -0.1, -1.8182E-05
DataValue, -0.464, -0.1, -1.8132000000000002E-05
DataValue, -0.452, -0.1, -1.8046E-05
DataValue, -0.44, -0.1, -1.8010000000000002E-05
DataValue, -0.42800000000000005, -0.1, -1.7974E-05
DataValue, -0.41600000000000004, -0.1, -1.7954E-05
DataValue, -0.404, -0.1, -1.7856E-05
DataValue, -0.392, -0.1, -1.7818E-05
DataValue, -0.38, -0.1, -1.7802E-05
DataValue, -0.368, -0.1, -1.7726E-05
DataValue, -0.35600000000000004, -0.1, -1.764E-05
DataValue, -0.34400000000000003, -0.1, -1.7648E-05
DataValue, -0.332, -0.1, -1.7592E-05
DataValue, -0.32, -0.1, -1.7460000000000002E-05
DataValue, -0.308, -0.1, -1.7392000000000002E-05
DataValue, -0.29600000000000004, -0.1, -1.734E-05
DataValue, -0.28400000000000003, -0.1, -1.7232E-05
DataValue, -0.272, -0.1, -1.709E-05
DataValue, -0.26, -0.1, -1.6962E-05
DataValue, -0.248, -0.1, -1.6858E-05
DataValue, -0.23600000000000002, -0.1, -1.6704E-05
DataValue, -0.224, -0.1, -1.6464E-05
DataValue, -0.21200000000000002, -0.1, -1.624E-05
DataValue, -0.2, -0.1, -1.6058E-05
DataValue, -0.188, -0.1, -1.5736E-05
DataValue, -0.17600000000000002, -0.1, -1.5346000000000002E-05
DataValue, -0.164, -0.1, -1.498E-05
DataValue, -0.152, -0.1, -1.4568E-05
DataValue, -0.14, -0.1, -1.4016000000000001E-05
DataValue, -0.128, -0.1, -1.3392E-05
DataValue, -0.116, -0.1, -1.2726E-05
DataValue, -0.10400000000000001, -0.1, -1.1988000000000001E-05
DataValue, -0.092, -0.1, -1.1086E-05
DataValue, -0.08, -0.1, -1.0068E-05
DataValue, -0.068, -0.1, -9.0673E-06
DataValue, -0.056, -0.1, -7.7606000000000016E-06
DataValue, -0.044000000000000004, -0.1, -6.4017000000000009E-06
DataValue, -0.032, -0.1, -4.898E-06
DataValue, -0.02, -0.1, -3.1567E-06
DataValue, -0.008, -0.1, -1.2851000000000002E-06
DataValue, 0.004, -0.1, 7.5074E-07
DataValue, 0.016, -0.1, 3.0204000000000003E-06
DataValue, 0.028, -0.1, 5.5023000000000007E-06
DataValue, 0.04, -0.1, 8.1653000000000013E-06
DataValue, 0.052000000000000005, -0.1, 1.1131500000000002E-05
DataValue, 0.064, -0.1, 1.4374E-05
DataValue, 0.076, -0.1, 1.7738000000000002E-05
DataValue, 0.088000000000000009, -0.1, 2.1394000000000002E-05
DataValue, 0.1, -0.1, 2.5338E-05
DataValue, 0.1, -0.2, 4.3412000000000004E-05
DataValue, 0.088000000000000009, -0.2, 3.7438E-05
DataValue, 0.076, -0.2, 3.1614E-05
DataValue, 0.064, -0.2, 2.5920000000000003E-05
DataValue, 0.052000000000000005, -0.2, 2.0532E-05
DataValue, 0.04, -0.2, 1.5404E-05
