
SetupTitle, (c2) Transfer curve in LGP
PrimitiveTest, I/V Sweep
TestParameter, Context.MainFrame, B1500A
TestParameter, Channel.UnitType, SMU, SMU
TestParameter, Channel.Unit, SMU1:HR/AS, SMU2:HR/AS
TestParameter, Channel.IName, Ig, Id
TestParameter, Channel.VName, Vg, Vd
TestParameter, Channel.Mode, V, V
TestParameter, Channel.Func, VAR1, VAR2
TestParameter, Channel.Index, 
TestParameter, Channel.Time, 
TestParameter, Measurement.Port.Unit, SMU1:HR/AS, SMU2:HR/AS
TestParameter, Measurement.Port.SeriesResistor, NONE, NONE
TestParameter, Measurement.Port.Filter, ON, ON
TestParameter, Measurement.Port.OutputVoltageComparison, 0, 0
TestParameter, Measurement.Primary.Locus, Double
TestParameter, Measurement.Primary.Scale, LINEAR
TestParameter, Measurement.Primary.Start, 0.1
TestParameter, Measurement.Primary.Stop, -0.4
TestParameter, Measurement.Primary.Step, -0.01
TestParameter, Measurement.Primary.Compliance, 0.1
TestParameter, Measurement.Primary.PowerCompliance, 1
TestParameter, Measurement.Aborting.Condition, SKIP AT ANY ABNORMAL
TestParameter, Measurement.PostOutput.Value, START
TestParameter, Measurement.PostOutput.Retention, OFF
TestParameter, Measurement.Secondary.Start, -0.25
TestParameter, Measurement.Secondary.Count, 5
TestParameter, Measurement.Secondary.Step, 0
TestParameter, Measurement.Secondary.Compliance, 0.1
TestParameter, Measurement.Secondary.PowerCompliance, 1
TestParameter, Measurement.Bias.Source, 0.1, -0.25
TestParameter, Measurement.Bias.Compliance, 0.1, 0.1
TestParameter, Measurement.Monitor.Unit, SMU1:HR/AS, SMU2:HR/AS
TestParameter, Measurement.Monitor.Adc, HR ADC, HR ADC
TestParameter, Measurement.Monitor.Measurement, Compliance Side, Compliance Side
TestParameter, Measurement.Monitor.RangingMode, LIMITED, LIMITED
TestParameter, Measurement.Monitor.RangeBoundary, 1nA, 1nA
TestParameter, Measurement.Monitor.RangeRating, BY FULL RANGE, BY FULL RANGE
TestParameter, Measurement.Monitor.RangeRatingCoeff, 50, 50
TestParameter, Measurement.Timing.Hold, 0
TestParameter, Measurement.Timing.Delay, 0
TestParameter, Measurement.Adc.HighSpeed.Mode, AUTO
TestParameter, Measurement.Adc.HighSpeed.Coeff, 1
TestParameter, Measurement.Adc.HighResolution.AutoZero, OFF
TestParameter, Measurement.Adc.HighResolution.Mode, AUTO
TestParameter, Measurement.Adc.HighResolution.Coeff, 6
TestParameter, Measurement.WaitTime.Source.Coeff, 1
TestParameter, Measurement.WaitTime.Source.Offset, 0
TestParameter, Measurement.WaitTime.Monitor.Coeff, 1
TestParameter, Measurement.WaitTime.Monitor.Offset, 0
TestParameter, Output.Graph.Enabled, true
TestParameter, Output.Graph.AutoScaling, false
TestParameter, Output.Graph.XAxis.Data, Vg
TestParameter, Output.Graph.XAxis.Scale, Linear
TestParameter, Output.Graph.XAxis.Left, 0.60000000000000009
TestParameter, Output.Graph.XAxis.Right, -0.60000000000000009
TestParameter, Output.Graph.XAxis.RunTimeAutoScale, true
TestParameter, Output.Graph.YAxis.Data, Id
TestParameter, Output.Graph.YAxis.Scale, Linear
TestParameter, Output.Graph.YAxis.Bottom, -0.1
TestParameter, Output.Graph.YAxis.Top, 0.1
TestParameter, Output.Graph.YAxis.Group, 
TestParameter, Output.Graph.YAxis.RunTimeAutoScale, true
TestParameter, Output.List.Data, Vd, Vg, Id
TestParameter, AutoAnalysis.Interpolation, false
TestParameter, AutoAnalysis.Var2StepCount, 1
TestParameter, AutoAnalysis.Var2StepScript, 
TestParameter, AutoAnalysis.Line1.Enabled, false
TestParameter, AutoAnalysis.Line1.Type, 1
TestParameter, AutoAnalysis.Line1.Fix, True
TestParameter, AutoAnalysis.Line1.YAxis, 0
TestParameter, AutoAnalysis.Line1.Point1.Type, 0
TestParameter, AutoAnalysis.Line1.Point1.XY.X, 
TestParameter, AutoAnalysis.Line1.Point1.XY.Y, 
TestParameter, AutoAnalysis.Line1.Point1.Data.Var, 
TestParameter, AutoAnalysis.Line1.Point1.Data.Condition, 
TestParameter, AutoAnalysis.Line1.Point1.Data.Start, false
TestParameter, AutoAnalysis.Line1.Point1.Data.StartVar, 
TestParameter, AutoAnalysis.Line1.Point1.Data.StartCondition, 
TestParameter, AutoAnalysis.Line1.Point2.Type, 0
TestParameter, AutoAnalysis.Line1.Point2.XY.X, 
TestParameter, AutoAnalysis.Line1.Point2.XY.Y, 
TestParameter, AutoAnalysis.Line1.Point2.Data.Var, 
TestParameter, AutoAnalysis.Line1.Point2.Data.Condition, 
TestParameter, AutoAnalysis.Line1.Point2.Data.Start, false
TestParameter, AutoAnalysis.Line1.Point2.Data.StartVar, 
TestParameter, AutoAnalysis.Line1.Point2.Data.StartCondition, 
TestParameter, AutoAnalysis.Line1.GradientExpr, 0
TestParameter, AutoAnalysis.Line2.Enabled, false
TestParameter, AutoAnalysis.Line2.Type, 1
TestParameter, AutoAnalysis.Line2.Fix, True
TestParameter, AutoAnalysis.Line2.YAxis, 0
TestParameter, AutoAnalysis.Line2.Point1.Type, 0
TestParameter, AutoAnalysis.Line2.Point1.XY.X, 
TestParameter, AutoAnalysis.Line2.Point1.XY.Y, 
TestParameter, AutoAnalysis.Line2.Point1.Data.Var, 
TestParameter, AutoAnalysis.Line2.Point1.Data.Condition, 
TestParameter, AutoAnalysis.Line2.Point1.Data.Start, false
TestParameter, AutoAnalysis.Line2.Point1.Data.StartVar, 
TestParameter, AutoAnalysis.Line2.Point1.Data.StartCondition, 
TestParameter, AutoAnalysis.Line2.Point2.Type, 0
TestParameter, AutoAnalysis.Line2.Point2.XY.X, 
TestParameter, AutoAnalysis.Line2.Point2.XY.Y, 
TestParameter, AutoAnalysis.Line2.Point2.Data.Var, 
TestParameter, AutoAnalysis.Line2.Point2.Data.Condition, 
TestParameter, AutoAnalysis.Line2.Point2.Data.Start, false
TestParameter, AutoAnalysis.Line2.Point2.Data.StartVar, 
TestParameter, AutoAnalysis.Line2.Point2.Data.StartCondition, 
TestParameter, AutoAnalysis.Line2.GradientExpr, 0
TestParameter, AutoAnalysis.Marker.Enabled, false
TestParameter, AutoAnalysis.Marker.Data.Var, 
TestParameter, AutoAnalysis.Marker.Data.Condition, 
TestParameter, AutoAnalysis.Marker.Data.Start, false
TestParameter, AutoAnalysis.Marker.Data.StartVar, 
TestParameter, AutoAnalysis.Marker.Data.StartCondition, 
MetaData, TestRecord.EntryPoint, true
MetaData, TestRecord.RecordTime, 12/22/2024 06:19:06
MetaData, TestRecord.TestTarget, 
MetaData, TestRecord.IterationIndex, 1
MetaData, TestRecord.Preservation, true
MetaData, TestRecord.Flag, 
MetaData, TestRecord.Remarks, 5wt-s21c3
MetaData, TestRecord.LinkKey, d49a466f-9286-4986-a766-979809cd47e4
MetaData, TestRecord.Parameters, 
Dimension1, 102, 102, 102
Dimension2, 5, 5, 5
DataName, Vg, Vd, Id
DataValue, 0.1, -0.25, -7.8164E-07
DataValue, 0.090000000000000011, -0.25, -9.2313999999999994E-07
DataValue, 0.08, -0.25, -1.10164E-06
DataValue, 0.07, -0.25, -1.2803E-06
DataValue, 0.060000000000000005, -0.25, -1.4351000000000002E-06
DataValue, 0.05, -0.25, -1.6749000000000003E-06
DataValue, 0.04, -0.25, -1.9731000000000002E-06
DataValue, 0.030000000000000002, -0.25, -2.2387000000000003E-06
DataValue, 0.02, -0.25, -2.6107000000000003E-06
DataValue, 0.01, -0.25, -3.0293000000000004E-06
DataValue, 0, -0.25, -3.4348000000000006E-06
DataValue, -0.01, -0.25, -3.9652000000000006E-06
DataValue, -0.02, -0.25, -4.5303000000000005E-06
DataValue, -0.030000000000000002, -0.25, -5.1039E-06
DataValue, -0.04, -0.25, -5.8038E-06
DataValue, -0.05, -0.25, -6.5960000000000009E-06
DataValue, -0.060000000000000005, -0.25, -7.3815E-06
DataValue, -0.07, -0.25, -8.3365E-06
DataValue, -0.08, -0.25, -9.3402E-06
DataValue, -0.090000000000000011, -0.25, -1.0379400000000001E-05
DataValue, -0.1, -0.25, -1.1984E-05
DataValue, -0.11, -0.25, -1.3154E-05
DataValue, -0.12000000000000001, -0.25, -1.4486E-05
DataValue, -0.13, -0.25, -1.5978000000000002E-05
DataValue, -0.14, -0.25, -1.7534000000000002E-05
DataValue, -0.15, -0.25, -1.9192000000000002E-05
DataValue, -0.16, -0.25, -2.0996E-05
DataValue, -0.17, -0.25, -2.292E-05
DataValue, -0.18000000000000002, -0.25, -2.4934000000000002E-05
DataValue, -0.19, -0.25, -2.7038E-05
DataValue, -0.2, -0.25, -2.9350000000000002E-05
DataValue, -0.21000000000000002, -0.25, -3.1782E-05
DataValue, -0.22, -0.25, -3.4246000000000004E-05
DataValue, -0.23, -0.25, -3.69E-05
DataValue, -0.24000000000000002, -0.25, -3.9724E-05
DataValue, -0.25, -0.25, -4.2538E-05
DataValue, -0.26, -0.25, -4.557E-05
DataValue, -0.27, -0.25, -4.8652E-05
DataValue, -0.28, -0.25, -5.1822E-05
DataValue, -0.29000000000000004, -0.25, -5.507E-05
DataValue, -0.3, -0.25, -5.8438000000000005E-05
DataValue, -0.31, -0.25, -6.19E-05
DataValue, -0.32, -0.25, -6.543E-05
DataValue, -0.33, -0.25, -6.8906000000000007E-05
DataValue, -0.34, -0.25, -7.2492E-05
DataValue, -0.35000000000000003, -0.25, -7.6448E-05
DataValue, -0.36000000000000004, -0.25, -8.0066E-05
DataValue, -0.37, -0.25, -8.375E-05
DataValue, -0.38, -0.25, -8.7350000000000009E-05
DataValue, -0.39, -0.25, -9.0924E-05
DataValue, -0.4, -0.25, -9.4582E-05
DataValue, -0.4, -0.25, -9.4848E-05
DataValue, -0.39, -0.25, -9.1966000000000007E-05
DataValue, -0.38, -0.25, -8.8920000000000009E-05
DataValue, -0.37, -0.25, -8.584E-05
DataValue, -0.36000000000000004, -0.25, -8.2542E-05
DataValue, -0.35000000000000003, -0.25, -7.9232E-05
DataValue, -0.34, -0.25, -7.5946000000000008E-05
DataValue, -0.33, -0.25, -7.2640000000000009E-05
DataValue, -0.32, -0.25, -6.9264E-05
DataValue, -0.31, -0.25, -6.593E-05
DataValue, -0.3, -0.25, -6.2682000000000007E-05
DataValue, -0.29000000000000004, -0.25, -5.94E-05
DataValue, -0.28, -0.25, -5.6076E-05
DataValue, -0.27, -0.25, -5.2954E-05
DataValue, -0.26, -0.25, -4.9904E-05
DataValue, -0.25, -0.25, -4.682E-05
DataValue, -0.24000000000000002, -0.25, -4.3872E-05
DataValue, -0.23, -0.25, -4.106E-05
DataValue, -0.22, -0.25, -3.8178E-05
DataValue, -0.21000000000000002, -0.25, -3.5538000000000004E-05
DataValue, -0.2, -0.25, -3.3048E-05
DataValue, -0.19, -0.25, -3.0574E-05
DataValue, -0.18000000000000002, -0.25, -2.8226E-05
DataValue, -0.17, -0.25, -2.607E-05
DataValue, -0.16, -0.25, -2.3976000000000002E-05
DataValue, -0.15, -0.25, -2.1930000000000002E-05
DataValue, -0.14, -0.25, -2.0072E-05
DataValue, -0.13, -0.25, -1.8352E-05
DataValue, -0.12000000000000001, -0.25, -1.6642E-05
DataValue, -0.11, -0.25, -1.5066000000000001E-05
DataValue, -0.1, -0.25, -1.3652E-05
DataValue, -0.090000000000000011, -0.25, -1.2308E-05
DataValue, -0.08, -0.25, -1.1014E-05
DataValue, -0.07, -0.25, -9.822400000000001E-06
DataValue, -0.060000000000000005, -0.25, -8.7658000000000017E-06
DataValue, -0.05, -0.25, -7.8154000000000014E-06
DataValue, -0.04, -0.25, -6.974600000000001E-06
DataValue, -0.030000000000000002, -0.25, -6.129400000000001E-06
DataValue, -0.02, -0.25, -5.3956000000000005E-06
DataValue, -0.01, -0.25, -4.7704E-06
DataValue, 0, -0.25, -4.1311E-06
DataValue, 0.01, -0.25, -3.5939000000000004E-06
DataValue, 0.02, -0.25, -3.1546000000000003E-06
DataValue, 0.030000000000000002, -0.25, -2.6870000000000003E-06
DataValue, 0.04, -0.25, -2.3012E-06
DataValue, 0.05, -0.25, -2.0062000000000004E-06
DataValue, 0.060000000000000005, -0.25, -1.6553000000000003E-06
DataValue, 0.07, -0.25, -1.4105E-06
DataValue, 0.08, -0.25, -1.2173000000000002E-06
DataValue, 0.090000000000000011, -0.25, -9.7612E-07
DataValue, 0.1, -0.25, -8.2928E-07
DataValue, 0.1, -0.25, -6.6454E-07
DataValue, 0.090000000000000011, -0.25, -7.3563999999999994E-07
DataValue, 0.08, -0.25, -9.0296E-07
DataValue, 0.07, -0.25, -1.0851E-06
DataValue, 0.060000000000000005, -0.25, -1.3394E-06
DataValue, 0.05, -0.25, -1.5050000000000002E-06
DataValue, 0.04, -0.25, -1.7686E-06
DataValue, 0.030000000000000002, -0.25, -2.0836000000000003E-06
DataValue, 0.02, -0.25, -2.3687000000000003E-06
DataValue, 0.01, -0.25, -2.7579000000000003E-06
DataValue, 0, -0.25, -3.2072000000000004E-06
DataValue, -0.01, -0.25, -3.6386E-06
DataValue, -0.02, -0.25, -4.1952E-06
DataValue, -0.030000000000000002, -0.25, -4.8145E-06
DataValue, -0.04, -0.25, -5.4301000000000007E-06
DataValue, -0.05, -0.25, -6.1872000000000007E-06
DataValue, -0.060000000000000005, -0.25, -7.0236000000000008E-06
DataValue, -0.07, -0.25, -7.8713E-06
DataValue, -0.08, -0.25, -8.8653000000000013E-06
DataValue, -0.090000000000000011, -0.25, -9.9582E-06
DataValue, -0.1, -0.25, -1.1089100000000002E-05
DataValue, -0.11, -0.25, -1.2908E-05
DataValue, -0.12000000000000001, -0.25, -1.4166000000000001E-05
DataValue, -0.13, -0.25, -1.5566E-05
DataValue, -0.14, -0.25, -1.7156E-05
DataValue, -0.15, -0.25, -1.8858E-05
DataValue, -0.16, -0.25, -2.0588E-05
DataValue, -0.17, -0.25, -2.2486E-05
DataValue, -0.18000000000000002, -0.25, -2.4602E-05
DataValue, -0.19, -0.25, -2.6716E-05
DataValue, -0.2, -0.25, -2.8970000000000002E-05
DataValue, -0.21000000000000002, -0.25, -3.1438E-05
DataValue, -0.22, -0.25, -3.3974000000000004E-05
DataValue, -0.23, -0.25, -3.6628E-05
DataValue, -0.24000000000000002, -0.25, -3.9370000000000004E-05
DataValue, -0.25, -0.25, -4.2284000000000004E-05
DataValue, -0.26, -0.25, -4.5282000000000005E-05
DataValue, -0.27, -0.25, -4.8320000000000005E-05
DataValue, -0.28, -0.25, -5.1546000000000004E-05
DataValue, -0.29000000000000004, -0.25, -5.492E-05
DataValue, -0.3, -0.25, -5.8208E-05
DataValue, -0.31, -0.25, -6.1646E-05
DataValue, -0.32, -0.25, -6.5254000000000009E-05
DataValue, -0.33, -0.25, -6.879E-05
DataValue, -0.34, -0.25, -7.2338E-05
DataValue, -0.35000000000000003, -0.25, -7.6072E-05
DataValue, -0.36000000000000004, -0.25, -7.9714E-05
DataValue, -0.37, -0.25, -8.3450000000000009E-05
DataValue, -0.38, -0.25, -8.7006E-05
DataValue, -0.39, -0.25, -9.0664E-05
DataValue, -0.4, -0.25, -9.4266000000000009E-05
DataValue, -0.4, -0.25, -9.4414000000000008E-05
DataValue, -0.39, -0.25, -9.1596000000000009E-05
DataValue, -0.38, -0.25, -8.8634E-05
DataValue, -0.37, -0.25, -8.5518E-05
DataValue, -0.36000000000000004, -0.25, -8.2238000000000008E-05
DataValue, -0.35000000000000003, -0.25, -7.896E-05
DataValue, -0.34, -0.25, -7.5752E-05
DataValue, -0.33, -0.25, -7.2422E-05
DataValue, -0.32, -0.25, -6.8992E-05
DataValue, -0.31, -0.25, -6.5742000000000009E-05
DataValue, -0.3, -0.25, -6.2414E-05
DataValue, -0.29000000000000004, -0.25, -5.919E-05
DataValue, -0.28, -0.25, -5.5962000000000004E-05
DataValue, -0.27, -0.25, -5.278E-05
DataValue, -0.26, -0.25, -4.9712E-05
DataValue, -0.25, -0.25, -4.6748E-05
DataValue, -0.24000000000000002, -0.25, -4.3768E-05
DataValue, -0.23, -0.25, -4.0906000000000004E-05
DataValue, -0.22, -0.25, -3.8178E-05
DataValue, -0.21000000000000002, -0.25, -3.5504000000000004E-05
DataValue, -0.2, -0.25, -3.2926E-05
DataValue, -0.19, -0.25, -3.0526E-05
DataValue, -0.18000000000000002, -0.25, -2.822E-05
DataValue, -0.17, -0.25, -2.5902E-05
DataValue, -0.16, -0.25, -2.3818E-05
DataValue, -0.15, -0.25, -2.1852E-05
DataValue, -0.14, -0.25, -1.9916E-05
DataValue, -0.13, -0.25, -1.8134E-05
DataValue, -0.12000000000000001, -0.25, -1.6524E-05
DataValue, -0.11, -0.25, -1.4934000000000001E-05
DataValue, -0.1, -0.25, -1.3486000000000001E-05
DataValue, -0.090000000000000011, -0.25, -1.221E-05
DataValue, -0.08, -0.25, -1.0962000000000001E-05
DataValue, -0.07, -0.25, -9.6859000000000016E-06
DataValue, -0.060000000000000005, -0.25, -8.6863E-06
DataValue, -0.05, -0.25, -7.6858E-06
DataValue, -0.04, -0.25, -6.8325000000000011E-06
DataValue, -0.030000000000000002, -0.25, -6.0559000000000008E-06
DataValue, -0.02, -0.25, -5.2822000000000009E-06
DataValue, -0.01, -0.25, -4.6458000000000005E-06
DataValue, 0, -0.25, -4.0788000000000007E-06
DataValue, 0.01, -0.25, -3.4950000000000004E-06
DataValue, 0.02, -0.25, -3.0479000000000005E-06
DataValue, 0.030000000000000002, -0.25, -2.6598000000000004E-06
DataValue, 0.04, -0.25, -2.2382E-06
DataValue, 0.05, -0.25, -1.9118E-06
DataValue, 0.060000000000000005, -0.25, -1.6580000000000003E-06
DataValue, 0.07, -0.25, -1.3843000000000002E-06
DataValue, 0.08, -0.25, -1.1415000000000002E-06
DataValue, 0.090000000000000011, -0.25, -9.2434E-07
DataValue, 0.1, -0.25, -7.766E-07
DataValue, 0.1, -0.25, -6.379E-07
DataValue, 0.090000000000000011, -0.25, -7.7942E-07
DataValue, 0.08, -0.25, -8.775E-07
DataValue, 0.07, -0.25, -1.03578E-06
DataValue, 0.060000000000000005, -0.25, -1.2850000000000002E-06
DataValue, 0.05, -0.25, -1.5328000000000002E-06
DataValue, 0.04, -0.25, -1.7453000000000003E-06
DataValue, 0.030000000000000002, -0.25, -2.0279E-06
DataValue, 0.02, -0.25, -2.3886000000000003E-06
DataValue, 0.01, -0.25, -2.7223E-06
DataValue, 0, -0.25, -3.1436000000000003E-06
DataValue, -0.01, -0.25, -3.6546000000000006E-06
DataValue, -0.02, -0.25, -4.1501E-06
DataValue, -0.030000000000000002, -0.25, -4.7503E-06
DataValue, -0.04, -0.25, -5.4422E-06
DataValue, -0.05, -0.25, -6.136E-06
DataValue, -0.060000000000000005, -0.25, -6.9534000000000011E-06
DataValue, -0.07, -0.25, -7.8802000000000012E-06
DataValue, -0.08, -0.25, -8.8081000000000013E-06
DataValue, -0.090000000000000011, -0.25, -9.8972E-06
DataValue, -0.1, -0.25, -1.1092500000000001E-05
DataValue, -0.11, -0.25, -1.2818E-05
DataValue, -0.12000000000000001, -0.25, -1.416E-05
DataValue, -0.13, -0.25, -1.5584000000000002E-05
DataValue, -0.14, -0.25, -1.7108E-05
DataValue, -0.15, -0.25, -1.8828E-05
DataValue, -0.16, -0.25, -2.0624E-05
DataValue, -0.17, -0.25, -2.2506E-05
DataValue, -0.18000000000000002, -0.25, -2.4582E-05
DataValue, -0.19, -0.25, -2.6784E-05
DataValue, -0.2, -0.25, -2.9028E-05
DataValue, -0.21000000000000002, -0.25, -3.151E-05
DataValue, -0.22, -0.25, -3.404E-05
DataValue, -0.23, -0.25, -3.6664E-05
DataValue, -0.24000000000000002, -0.25, -3.9388E-05
DataValue, -0.25, -0.25, -4.2282E-05
DataValue, -0.26, -0.25, -4.5322000000000004E-05
DataValue, -0.27, -0.25, -4.8426E-05
DataValue, -0.28, -0.25, -5.1580000000000004E-05
DataValue, -0.29000000000000004, -0.25, -5.4904E-05
DataValue, -0.3, -0.25, -5.8324E-05
DataValue, -0.31, -0.25, -6.171E-05
DataValue, -0.32, -0.25, -6.5244E-05
DataValue, -0.33, -0.25, -6.893E-05
DataValue, -0.34, -0.25, -7.2466000000000007E-05
DataValue, -0.35000000000000003, -0.25, -7.616E-05
DataValue, -0.36000000000000004, -0.25, -7.982E-05
DataValue, -0.37, -0.25, -8.3450000000000009E-05
DataValue, -0.38, -0.25, -8.7012E-05
DataValue, -0.39, -0.25, -9.061E-05
DataValue, -0.4, -0.25, -9.4204000000000008E-05
DataValue, -0.4, -0.25, -9.4444E-05
DataValue, -0.39, -0.25, -9.1670000000000008E-05
DataValue, -0.38, -0.25, -8.8634E-05
DataValue, -0.37, -0.25, -8.5552E-05
DataValue, -0.36000000000000004, -0.25, -8.2356000000000009E-05
DataValue, -0.35000000000000003, -0.25, -7.9052E-05
DataValue, -0.34, -0.25, -7.576E-05
DataValue, -0.33, -0.25, -7.2488E-05
DataValue, -0.32, -0.25, -6.9154000000000009E-05
DataValue, -0.31, -0.25, -6.577E-05
DataValue, -0.3, -0.25, -6.2532E-05
DataValue, -0.29000000000000004, -0.25, -5.9282E-05
DataValue, -0.28, -0.25, -5.5990000000000004E-05
DataValue, -0.27, -0.25, -5.2848E-05
DataValue, -0.26, -0.25, -4.9812000000000004E-05
DataValue, -0.25, -0.25, -4.6704E-05
DataValue, -0.24000000000000002, -0.25, -4.3756E-05
DataValue, -0.23, -0.25, -4.0904E-05
DataValue, -0.22, -0.25, -3.8166E-05
DataValue, -0.21000000000000002, -0.25, -3.548E-05
DataValue, -0.2, -0.25, -3.2936000000000004E-05
DataValue, -0.19, -0.25, -3.054E-05
DataValue, -0.18000000000000002, -0.25, -2.8186E-05
DataValue, -0.17, -0.25, -2.5878000000000002E-05
DataValue, -0.16, -0.25, -2.3816E-05
DataValue, -0.15, -0.25, -2.1858E-05
DataValue, -0.14, -0.25, -1.9920000000000002E-05
DataValue, -0.13, -0.25, -1.8138E-05
DataValue, -0.12000000000000001, -0.25, -1.6506E-05
DataValue, -0.11, -0.25, -1.4936E-05
DataValue, -0.1, -0.25, -1.3464E-05
DataValue, -0.090000000000000011, -0.25, -1.2106E-05
DataValue, -0.08, -0.25, -1.077E-05
DataValue, -0.07, -0.25, -9.6129E-06
DataValue, -0.060000000000000005, -0.25, -8.569E-06
DataValue, -0.05, -0.25, -7.6374E-06
DataValue, -0.04, -0.25, -6.804E-06
DataValue, -0.030000000000000002, -0.25, -5.9675000000000009E-06
DataValue, -0.02, -0.25, -5.2652000000000009E-06
DataValue, -0.01, -0.25, -4.6382000000000008E-06
DataValue, 0, -0.25, -4.0073000000000006E-06
DataValue, 0.01, -0.25, -3.4908000000000005E-06
DataValue, 0.02, -0.25, -3.0598000000000003E-06
DataValue, 0.030000000000000002, -0.25, -2.6178E-06
DataValue, 0.04, -0.25, -2.2233000000000004E-06
DataValue, 0.05, -0.25, -1.9364000000000002E-06
DataValue, 0.060000000000000005, -0.25, -1.6247E-06
DataValue, 0.07, -0.25, -1.3493000000000002E-06
