
SetupTitle, (c2) Transfer curve in LGP
PrimitiveTest, I/V Sweep
TestParameter, Context.MainFrame, B1500A
TestParameter, Channel.UnitType, SMU, SMU
TestParameter, Channel.Unit, SMU1:HR/AS, SMU2:HR/AS
TestParameter, Channel.IName, Ig, Id
TestParameter, Channel.VName, Vg, Vd
TestParameter, Channel.Mode, V, V
TestParameter, Channel.Func, VAR1, VAR2
TestParameter, Channel.Index, 
TestParameter, Channel.Time, 
TestParameter, Measurement.Port.Unit, SMU1:HR/AS, SMU2:HR/AS
TestParameter, Measurement.Port.SeriesResistor, NONE, NONE
TestParameter, Measurement.Port.Filter, ON, ON
TestParameter, Measurement.Port.OutputVoltageComparison, 0, 0
TestParameter, Measurement.Primary.Locus, Double
TestParameter, Measurement.Primary.Scale, LINEAR
TestParameter, Measurement.Primary.Start, 0.1
TestParameter, Measurement.Primary.Stop, -0.4
TestParameter, Measurement.Primary.Step, -0.01
TestParameter, Measurement.Primary.Compliance, 0.1
TestParameter, Measurement.Primary.PowerCompliance, 1
TestParameter, Measurement.Aborting.Condition, SKIP AT ANY ABNORMAL
TestParameter, Measurement.PostOutput.Value, START
TestParameter, Measurement.PostOutput.Retention, OFF
TestParameter, Measurement.Secondary.Start, -0.25
TestParameter, Measurement.Secondary.Count, 5
TestParameter, Measurement.Secondary.Step, 0
TestParameter, Measurement.Secondary.Compliance, 0.1
TestParameter, Measurement.Secondary.PowerCompliance, 1
TestParameter, Measurement.Bias.Source, 0.1, -0.25
TestParameter, Measurement.Bias.Compliance, 0.1, 0.1
TestParameter, Measurement.Monitor.Unit, SMU1:HR/AS, SMU2:HR/AS
TestParameter, Measurement.Monitor.Adc, HR ADC, HR ADC
TestParameter, Measurement.Monitor.Measurement, Compliance Side, Compliance Side
TestParameter, Measurement.Monitor.RangingMode, LIMITED, LIMITED
TestParameter, Measurement.Monitor.RangeBoundary, 1nA, 1nA
TestParameter, Measurement.Monitor.RangeRating, BY FULL RANGE, BY FULL RANGE
TestParameter, Measurement.Monitor.RangeRatingCoeff, 50, 50
TestParameter, Measurement.Timing.Hold, 0
TestParameter, Measurement.Timing.Delay, 0
TestParameter, Measurement.Adc.HighSpeed.Mode, AUTO
TestParameter, Measurement.Adc.HighSpeed.Coeff, 1
TestParameter, Measurement.Adc.HighResolution.AutoZero, OFF
TestParameter, Measurement.Adc.HighResolution.Mode, AUTO
TestParameter, Measurement.Adc.HighResolution.Coeff, 6
TestParameter, Measurement.WaitTime.Source.Coeff, 1
TestParameter, Measurement.WaitTime.Source.Offset, 0
TestParameter, Measurement.WaitTime.Monitor.Coeff, 1
TestParameter, Measurement.WaitTime.Monitor.Offset, 0
TestParameter, Output.Graph.Enabled, true
TestParameter, Output.Graph.AutoScaling, false
TestParameter, Output.Graph.XAxis.Data, Vg
TestParameter, Output.Graph.XAxis.Scale, Linear
TestParameter, Output.Graph.XAxis.Left, 0.60000000000000009
TestParameter, Output.Graph.XAxis.Right, -0.60000000000000009
TestParameter, Output.Graph.XAxis.RunTimeAutoScale, true
TestParameter, Output.Graph.YAxis.Data, Id
TestParameter, Output.Graph.YAxis.Scale, Linear
TestParameter, Output.Graph.YAxis.Bottom, -0.1
TestParameter, Output.Graph.YAxis.Top, 0.1
TestParameter, Output.Graph.YAxis.Group, 
TestParameter, Output.Graph.YAxis.RunTimeAutoScale, true
TestParameter, Output.List.Data, Vd, Vg, Id
TestParameter, AutoAnalysis.Interpolation, false
TestParameter, AutoAnalysis.Var2StepCount, 1
TestParameter, AutoAnalysis.Var2StepScript, 
TestParameter, AutoAnalysis.Line1.Enabled, false
TestParameter, AutoAnalysis.Line1.Type, 1
TestParameter, AutoAnalysis.Line1.Fix, True
TestParameter, AutoAnalysis.Line1.YAxis, 0
TestParameter, AutoAnalysis.Line1.Point1.Type, 0
TestParameter, AutoAnalysis.Line1.Point1.XY.X, 
TestParameter, AutoAnalysis.Line1.Point1.XY.Y, 
TestParameter, AutoAnalysis.Line1.Point1.Data.Var, 
TestParameter, AutoAnalysis.Line1.Point1.Data.Condition, 
TestParameter, AutoAnalysis.Line1.Point1.Data.Start, false
TestParameter, AutoAnalysis.Line1.Point1.Data.StartVar, 
TestParameter, AutoAnalysis.Line1.Point1.Data.StartCondition, 
TestParameter, AutoAnalysis.Line1.Point2.Type, 0
TestParameter, AutoAnalysis.Line1.Point2.XY.X, 
TestParameter, AutoAnalysis.Line1.Point2.XY.Y, 
TestParameter, AutoAnalysis.Line1.Point2.Data.Var, 
TestParameter, AutoAnalysis.Line1.Point2.Data.Condition, 
TestParameter, AutoAnalysis.Line1.Point2.Data.Start, false
TestParameter, AutoAnalysis.Line1.Point2.Data.StartVar, 
TestParameter, AutoAnalysis.Line1.Point2.Data.StartCondition, 
TestParameter, AutoAnalysis.Line1.GradientExpr, 0
TestParameter, AutoAnalysis.Line2.Enabled, false
TestParameter, AutoAnalysis.Line2.Type, 1
TestParameter, AutoAnalysis.Line2.Fix, True
TestParameter, AutoAnalysis.Line2.YAxis, 0
TestParameter, AutoAnalysis.Line2.Point1.Type, 0
TestParameter, AutoAnalysis.Line2.Point1.XY.X, 
TestParameter, AutoAnalysis.Line2.Point1.XY.Y, 
TestParameter, AutoAnalysis.Line2.Point1.Data.Var, 
TestParameter, AutoAnalysis.Line2.Point1.Data.Condition, 
TestParameter, AutoAnalysis.Line2.Point1.Data.Start, false
TestParameter, AutoAnalysis.Line2.Point1.Data.StartVar, 
TestParameter, AutoAnalysis.Line2.Point1.Data.StartCondition, 
TestParameter, AutoAnalysis.Line2.Point2.Type, 0
TestParameter, AutoAnalysis.Line2.Point2.XY.X, 
TestParameter, AutoAnalysis.Line2.Point2.XY.Y, 
TestParameter, AutoAnalysis.Line2.Point2.Data.Var, 
TestParameter, AutoAnalysis.Line2.Point2.Data.Condition, 
TestParameter, AutoAnalysis.Line2.Point2.Data.Start, false
TestParameter, AutoAnalysis.Line2.Point2.Data.StartVar, 
TestParameter, AutoAnalysis.Line2.Point2.Data.StartCondition, 
TestParameter, AutoAnalysis.Line2.GradientExpr, 0
TestParameter, AutoAnalysis.Marker.Enabled, false
TestParameter, AutoAnalysis.Marker.Data.Var, 
TestParameter, AutoAnalysis.Marker.Data.Condition, 
TestParameter, AutoAnalysis.Marker.Data.Start, false
TestParameter, AutoAnalysis.Marker.Data.StartVar, 
TestParameter, AutoAnalysis.Marker.Data.StartCondition, 
MetaData, TestRecord.EntryPoint, true
MetaData, TestRecord.RecordTime, 12/22/2024 06:19:53
MetaData, TestRecord.TestTarget, 
MetaData, TestRecord.IterationIndex, 2
MetaData, TestRecord.Preservation, true
MetaData, TestRecord.Flag, 
MetaData, TestRecord.Remarks, 5wt-s21c4
MetaData, TestRecord.LinkKey, 5613a505-e578-4367-8a40-603bcbeb03ab
MetaData, TestRecord.Parameters, 
Dimension1, 102, 102, 102
Dimension2, 5, 5, 5
DataName, Vg, Vd, Id
DataValue, 0.1, -0.25, -3.6722E-07
DataValue, 0.090000000000000011, -0.25, -4.2218E-07
DataValue, 0.08, -0.25, -4.723E-07
DataValue, 0.07, -0.25, -6.0976E-07
DataValue, 0.060000000000000005, -0.25, -7.361E-07
DataValue, 0.05, -0.25, -8.4166E-07
DataValue, 0.04, -0.25, -1.02666E-06
DataValue, 0.030000000000000002, -0.25, -1.2625000000000002E-06
DataValue, 0.02, -0.25, -1.5056000000000003E-06
DataValue, 0.01, -0.25, -1.7198000000000003E-06
DataValue, 0, -0.25, -2.0248E-06
DataValue, -0.01, -0.25, -2.3992000000000003E-06
DataValue, -0.02, -0.25, -2.7436000000000003E-06
DataValue, -0.030000000000000002, -0.25, -3.1879000000000004E-06
DataValue, -0.04, -0.25, -3.7276000000000005E-06
DataValue, -0.05, -0.25, -4.2528E-06
DataValue, -0.060000000000000005, -0.25, -4.8436000000000005E-06
DataValue, -0.07, -0.25, -5.5885000000000008E-06
DataValue, -0.08, -0.25, -6.3354E-06
DataValue, -0.090000000000000011, -0.25, -7.1842000000000006E-06
DataValue, -0.1, -0.25, -8.1687E-06
DataValue, -0.11, -0.25, -9.1763E-06
DataValue, -0.12000000000000001, -0.25, -1.02889E-05
DataValue, -0.13, -0.25, -1.1920000000000001E-05
DataValue, -0.14, -0.25, -1.3166E-05
DataValue, -0.15, -0.25, -1.4638000000000001E-05
DataValue, -0.16, -0.25, -1.6228E-05
DataValue, -0.17, -0.25, -1.7842E-05
DataValue, -0.18000000000000002, -0.25, -1.9698E-05
DataValue, -0.19, -0.25, -2.1688E-05
DataValue, -0.2, -0.25, -2.3716E-05
DataValue, -0.21000000000000002, -0.25, -2.5884E-05
DataValue, -0.22, -0.25, -2.8344000000000002E-05
DataValue, -0.23, -0.25, -3.0814E-05
DataValue, -0.24000000000000002, -0.25, -3.348E-05
DataValue, -0.25, -0.25, -3.6288E-05
DataValue, -0.26, -0.25, -3.9222E-05
DataValue, -0.27, -0.25, -4.2262E-05
DataValue, -0.28, -0.25, -4.553E-05
DataValue, -0.29000000000000004, -0.25, -4.8814000000000004E-05
DataValue, -0.3, -0.25, -5.2170000000000004E-05
DataValue, -0.31, -0.25, -5.5734E-05
DataValue, -0.32, -0.25, -5.94E-05
DataValue, -0.33, -0.25, -6.3048E-05
DataValue, -0.34, -0.25, -6.69E-05
DataValue, -0.35000000000000003, -0.25, -7.0776E-05
DataValue, -0.36000000000000004, -0.25, -7.4634E-05
DataValue, -0.37, -0.25, -7.8498E-05
DataValue, -0.38, -0.25, -8.2558E-05
DataValue, -0.39, -0.25, -8.6456E-05
DataValue, -0.4, -0.25, -9.0314E-05
DataValue, -0.4, -0.25, -9.075E-05
DataValue, -0.39, -0.25, -8.7868E-05
DataValue, -0.38, -0.25, -8.4758E-05
DataValue, -0.37, -0.25, -8.1532E-05
DataValue, -0.36000000000000004, -0.25, -7.8252000000000009E-05
DataValue, -0.35000000000000003, -0.25, -7.4838E-05
DataValue, -0.34, -0.25, -7.1388E-05
DataValue, -0.33, -0.25, -6.8086E-05
DataValue, -0.32, -0.25, -6.4616E-05
DataValue, -0.31, -0.25, -6.1180000000000007E-05
DataValue, -0.3, -0.25, -5.7826000000000005E-05
DataValue, -0.29000000000000004, -0.25, -5.4460000000000004E-05
DataValue, -0.28, -0.25, -5.1138000000000004E-05
DataValue, -0.27, -0.25, -4.7958000000000004E-05
DataValue, -0.26, -0.25, -4.479E-05
DataValue, -0.25, -0.25, -4.1784E-05
DataValue, -0.24000000000000002, -0.25, -3.8820000000000004E-05
DataValue, -0.23, -0.25, -3.6006E-05
DataValue, -0.22, -0.25, -3.3326E-05
DataValue, -0.21000000000000002, -0.25, -3.0738E-05
DataValue, -0.2, -0.25, -2.8152E-05
DataValue, -0.19, -0.25, -2.5794E-05
DataValue, -0.18000000000000002, -0.25, -2.356E-05
DataValue, -0.17, -0.25, -2.1402E-05
DataValue, -0.16, -0.25, -1.9444000000000002E-05
DataValue, -0.15, -0.25, -1.757E-05
DataValue, -0.14, -0.25, -1.5858E-05
DataValue, -0.13, -0.25, -1.4226E-05
DataValue, -0.12000000000000001, -0.25, -1.2764E-05
DataValue, -0.11, -0.25, -1.1408E-05
DataValue, -0.1, -0.25, -1.0122E-05
DataValue, -0.090000000000000011, -0.25, -8.8816000000000015E-06
DataValue, -0.08, -0.25, -7.8162000000000015E-06
DataValue, -0.07, -0.25, -6.860300000000001E-06
DataValue, -0.060000000000000005, -0.25, -6.0540000000000008E-06
DataValue, -0.05, -0.25, -5.2644000000000008E-06
DataValue, -0.04, -0.25, -4.5420000000000007E-06
DataValue, -0.030000000000000002, -0.25, -3.9551000000000005E-06
DataValue, -0.02, -0.25, -3.4102000000000004E-06
DataValue, -0.01, -0.25, -2.8842000000000003E-06
DataValue, 0, -0.25, -2.4753000000000003E-06
DataValue, 0.01, -0.25, -2.1283E-06
DataValue, 0.02, -0.25, -1.7595000000000003E-06
DataValue, 0.030000000000000002, -0.25, -1.4748E-06
DataValue, 0.04, -0.25, -1.2693E-06
DataValue, 0.05, -0.25, -1.0142000000000002E-06
DataValue, 0.060000000000000005, -0.25, -8.468E-07
DataValue, 0.07, -0.25, -6.7167999999999994E-07
DataValue, 0.08, -0.25, -5.3864E-07
DataValue, 0.090000000000000011, -0.25, -4.726E-07
DataValue, 0.1, -0.25, -3.8756E-07
DataValue, 0.1, -0.25, -2.7916E-07
DataValue, 0.090000000000000011, -0.25, -3.5674E-07
DataValue, 0.08, -0.25, -4.643E-07
DataValue, 0.07, -0.25, -5.1998E-07
DataValue, 0.060000000000000005, -0.25, -6.3282E-07
DataValue, 0.05, -0.25, -8.0898E-07
DataValue, 0.04, -0.25, -9.3874E-07
DataValue, 0.030000000000000002, -0.25, -1.10526E-06
DataValue, 0.02, -0.25, -1.4139000000000001E-06
DataValue, 0.01, -0.25, -1.6985000000000001E-06
DataValue, 0, -0.25, -1.9479E-06
DataValue, -0.01, -0.25, -2.2815E-06
DataValue, -0.02, -0.25, -2.7097E-06
DataValue, -0.030000000000000002, -0.25, -3.1072000000000005E-06
DataValue, -0.04, -0.25, -3.5971000000000003E-06
DataValue, -0.05, -0.25, -4.2070000000000005E-06
DataValue, -0.060000000000000005, -0.25, -4.7894E-06
DataValue, -0.07, -0.25, -5.4928E-06
DataValue, -0.08, -0.25, -6.324100000000001E-06
DataValue, -0.090000000000000011, -0.25, -7.1595000000000007E-06
DataValue, -0.1, -0.25, -8.1305000000000012E-06
DataValue, -0.11, -0.25, -9.2293000000000016E-06
DataValue, -0.12000000000000001, -0.25, -1.0364100000000001E-05
DataValue, -0.13, -0.25, -1.2132E-05
DataValue, -0.14, -0.25, -1.342E-05
DataValue, -0.15, -0.25, -1.4872000000000001E-05
DataValue, -0.16, -0.25, -1.6522000000000002E-05
DataValue, -0.17, -0.25, -1.8278E-05
DataValue, -0.18000000000000002, -0.25, -2.014E-05
DataValue, -0.19, -0.25, -2.2116E-05
DataValue, -0.2, -0.25, -2.4286E-05
DataValue, -0.21000000000000002, -0.25, -2.6588E-05
DataValue, -0.22, -0.25, -2.8992E-05
DataValue, -0.23, -0.25, -3.1686E-05
DataValue, -0.24000000000000002, -0.25, -3.4364E-05
DataValue, -0.25, -0.25, -3.7182000000000004E-05
DataValue, -0.26, -0.25, -4.0146E-05
DataValue, -0.27, -0.25, -4.3312E-05
DataValue, -0.28, -0.25, -4.6518000000000004E-05
DataValue, -0.29000000000000004, -0.25, -4.9922E-05
DataValue, -0.3, -0.25, -5.3366000000000004E-05
DataValue, -0.31, -0.25, -5.6904E-05
DataValue, -0.32, -0.25, -6.0596E-05
DataValue, -0.33, -0.25, -6.4298E-05
DataValue, -0.34, -0.25, -6.8072000000000008E-05
DataValue, -0.35000000000000003, -0.25, -7.1948E-05
DataValue, -0.36000000000000004, -0.25, -7.5624E-05
DataValue, -0.37, -0.25, -7.9738E-05
DataValue, -0.38, -0.25, -8.3578E-05
DataValue, -0.39, -0.25, -8.7402E-05
DataValue, -0.4, -0.25, -9.122E-05
DataValue, -0.4, -0.25, -9.1552000000000007E-05
DataValue, -0.39, -0.25, -8.857E-05
DataValue, -0.38, -0.25, -8.5468E-05
DataValue, -0.37, -0.25, -8.2134E-05
DataValue, -0.36000000000000004, -0.25, -7.8812E-05
DataValue, -0.35000000000000003, -0.25, -7.5402000000000008E-05
DataValue, -0.34, -0.25, -7.1962E-05
DataValue, -0.33, -0.25, -6.8448E-05
DataValue, -0.32, -0.25, -6.5062000000000008E-05
DataValue, -0.31, -0.25, -6.1568E-05
DataValue, -0.3, -0.25, -5.827E-05
DataValue, -0.29000000000000004, -0.25, -5.4916E-05
DataValue, -0.28, -0.25, -5.1552000000000004E-05
DataValue, -0.27, -0.25, -4.8354000000000005E-05
DataValue, -0.26, -0.25, -4.5268E-05
DataValue, -0.25, -0.25, -4.2102000000000004E-05
DataValue, -0.24000000000000002, -0.25, -3.9134E-05
DataValue, -0.23, -0.25, -3.6374E-05
DataValue, -0.22, -0.25, -3.3634000000000004E-05
DataValue, -0.21000000000000002, -0.25, -3.0968E-05
DataValue, -0.2, -0.25, -2.8426000000000002E-05
DataValue, -0.19, -0.25, -2.6078E-05
DataValue, -0.18000000000000002, -0.25, -2.3746E-05
DataValue, -0.17, -0.25, -2.159E-05
DataValue, -0.16, -0.25, -1.9636E-05
DataValue, -0.15, -0.25, -1.7744E-05
DataValue, -0.14, -0.25, -1.5976E-05
DataValue, -0.13, -0.25, -1.4390000000000001E-05
DataValue, -0.12000000000000001, -0.25, -1.2898000000000001E-05
DataValue, -0.11, -0.25, -1.1464E-05
DataValue, -0.1, -0.25, -1.0218000000000001E-05
DataValue, -0.090000000000000011, -0.25, -8.9207E-06
DataValue, -0.08, -0.25, -7.9166000000000014E-06
DataValue, -0.07, -0.25, -6.9896000000000008E-06
DataValue, -0.060000000000000005, -0.25, -6.0776000000000009E-06
DataValue, -0.05, -0.25, -5.3165000000000007E-06
DataValue, -0.04, -0.25, -4.6497000000000006E-06
DataValue, -0.030000000000000002, -0.25, -3.9651E-06
DataValue, -0.02, -0.25, -3.4239000000000004E-06
DataValue, -0.01, -0.25, -2.9455000000000004E-06
DataValue, 0, -0.25, -2.4759000000000003E-06
DataValue, 0.01, -0.25, -2.1119E-06
DataValue, 0.02, -0.25, -1.8114000000000001E-06
DataValue, 0.030000000000000002, -0.25, -1.4854000000000002E-06
DataValue, 0.04, -0.25, -1.2385E-06
DataValue, 0.05, -0.25, -1.064E-06
DataValue, 0.060000000000000005, -0.25, -8.2532E-07
DataValue, 0.07, -0.25, -7.1346E-07
DataValue, 0.08, -0.25, -5.4972E-07
DataValue, 0.090000000000000011, -0.25, -4.368E-07
DataValue, 0.1, -0.25, -3.9022E-07
DataValue, 0.1, -0.25, -3.3172E-07
DataValue, 0.090000000000000011, -0.25, -3.5178E-07
DataValue, 0.08, -0.25, -4.3932E-07
DataValue, 0.07, -0.25, -5.7086E-07
DataValue, 0.060000000000000005, -0.25, -6.5126E-07
DataValue, 0.05, -0.25, -7.8182E-07
DataValue, 0.04, -0.25, -9.8502E-07
DataValue, 0.030000000000000002, -0.25, -1.2416000000000001E-06
DataValue, 0.02, -0.25, -1.4177000000000002E-06
DataValue, 0.01, -0.25, -1.6847000000000002E-06
DataValue, 0, -0.25, -2.0094E-06
DataValue, -0.01, -0.25, -2.3099E-06
DataValue, -0.02, -0.25, -2.7164000000000004E-06
DataValue, -0.030000000000000002, -0.25, -3.198E-06
DataValue, -0.04, -0.25, -3.6564000000000003E-06
DataValue, -0.05, -0.25, -4.2403000000000007E-06
DataValue, -0.060000000000000005, -0.25, -4.9093000000000006E-06
DataValue, -0.07, -0.25, -5.5852E-06
DataValue, -0.08, -0.25, -6.4022E-06
DataValue, -0.090000000000000011, -0.25, -7.322E-06
DataValue, -0.1, -0.25, -8.2510000000000011E-06
DataValue, -0.11, -0.25, -9.3534000000000009E-06
DataValue, -0.12000000000000001, -0.25, -1.0575900000000002E-05
DataValue, -0.13, -0.25, -1.2368E-05
DataValue, -0.14, -0.25, -1.3704000000000001E-05
DataValue, -0.15, -0.25, -1.515E-05
DataValue, -0.16, -0.25, -1.684E-05
DataValue, -0.17, -0.25, -1.86E-05
DataValue, -0.18000000000000002, -0.25, -2.0470000000000002E-05
DataValue, -0.19, -0.25, -2.2502000000000002E-05
DataValue, -0.2, -0.25, -2.4710000000000002E-05
DataValue, -0.21000000000000002, -0.25, -2.7002E-05
DataValue, -0.22, -0.25, -2.9454E-05
DataValue, -0.23, -0.25, -3.2192E-05
DataValue, -0.24000000000000002, -0.25, -3.4842E-05
DataValue, -0.25, -0.25, -3.7608E-05
DataValue, -0.26, -0.25, -4.0676E-05
DataValue, -0.27, -0.25, -4.3806E-05
DataValue, -0.28, -0.25, -4.7022000000000005E-05
DataValue, -0.29000000000000004, -0.25, -5.0436E-05
DataValue, -0.3, -0.25, -5.3958E-05
DataValue, -0.31, -0.25, -5.7508E-05
DataValue, -0.32, -0.25, -6.1186E-05
DataValue, -0.33, -0.25, -6.4936E-05
DataValue, -0.34, -0.25, -6.8738E-05
DataValue, -0.35000000000000003, -0.25, -7.261E-05
DataValue, -0.36000000000000004, -0.25, -7.6428000000000008E-05
DataValue, -0.37, -0.25, -8.0402000000000007E-05
DataValue, -0.38, -0.25, -8.4336E-05
DataValue, -0.39, -0.25, -8.809E-05
DataValue, -0.4, -0.25, -9.1862000000000009E-05
DataValue, -0.4, -0.25, -9.216E-05
DataValue, -0.39, -0.25, -8.9292E-05
DataValue, -0.38, -0.25, -8.6042E-05
DataValue, -0.37, -0.25, -8.2782000000000008E-05
DataValue, -0.36000000000000004, -0.25, -7.945E-05
DataValue, -0.35000000000000003, -0.25, -7.6E-05
DataValue, -0.34, -0.25, -7.2558E-05
DataValue, -0.33, -0.25, -6.9038E-05
DataValue, -0.32, -0.25, -6.559E-05
DataValue, -0.31, -0.25, -6.2194000000000008E-05
DataValue, -0.3, -0.25, -5.8708E-05
DataValue, -0.29000000000000004, -0.25, -5.528E-05
DataValue, -0.28, -0.25, -5.21E-05
DataValue, -0.27, -0.25, -4.8830000000000005E-05
DataValue, -0.26, -0.25, -4.545E-05
DataValue, -0.25, -0.25, -4.2464E-05
DataValue, -0.24000000000000002, -0.25, -3.9432000000000005E-05
DataValue, -0.23, -0.25, -3.6658E-05
DataValue, -0.22, -0.25, -3.3926E-05
DataValue, -0.21000000000000002, -0.25, -3.1216E-05
DataValue, -0.2, -0.25, -2.8696E-05
DataValue, -0.19, -0.25, -2.6342E-05
DataValue, -0.18000000000000002, -0.25, -2.4028E-05
DataValue, -0.17, -0.25, -2.1862000000000002E-05
DataValue, -0.16, -0.25, -1.9898E-05
DataValue, -0.15, -0.25, -1.7972E-05
DataValue, -0.14, -0.25, -1.617E-05
DataValue, -0.13, -0.25, -1.4596E-05
DataValue, -0.12000000000000001, -0.25, -1.3044E-05
DataValue, -0.11, -0.25, -1.1592E-05
DataValue, -0.1, -0.25, -1.0364000000000001E-05
DataValue, -0.090000000000000011, -0.25, -9.0443E-06
DataValue, -0.08, -0.25, -8.0317000000000014E-06
DataValue, -0.07, -0.25, -7.0942000000000006E-06
DataValue, -0.060000000000000005, -0.25, -6.1767000000000005E-06
DataValue, -0.05, -0.25, -5.4001E-06
DataValue, -0.04, -0.25, -4.7154000000000006E-06
DataValue, -0.030000000000000002, -0.25, -4.0196000000000004E-06
DataValue, -0.02, -0.25, -3.5003E-06
DataValue, -0.01, -0.25, -3.0002000000000005E-06
DataValue, 0, -0.25, -2.5117000000000004E-06
DataValue, 0.01, -0.25, -2.1724E-06
DataValue, 0.02, -0.25, -1.8379000000000002E-06
DataValue, 0.030000000000000002, -0.25, -1.4976E-06
DataValue, 0.04, -0.25, -1.2818000000000002E-06
DataValue, 0.05, -0.25, -1.0680000000000002E-06
DataValue, 0.060000000000000005, -0.25, -8.7074E-07
DataValue, 0.07, -0.25, -7.059E-07
DataValue, 0.08, -0.25, -5.5372E-07
DataValue, 0.090000000000000011, -0.25, -4.8488E-07
DataValue, 0.1, -0.25, -3.9419999999999997E-07
