
SetupTitle, (c1) Output curve in LGP
PrimitiveTest, I/V Sweep
TestParameter, Context.MainFrame, B1500A
TestParameter, Channel.UnitType, SMU, SMU
TestParameter, Channel.Unit, SMU1:HR/AS, SMU2:HR/AS
TestParameter, Channel.IName, Ig, Id
TestParameter, Channel.VName, Vg, Vd
TestParameter, Channel.Mode, V, V
TestParameter, Channel.Func, VAR2, VAR1
TestParameter, Channel.Index, 
TestParameter, Channel.Time, 
TestParameter, Measurement.Port.Unit, SMU1:HR/AS, SMU2:HR/AS
TestParameter, Measurement.Port.SeriesResistor, NONE, NONE
TestParameter, Measurement.Port.Filter, ON, ON
TestParameter, Measurement.Port.OutputVoltageComparison, 0, 0
TestParameter, Measurement.Primary.Locus, Double
TestParameter, Measurement.Primary.Scale, LINEAR
TestParameter, Measurement.Primary.Start, 0.1
TestParameter, Measurement.Primary.Stop, -0.5
TestParameter, Measurement.Primary.Step, -0.012
TestParameter, Measurement.Primary.Compliance, 0.1
TestParameter, Measurement.Primary.PowerCompliance, 0
TestParameter, Measurement.Aborting.Condition, CONTINUE AT ANY
TestParameter, Measurement.PostOutput.Value, START
TestParameter, Measurement.PostOutput.Retention, OFF
TestParameter, Measurement.Secondary.Start, 0.1
TestParameter, Measurement.Secondary.Count, 6
TestParameter, Measurement.Secondary.Step, -0.1
TestParameter, Measurement.Secondary.Compliance, 0.0001
TestParameter, Measurement.Secondary.PowerCompliance, 0
TestParameter, Measurement.Bias.Source, 0.1, 0.1
TestParameter, Measurement.Bias.Compliance, 0.0001, 0.1
TestParameter, Measurement.Monitor.Unit, SMU1:HR/AS, SMU2:HR/AS
TestParameter, Measurement.Monitor.Adc, HR ADC, HR ADC
TestParameter, Measurement.Monitor.Measurement, Compliance Side, Compliance Side
TestParameter, Measurement.Monitor.RangingMode, LIMITED, LIMITED
TestParameter, Measurement.Monitor.RangeBoundary, 1nA, 1nA
TestParameter, Measurement.Monitor.RangeRating, BY FULL RANGE, BY FULL RANGE
TestParameter, Measurement.Monitor.RangeRatingCoeff, 50, 50
TestParameter, Measurement.Timing.Hold, 0
TestParameter, Measurement.Timing.Delay, 0
TestParameter, Measurement.Adc.HighSpeed.Mode, AUTO
TestParameter, Measurement.Adc.HighSpeed.Coeff, 1
TestParameter, Measurement.Adc.HighResolution.AutoZero, OFF
TestParameter, Measurement.Adc.HighResolution.Mode, AUTO
TestParameter, Measurement.Adc.HighResolution.Coeff, 6
TestParameter, Measurement.WaitTime.Source.Coeff, 1
TestParameter, Measurement.WaitTime.Source.Offset, 0
TestParameter, Measurement.WaitTime.Monitor.Coeff, 1
TestParameter, Measurement.WaitTime.Monitor.Offset, 0
TestParameter, Output.Graph.Enabled, true
TestParameter, Output.Graph.AutoScaling, false
TestParameter, Output.Graph.XAxis.Data, Vd
TestParameter, Output.Graph.XAxis.Scale, Linear
TestParameter, Output.Graph.XAxis.Left, 0
TestParameter, Output.Graph.XAxis.Right, -0.5
TestParameter, Output.Graph.XAxis.RunTimeAutoScale, true
TestParameter, Output.Graph.YAxis.Data, Id
TestParameter, Output.Graph.YAxis.Scale, Linear
TestParameter, Output.Graph.YAxis.Bottom, -0.1
TestParameter, Output.Graph.YAxis.Top, 0.1
TestParameter, Output.Graph.YAxis.Group, 
TestParameter, Output.Graph.YAxis.RunTimeAutoScale, true
TestParameter, Output.List.Data, Vd, Vg, Id
TestParameter, AutoAnalysis.Interpolation, false
TestParameter, AutoAnalysis.Var2StepCount, 1
TestParameter, AutoAnalysis.Var2StepScript, 
TestParameter, AutoAnalysis.Line1.Enabled, false
TestParameter, AutoAnalysis.Line1.Type, 1
TestParameter, AutoAnalysis.Line1.Fix, True
TestParameter, AutoAnalysis.Line1.YAxis, 0
TestParameter, AutoAnalysis.Line1.Point1.Type, 0
TestParameter, AutoAnalysis.Line1.Point1.XY.X, 
TestParameter, AutoAnalysis.Line1.Point1.XY.Y, 
TestParameter, AutoAnalysis.Line1.Point1.Data.Var, 
TestParameter, AutoAnalysis.Line1.Point1.Data.Condition, 
TestParameter, AutoAnalysis.Line1.Point1.Data.Start, false
TestParameter, AutoAnalysis.Line1.Point1.Data.StartVar, 
TestParameter, AutoAnalysis.Line1.Point1.Data.StartCondition, 
TestParameter, AutoAnalysis.Line1.Point2.Type, 0
TestParameter, AutoAnalysis.Line1.Point2.XY.X, 
TestParameter, AutoAnalysis.Line1.Point2.XY.Y, 
TestParameter, AutoAnalysis.Line1.Point2.Data.Var, 
TestParameter, AutoAnalysis.Line1.Point2.Data.Condition, 
TestParameter, AutoAnalysis.Line1.Point2.Data.Start, false
TestParameter, AutoAnalysis.Line1.Point2.Data.StartVar, 
TestParameter, AutoAnalysis.Line1.Point2.Data.StartCondition, 
TestParameter, AutoAnalysis.Line1.GradientExpr, 0
TestParameter, AutoAnalysis.Line2.Enabled, false
TestParameter, AutoAnalysis.Line2.Type, 1
TestParameter, AutoAnalysis.Line2.Fix, True
TestParameter, AutoAnalysis.Line2.YAxis, 0
TestParameter, AutoAnalysis.Line2.Point1.Type, 0
TestParameter, AutoAnalysis.Line2.Point1.XY.X, 
TestParameter, AutoAnalysis.Line2.Point1.XY.Y, 
TestParameter, AutoAnalysis.Line2.Point1.Data.Var, 
TestParameter, AutoAnalysis.Line2.Point1.Data.Condition, 
TestParameter, AutoAnalysis.Line2.Point1.Data.Start, false
TestParameter, AutoAnalysis.Line2.Point1.Data.StartVar, 
TestParameter, AutoAnalysis.Line2.Point1.Data.StartCondition, 
TestParameter, AutoAnalysis.Line2.Point2.Type, 0
TestParameter, AutoAnalysis.Line2.Point2.XY.X, 
TestParameter, AutoAnalysis.Line2.Point2.XY.Y, 
TestParameter, AutoAnalysis.Line2.Point2.Data.Var, 
TestParameter, AutoAnalysis.Line2.Point2.Data.Condition, 
TestParameter, AutoAnalysis.Line2.Point2.Data.Start, false
TestParameter, AutoAnalysis.Line2.Point2.Data.StartVar, 
TestParameter, AutoAnalysis.Line2.Point2.Data.StartCondition, 
TestParameter, AutoAnalysis.Line2.GradientExpr, 0
TestParameter, AutoAnalysis.Marker.Enabled, false
TestParameter, AutoAnalysis.Marker.Data.Var, 
TestParameter, AutoAnalysis.Marker.Data.Condition, 
TestParameter, AutoAnalysis.Marker.Data.Start, false
TestParameter, AutoAnalysis.Marker.Data.StartVar, 
TestParameter, AutoAnalysis.Marker.Data.StartCondition, 
MetaData, TestRecord.EntryPoint, true
MetaData, TestRecord.RecordTime, 12/22/2024 06:20:13
MetaData, TestRecord.TestTarget, 
MetaData, TestRecord.IterationIndex, 1
MetaData, TestRecord.Preservation, true
MetaData, TestRecord.Flag, 
MetaData, TestRecord.Remarks, 5wt-s21c4
MetaData, TestRecord.LinkKey, 490586a8-21f9-459d-9193-833bcd68018c
MetaData, TestRecord.Parameters, 
Dimension1, 102, 102, 102
Dimension2, 6, 6, 6
DataName, Vd, Vg, Id
DataValue, 0.1, 0.1, 2.3670000000000004E-06
DataValue, 0.088000000000000009, 0.1, 1.9431E-06
DataValue, 0.076, 0.1, 1.4998000000000002E-06
DataValue, 0.064, 0.1, 1.1300000000000002E-06
DataValue, 0.052000000000000005, 0.1, 8.1982E-07
DataValue, 0.04, 0.1, 5.73E-07
DataValue, 0.028, 0.1, 3.9274E-07
DataValue, 0.016, 0.1, 1.7419999999999999E-07
DataValue, 0.004, 0.1, 5.7332999999999995E-08
DataValue, -0.008, 0.1, -7.97302E-08
DataValue, -0.02, 0.1, -1.5238E-07
DataValue, -0.032, 0.1, -2.3046E-07
DataValue, -0.044000000000000004, 0.1, -3.2584E-07
DataValue, -0.056, 0.1, -3.502E-07
DataValue, -0.068, 0.1, -3.5966E-07
DataValue, -0.08, 0.1, -4.258E-07
DataValue, -0.092, 0.1, -4.4218E-07
DataValue, -0.10400000000000001, 0.1, -4.1532E-07
DataValue, -0.116, 0.1, -4.5108E-07
DataValue, -0.128, 0.1, -4.8382E-07
DataValue, -0.14, 0.1, -4.6389999999999997E-07
DataValue, -0.152, 0.1, -4.4192E-07
DataValue, -0.164, 0.1, -4.7309999999999997E-07
DataValue, -0.17600000000000002, 0.1, -4.9392E-07
DataValue, -0.188, 0.1, -4.5724E-07
DataValue, -0.2, 0.1, -4.4276E-07
DataValue, -0.21200000000000002, 0.1, -4.7838E-07
DataValue, -0.224, 0.1, -4.8913999999999994E-07
DataValue, -0.23600000000000002, 0.1, -4.5052E-07
DataValue, -0.248, 0.1, -4.3996E-07
DataValue, -0.26, 0.1, -4.7616E-07
DataValue, -0.272, 0.1, -4.7659999999999997E-07
DataValue, -0.28400000000000003, 0.1, -4.4094E-07
DataValue, -0.29600000000000004, 0.1, -4.415E-07
DataValue, -0.308, 0.1, -4.769E-07
DataValue, -0.32, 0.1, -4.7094E-07
DataValue, -0.332, 0.1, -4.3051999999999997E-07
DataValue, -0.34400000000000003, 0.1, -4.4083999999999997E-07
DataValue, -0.35600000000000004, 0.1, -4.7392E-07
DataValue, -0.368, 0.1, -4.5738E-07
DataValue, -0.38, 0.1, -4.2351999999999997E-07
DataValue, -0.392, 0.1, -4.4482E-07
DataValue, -0.404, 0.1, -4.7416E-07
DataValue, -0.41600000000000004, 0.1, -4.5366E-07
DataValue, -0.42800000000000005, 0.1, -4.2374E-07
DataValue, -0.44, 0.1, -4.5964E-07
DataValue, -0.452, 0.1, -4.3794E-07
DataValue, -0.464, 0.1, -4.2284E-07
DataValue, -0.47600000000000003, 0.1, -4.5878E-07
DataValue, -0.48800000000000004, 0.1, -4.6776E-07
DataValue, -0.5, 0.1, -4.2974E-07
DataValue, -0.5, 0.1, -4.1903999999999997E-07
DataValue, -0.48800000000000004, 0.1, -4.5344E-07
DataValue, -0.47600000000000003, 0.1, -4.5941999999999997E-07
DataValue, -0.464, 0.1, -4.2144E-07
DataValue, -0.452, 0.1, -4.1884E-07
DataValue, -0.44, 0.1, -4.6066E-07
DataValue, -0.42800000000000005, 0.1, -4.3514E-07
DataValue, -0.41600000000000004, 0.1, -4.0806E-07
DataValue, -0.404, 0.1, -4.4712E-07
DataValue, -0.392, 0.1, -4.4582E-07
DataValue, -0.38, 0.1, -4.0308E-07
DataValue, -0.368, 0.1, -4.29E-07
DataValue, -0.35600000000000004, 0.1, -4.5073999999999997E-07
DataValue, -0.34400000000000003, 0.1, -4.0689999999999997E-07
DataValue, -0.332, 0.1, -4.173E-07
DataValue, -0.32, 0.1, -4.4853999999999997E-07
DataValue, -0.308, 0.1, -4.2042E-07
DataValue, -0.29600000000000004, 0.1, -3.965E-07
DataValue, -0.28400000000000003, 0.1, -4.3654E-07
DataValue, -0.272, 0.1, -4.26E-07
DataValue, -0.26, 0.1, -3.8988E-07
DataValue, -0.248, 0.1, -4.2294E-07
DataValue, -0.23600000000000002, 0.1, -4.3322E-07
DataValue, -0.224, 0.1, -3.8942E-07
DataValue, -0.21200000000000002, 0.1, -4.0082E-07
DataValue, -0.2, 0.1, -4.3014E-07
DataValue, -0.188, 0.1, -4.0224E-07
DataValue, -0.17600000000000002, 0.1, -3.732E-07
DataValue, -0.164, 0.1, -4.0754E-07
DataValue, -0.152, 0.1, -4.0605999999999997E-07
DataValue, -0.14, 0.1, -3.5988E-07
DataValue, -0.128, 0.1, -3.7626E-07
DataValue, -0.116, 0.1, -3.9272E-07
DataValue, -0.10400000000000001, 0.1, -3.4368E-07
DataValue, -0.092, 0.1, -3.2972E-07
DataValue, -0.08, 0.1, -3.5287999999999997E-07
DataValue, -0.068, 0.1, -3.0483999999999997E-07
DataValue, -0.056, 0.1, -2.5076E-07
DataValue, -0.044000000000000004, 0.1, -2.4852E-07
DataValue, -0.032, 0.1, -2.1438E-07
DataValue, -0.02, 0.1, -1.176E-07
DataValue, -0.008, 0.1, -7.6971199999999992E-08
DataValue, 0.004, 0.1, 4.2182399999999995E-08
DataValue, 0.016, 0.1, 1.43E-07
DataValue, 0.028, 0.1, 2.7556E-07
DataValue, 0.04, 0.1, 4.9168E-07
DataValue, 0.052000000000000005, 0.1, 6.99E-07
DataValue, 0.064, 0.1, 9.1053999999999995E-07
DataValue, 0.076, 0.1, 1.2515000000000002E-06
DataValue, 0.088000000000000009, 0.1, 1.6490000000000002E-06
DataValue, 0.1, 0.1, 2.0792000000000004E-06
DataValue, 0.1, 0, 7.3099000000000009E-06
DataValue, 0.088000000000000009, 0, 6.0182E-06
DataValue, 0.076, 0, 4.8501E-06
DataValue, 0.064, 0, 3.8567000000000007E-06
DataValue, 0.052000000000000005, 0, 2.8966000000000004E-06
DataValue, 0.04, 0, 2.0612000000000003E-06
DataValue, 0.028, 0, 1.3792E-06
DataValue, 0.016, 0, 7.2272E-07
DataValue, 0.004, 0, 1.853E-07
DataValue, -0.008, 0, -3.4324E-07
DataValue, -0.02, 0, -7.4186E-07
DataValue, -0.032, 0, -1.06352E-06
DataValue, -0.044000000000000004, 0, -1.3482E-06
DataValue, -0.056, 0, -1.6266000000000002E-06
DataValue, -0.068, 0, -1.8571000000000002E-06
DataValue, -0.08, 0, -1.9913000000000003E-06
DataValue, -0.092, 0, -2.1786E-06
DataValue, -0.10400000000000001, 0, -2.2971000000000004E-06
DataValue, -0.116, 0, -2.3531000000000004E-06
DataValue, -0.128, 0, -2.4688000000000004E-06
DataValue, -0.14, 0, -2.5344000000000002E-06
DataValue, -0.152, 0, -2.5437000000000003E-06
DataValue, -0.164, 0, -2.5915E-06
DataValue, -0.17600000000000002, 0, -2.6535E-06
DataValue, -0.188, 0, -2.6477E-06
DataValue, -0.2, 0, -2.6392E-06
DataValue, -0.21200000000000002, 0, -2.6930000000000003E-06
DataValue, -0.224, 0, -2.6879E-06
DataValue, -0.23600000000000002, 0, -2.6664000000000004E-06
DataValue, -0.248, 0, -2.7090000000000002E-06
DataValue, -0.26, 0, -2.7156000000000003E-06
DataValue, -0.272, 0, -2.6815E-06
DataValue, -0.28400000000000003, 0, -2.7128E-06
DataValue, -0.29600000000000004, 0, -2.7293000000000003E-06
DataValue, -0.308, 0, -2.6924000000000003E-06
DataValue, -0.32, 0, -2.6915000000000004E-06
DataValue, -0.332, 0, -2.7404000000000005E-06
DataValue, -0.34400000000000003, 0, -2.6959000000000003E-06
DataValue, -0.35600000000000004, 0, -2.6976000000000002E-06
DataValue, -0.368, 0, -2.7287000000000002E-06
DataValue, -0.38, 0, -2.6833E-06
DataValue, -0.392, 0, -2.7154000000000003E-06
DataValue, -0.404, 0, -2.731E-06
DataValue, -0.41600000000000004, 0, -2.6826000000000004E-06
DataValue, -0.42800000000000005, 0, -2.7222000000000004E-06
DataValue, -0.44, 0, -2.7313000000000004E-06
DataValue, -0.452, 0, -2.6920000000000002E-06
DataValue, -0.464, 0, -2.7129000000000003E-06
DataValue, -0.47600000000000003, 0, -2.7362E-06
DataValue, -0.48800000000000004, 0, -2.702E-06
DataValue, -0.5, 0, -2.7008000000000005E-06
DataValue, -0.5, 0, -2.7361000000000004E-06
DataValue, -0.48800000000000004, 0, -2.7265E-06
DataValue, -0.47600000000000003, 0, -2.6817E-06
DataValue, -0.464, 0, -2.7269E-06
DataValue, -0.452, 0, -2.7244E-06
DataValue, -0.44, 0, -2.6795000000000003E-06
DataValue, -0.42800000000000005, 0, -2.7072E-06
DataValue, -0.41600000000000004, 0, -2.718E-06
DataValue, -0.404, 0, -2.6637000000000004E-06
DataValue, -0.392, 0, -2.6974000000000002E-06
DataValue, -0.38, 0, -2.7025000000000004E-06
DataValue, -0.368, 0, -2.6575000000000004E-06
DataValue, -0.35600000000000004, 0, -2.6879E-06
DataValue, -0.34400000000000003, 0, -2.6882000000000004E-06
DataValue, -0.332, 0, -2.6364000000000003E-06
DataValue, -0.32, 0, -2.6702000000000003E-06
DataValue, -0.308, 0, -2.6732E-06
DataValue, -0.29600000000000004, 0, -2.6311E-06
DataValue, -0.28400000000000003, 0, -2.6581000000000004E-06
DataValue, -0.272, 0, -2.6455000000000003E-06
DataValue, -0.26, 0, -2.6050000000000005E-06
DataValue, -0.248, 0, -2.6378000000000004E-06
DataValue, -0.23600000000000002, 0, -2.6072E-06
DataValue, -0.224, 0, -2.5734000000000002E-06
DataValue, -0.21200000000000002, 0, -2.6097E-06
DataValue, -0.2, 0, -2.5665000000000003E-06
DataValue, -0.188, 0, -2.5302000000000004E-06
DataValue, -0.17600000000000002, 0, -2.5462000000000003E-06
DataValue, -0.164, 0, -2.4722000000000002E-06
DataValue, -0.152, 0, -2.4378E-06
DataValue, -0.14, 0, -2.4264E-06
DataValue, -0.128, 0, -2.3206000000000003E-06
DataValue, -0.116, 0, -2.2519000000000004E-06
DataValue, -0.10400000000000001, 0, -2.1947000000000003E-06
DataValue, -0.092, 0, -2.0432E-06
DataValue, -0.08, 0, -1.9115000000000002E-06
DataValue, -0.068, 0, -1.7846000000000002E-06
DataValue, -0.056, 0, -1.5531000000000002E-06
DataValue, -0.044000000000000004, 0, -1.2956000000000001E-06
DataValue, -0.032, 0, -1.0555E-06
DataValue, -0.02, 0, -6.9296E-07
DataValue, -0.008, 0, -3.2631999999999997E-07
DataValue, 0.004, 0, 1.7724E-07
DataValue, 0.016, 0, 7.1092E-07
DataValue, 0.028, 0, 1.3496000000000002E-06
DataValue, 0.04, 0, 2.0351000000000002E-06
DataValue, 0.052000000000000005, 0, 2.8889000000000004E-06
DataValue, 0.064, 0, 3.8209E-06
DataValue, 0.076, 0, 4.8358E-06
DataValue, 0.088000000000000009, 0, 6.0231000000000008E-06
DataValue, 0.1, 0, 7.3847000000000006E-06
DataValue, 0.1, -0.1, 1.8282000000000002E-05
DataValue, 0.088000000000000009, -0.1, 1.5414000000000002E-05
DataValue, 0.076, -0.1, 1.2708000000000001E-05
DataValue, 0.064, -0.1, 1.0266E-05
DataValue, 0.052000000000000005, -0.1, 7.9109E-06
DataValue, 0.04, -0.1, 5.8289E-06
DataValue, 0.028, -0.1, 3.902E-06
DataValue, 0.016, -0.1, 2.0773E-06
DataValue, 0.004, -0.1, 5.008E-07
DataValue, -0.008, -0.1, -9.9602E-07
DataValue, -0.02, -0.1, -2.2973000000000004E-06
DataValue, -0.032, -0.1, -3.4325E-06
DataValue, -0.044000000000000004, -0.1, -4.4990000000000005E-06
DataValue, -0.056, -0.1, -5.4739E-06
DataValue, -0.068, -0.1, -6.2557000000000009E-06
DataValue, -0.08, -0.1, -6.9913E-06
DataValue, -0.092, -0.1, -7.6534E-06
DataValue, -0.10400000000000001, -0.1, -8.1586E-06
DataValue, -0.116, -0.1, -8.6391000000000017E-06
DataValue, -0.128, -0.1, -9.0787000000000017E-06
DataValue, -0.14, -0.1, -9.3776000000000015E-06
DataValue, -0.152, -0.1, -9.6811000000000012E-06
DataValue, -0.164, -0.1, -9.9548000000000017E-06
DataValue, -0.17600000000000002, -0.1, -1.0116900000000001E-05
DataValue, -0.188, -0.1, -1.0286900000000001E-05
DataValue, -0.2, -0.1, -1.04595E-05
DataValue, -0.21200000000000002, -0.1, -1.0515600000000001E-05
DataValue, -0.224, -0.1, -1.0635400000000002E-05
DataValue, -0.23600000000000002, -0.1, -1.0719600000000002E-05
DataValue, -0.248, -0.1, -1.0729000000000002E-05
DataValue, -0.26, -0.1, -1.0777E-05
DataValue, -0.272, -0.1, -1.0851600000000001E-05
DataValue, -0.28400000000000003, -0.1, -1.08212E-05
DataValue, -0.29600000000000004, -0.1, -1.0874000000000001E-05
DataValue, -0.308, -0.1, -1.0923300000000001E-05
DataValue, -0.32, -0.1, -1.0885500000000001E-05
DataValue, -0.332, -0.1, -1.0908600000000001E-05
DataValue, -0.34400000000000003, -0.1, -1.0957300000000001E-05
DataValue, -0.35600000000000004, -0.1, -1.0928800000000001E-05
DataValue, -0.368, -0.1, -1.0953700000000002E-05
DataValue, -0.38, -0.1, -1.0992100000000001E-05
DataValue, -0.392, -0.1, -1.0958400000000002E-05
DataValue, -0.404, -0.1, -1.0982400000000002E-05
DataValue, -0.41600000000000004, -0.1, -1.0993200000000002E-05
DataValue, -0.42800000000000005, -0.1, -1.0959600000000001E-05
DataValue, -0.44, -0.1, -1.0998E-05
DataValue, -0.452, -0.1, -1.10366E-05
DataValue, -0.464, -0.1, -1.09964E-05
DataValue, -0.47600000000000003, -0.1, -1.10028E-05
DataValue, -0.48800000000000004, -0.1, -1.10259E-05
DataValue, -0.5, -0.1, -1.0970400000000001E-05
DataValue, -0.5, -0.1, -1.0973800000000002E-05
DataValue, -0.48800000000000004, -0.1, -1.1019900000000001E-05
DataValue, -0.47600000000000003, -0.1, -1.09687E-05
DataValue, -0.464, -0.1, -1.0918700000000001E-05
DataValue, -0.452, -0.1, -1.0957500000000001E-05
DataValue, -0.44, -0.1, -1.09393E-05
DataValue, -0.42800000000000005, -0.1, -1.0901000000000001E-05
DataValue, -0.41600000000000004, -0.1, -1.08892E-05
DataValue, -0.404, -0.1, -1.0894000000000001E-05
DataValue, -0.392, -0.1, -1.08397E-05
DataValue, -0.38, -0.1, -1.08127E-05
DataValue, -0.368, -0.1, -1.08465E-05
DataValue, -0.35600000000000004, -0.1, -1.0784E-05
DataValue, -0.34400000000000003, -0.1, -1.0769000000000001E-05
DataValue, -0.332, -0.1, -1.0787700000000002E-05
DataValue, -0.32, -0.1, -1.0744300000000002E-05
DataValue, -0.308, -0.1, -1.0673900000000001E-05
DataValue, -0.29600000000000004, -0.1, -1.0665300000000001E-05
DataValue, -0.28400000000000003, -0.1, -1.0657200000000002E-05
DataValue, -0.272, -0.1, -1.05484E-05
DataValue, -0.26, -0.1, -1.05406E-05
DataValue, -0.248, -0.1, -1.0487900000000002E-05
DataValue, -0.23600000000000002, -0.1, -1.0379500000000001E-05
DataValue, -0.224, -0.1, -1.0315E-05
DataValue, -0.21200000000000002, -0.1, -1.0217900000000001E-05
DataValue, -0.2, -0.1, -1.0062200000000002E-05
DataValue, -0.188, -0.1, -9.9248E-06
DataValue, -0.17600000000000002, -0.1, -9.7902000000000016E-06
DataValue, -0.164, -0.1, -9.5471E-06
DataValue, -0.152, -0.1, -9.2956000000000013E-06
DataValue, -0.14, -0.1, -9.0514000000000011E-06
DataValue, -0.128, -0.1, -8.7017E-06
DataValue, -0.116, -0.1, -8.2845E-06
DataValue, -0.10400000000000001, -0.1, -7.8853E-06
DataValue, -0.092, -0.1, -7.3465000000000007E-06
DataValue, -0.08, -0.1, -6.704600000000001E-06
DataValue, -0.068, -0.1, -6.0579000000000009E-06
DataValue, -0.056, -0.1, -5.2726E-06
DataValue, -0.044000000000000004, -0.1, -4.3346000000000008E-06
DataValue, -0.032, -0.1, -3.3462000000000003E-06
DataValue, -0.02, -0.1, -2.2393000000000003E-06
DataValue, -0.008, -0.1, -9.5906E-07
DataValue, 0.004, -0.1, 4.7358E-07
DataValue, 0.016, -0.1, 2.0914E-06
DataValue, 0.028, -0.1, 3.8898000000000004E-06
DataValue, 0.04, -0.1, 5.7926E-06
DataValue, 0.052000000000000005, -0.1, 7.9193E-06
DataValue, 0.064, -0.1, 1.0285200000000001E-05
DataValue, 0.076, -0.1, 1.2936000000000001E-05
DataValue, 0.088000000000000009, -0.1, 1.568E-05
