
SetupTitle, (b1)Benchmark Transient response
ApplicationTest, WGFMU Pattern Editor, Public
TestParameter, Name, ExecutionMode, Enable1, Channel1, OperationMode1, VForceRange1, InitMeasRange1, Enable2, Channel2, OperationMode2, VForceRange2, InitMeasRange2, RepeatCount, WaveformCh1, WaveformCh2, MeasurementEvent, Output_to_File_for_PatternValidation, Output_Enable, Output_Filename, DataDisplay_for_RunVector, DataDisplay_PatternValidation, DataDisplay_Mode, LogToFile, LogFile, WarningLevel, IForceRange1, IForceRange2, Result_Update_Interval_s
TestParameter, Value, Run Vector, Enable, WGFMU1:RS	RSWGFMU, Fast IV Vmeas, Auto, 5V (Vmeas), Enable, WGFMU2:RS	RSWGFMU, Fast IV Imeas, Auto, 10mA (Imeas), 1, , Disable, C:\WGFMUPatternEditor_Pattern.csv, , Disable, x(time)_y(meas), Disable, C:\WGFMUPatternEditor_Log.log, 2, 10mA, 10mA, 10
MetaData, TestRecord.EntryPoint, true
MetaData, TestRecord.RecordTime, 11/20/2024 02:16:09
MetaData, TestRecord.TestTarget, 
MetaData, TestRecord.IterationIndex, 15
MetaData, TestRecord.Preservation, true
MetaData, TestRecord.Flag, 
MetaData, TestRecord.Remarks, s20c6_0.2v
MetaData, TestRecord.LinkKey, 6b4e4eb5-9c98-425c-8bc5-a1c29de58600
MetaData, TestRecord.Parameters, 
Dimension1, 1250, 1250, 1250, 1250, 1250
Dimension2, 1, 1, 1, 1, 1
DataName, Time, MeasResult1_value, MeasResult2_value, MeasResult1_time, MeasResult2_time
DataValue, 0.30025, 0.000710152380634, -0.000113581882033, 0.30025, 0.30025
DataValue, 0.30075, 0.00071157614002, -0.00011357969924600002, 0.30075, 0.30075
DataValue, 0.30125, 0.000670067907777, -0.00011342103243800001, 0.30125, 0.30125
DataValue, 0.30175, 0.000589391391259, -0.000113315836643, 0.30175, 0.30175
DataValue, 0.30225, 0.00063483271515000009, -0.00011353263835200001, 0.30225, 0.30225
DataValue, 0.30275, 0.00064019660931100009, -0.000113402631541, 0.30275, 0.30275
DataValue, 0.30325, 0.000630434486084, -0.00011354768503200001, 0.30325, 0.30325
DataValue, 0.30375, 0.000592725293245, -0.00011347521649400001, 0.30375, 0.30375
DataValue, 0.30425, 0.000580031075515, -0.000113516667625, 0.30425, 0.30425
DataValue, 0.30475, 0.00068941584322600006, -0.00011342491779900001, 0.30475, 0.30475
DataValue, 0.30525, 0.000601204577833, -0.00011340457422200001, 0.30525, 0.30525
DataValue, 0.30575, 0.000655505806208, -0.00011351378634600002, 0.30575, 0.30575
DataValue, 0.30625, 0.000709468673449, -0.00011343753431, 0.30625, 0.30625
DataValue, 0.30675, 0.00067975244019200009, -0.00011311822891000002, 0.30675, 0.30675
DataValue, 0.30725, 0.000502589798998, -0.000113313566544, 0.30725, 0.30725
DataValue, 0.30775, 0.000612940231804, -0.000113308844448, 0.30775, 0.30775
DataValue, 0.30825, 0.00054753071162800008, -0.000113523856271, 0.30825, 0.30825
DataValue, 0.30875, 0.000589504197706, -0.00011345739767400001, 0.30875, 0.30875
DataValue, 0.30925, 0.00058330857427800009, -0.00011323694343400002, 0.30925, 0.30925
DataValue, 0.30975, 0.00060916930669900008, -0.00011328166147, 0.30975, 0.30975
DataValue, 0.31025, 0.000537557119969, -0.00011310000991200001, 0.31025, 0.31025
DataValue, 0.31075, 0.00048708324902700006, -0.00011317054304500002, 0.31075, 0.31075
DataValue, 0.31125, 0.00056966987904200008, -0.00011312864080500001, 0.31125, 0.31125
DataValue, 0.31175, 0.00043508686940200005, -0.000112825946417, 0.31175, 0.31175
DataValue, 0.31225, 0.00056095799664000008, -0.000113285757834, 0.31225, 0.31225
DataValue, 0.31275000000000003, 0.000516489322763, -0.00011343196820200001, 0.31275000000000003, 0.31275000000000003
DataValue, 0.31325000000000003, 0.00055415625684, -0.00011321798956500001, 0.31325000000000003, 0.31325000000000003
DataValue, 0.31375000000000003, 0.000427967956057, -0.00011318598262700001, 0.31375000000000003, 0.31375000000000003
DataValue, 0.31425000000000003, 0.00054761528736, -0.00011326327512500002, 0.31425000000000003, 0.31425000000000003
DataValue, 0.31475000000000003, 0.00070985633647100007, -0.00011331192945400001, 0.31475000000000003, 0.31475000000000003
DataValue, 0.31525000000000003, 0.00055431836517500009, -0.00011313331197, 0.31525000000000003, 0.31525000000000003
DataValue, 0.31575000000000003, 0.000484996911837, -0.000113141657494, 0.31575000000000003, 0.31575000000000003
DataValue, 0.31625000000000003, 0.000530818826519, -0.00011321774945800001, 0.31625000000000003, 0.31625000000000003
DataValue, 0.31675000000000003, 0.00060494028730300007, -0.00011333736620100001, 0.31675000000000003, 0.31675000000000003
DataValue, 0.31725000000000003, 0.00067799736280000006, -0.00011312183050900001, 0.31725000000000003, 0.31725000000000003
DataValue, 0.31775000000000003, 0.000636735814624, -0.00011350877321100001, 0.31775000000000003, 0.31775000000000003
DataValue, 0.31825000000000003, 0.00067149871029000008, -0.00011352984438400001, 0.31825000000000003, 0.31825000000000003
DataValue, 0.31875000000000003, 0.0006437137490140001, -0.00011350713612, 0.31875000000000003, 0.31875000000000003
DataValue, 0.31925000000000003, 0.000660256424453, -0.000113332709589, 0.31925000000000003, 0.31925000000000003
DataValue, 0.31975000000000003, 0.000638173660263, -0.00011356071627200001, 0.31975000000000003, 0.31975000000000003
DataValue, 0.32025000000000003, 0.000674360373523, -0.00011348634143400001, 0.32025000000000003, 0.32025000000000003
DataValue, 0.32075000000000004, 0.00060333323199300007, -0.000113496003905, 0.32075000000000004, 0.32075000000000004
DataValue, 0.32125000000000004, 0.00056017562747, -0.00011347447434700001, 0.32125000000000004, 0.32125000000000004
DataValue, 0.32175000000000004, 0.000599442457315, -0.00011350247950800001, 0.32175000000000004, 0.32175000000000004
DataValue, 0.32225000000000004, 0.00070410483749600006, -0.000113578164019, 0.32225000000000004, 0.32225000000000004
DataValue, 0.32275000000000004, 0.000574187899474, -0.00011351496505100001, 0.32275000000000004, 0.32275000000000004
DataValue, 0.32325000000000004, 0.000538325402886, -0.00011359115160300001, 0.32325000000000004, 0.32325000000000004
DataValue, 0.32375000000000004, 0.00055209104903, -0.00011339965567500002, 0.32375000000000004, 0.32375000000000004
DataValue, 0.32425000000000004, 0.000621299725026, -0.00011339442426100001, 0.32425000000000004, 0.32425000000000004
DataValue, 0.32475000000000004, 0.00061243277741600006, -0.00011338104377500001, 0.32475000000000004, 0.32475000000000004
DataValue, 0.32525000000000004, 0.000547756266315, -0.000113504363981, 0.32525000000000004, 0.32525000000000004
DataValue, 0.32575000000000004, 0.000605757872108, -0.000113644338853, 0.32575000000000004, 0.32575000000000004
DataValue, 0.32625000000000004, 0.00061658432241500007, -0.00011363877274600001, 0.32625000000000004, 0.32625000000000004
DataValue, 0.32675000000000004, 0.000520929868799, -0.00011354857997500001, 0.32675000000000004, 0.32675000000000004
DataValue, 0.32725000000000004, 0.000550357101019, -0.000113695874461, 0.32725000000000004, 0.32725000000000004
DataValue, 0.32775000000000004, 0.00060135964304200006, -0.00011373213055800001, 0.32775000000000004, 0.32775000000000004
DataValue, 0.32825000000000004, 0.000517130771186, -0.00011350151180500002, 0.32825000000000004, 0.32825000000000004
DataValue, 0.32875000000000004, 0.000565898953937, -0.000113211332064, 0.32875000000000004, 0.32875000000000004
DataValue, 0.32925000000000004, 0.00058426015311900008, -0.00011334747250700001, 0.32925000000000004, 0.32925000000000004
DataValue, 0.32975000000000004, 0.000560697168112, -0.00011360718781400001, 0.32975000000000004, 0.32975000000000004
DataValue, 0.33025000000000004, 0.00059374026022900007, -0.00011330186680400002, 0.33025000000000004, 0.33025000000000004
DataValue, 0.33075000000000004, 0.00061948120128400006, -0.000113609581604, 0.33075000000000004, 0.33075000000000004
DataValue, 0.33125000000000004, 0.000532764184754, -0.00011332718713700001, 0.33125000000000004, 0.33125000000000004
DataValue, 0.33175000000000004, 0.00053773337276700008, -0.00011341470235500002, 0.33175000000000004, 0.33175000000000004
DataValue, 0.33225000000000005, 0.000610043352935, -0.000113133661216, 0.33225000000000005, 0.33225000000000005
DataValue, 0.33275000000000005, 0.000559061940294, -0.00011318689212200001, 0.33275000000000005, 0.33275000000000005
DataValue, 0.33325000000000005, 0.00048981100553600009, -0.00011317931057400001, 0.33325000000000005, 0.33325000000000005
DataValue, 0.33375000000000005, 0.00052978273015500006, -0.000113322108518, 0.33375000000000005, 0.33375000000000005
DataValue, 0.33425000000000005, 0.000553211721126, -0.000113092050015, 0.33425000000000005, 0.33425000000000005
DataValue, 0.33475000000000005, 0.000537162413821, -0.00011327456013500002, 0.33475000000000005, 0.33475000000000005
DataValue, 0.33525000000000005, 0.00058781960979100009, -0.000113336776849, 0.33525000000000005, 0.33525000000000005
DataValue, 0.33575000000000005, 0.000553141231649, -0.000113039815915, 0.33575000000000005, 0.33575000000000005
DataValue, 0.33625, 0.00050440832274, -0.00011296600132500001, 0.33625, 0.33625
DataValue, 0.33675, 0.000534427643288, -0.00011294198338900001, 0.33675, 0.33675
DataValue, 0.33725, 0.000547587056644, -0.00011275300494200001, 0.33725, 0.33725
DataValue, 0.33775, 0.00062710762722400007, -0.00011258111044300001, 0.33775, 0.33775
DataValue, 0.33825, 0.00058736850041900008, -0.00011297022865600002, 0.33825, 0.33825
DataValue, 0.33875, 0.00062796752899900009, -0.00011303187056900001, 0.33875, 0.33875
DataValue, 0.33925, 0.000558350060601, -0.00011329954577400001, 0.33925, 0.33925
DataValue, 0.33975, 0.00062937720213100006, -0.00011325188097500001, 0.33975, 0.33975
DataValue, 0.34025, 0.000645912892651, -0.00011318552424200001, 0.34025, 0.34025
DataValue, 0.34075, 0.000641408900265, -0.00011344439553800001, 0.34075, 0.34075
DataValue, 0.34125, 0.0006527780788020001, -0.00011340077617200001, 0.34125, 0.34125
DataValue, 0.34175, 0.000673359492794, -0.00011333871953000001, 0.34175, 0.34175
DataValue, 0.34225, 0.000598547339905, -0.000113337489893, 0.34225, 0.34225
DataValue, 0.34275, 0.0006079781451260001, -0.00011336951138200001, 0.34275, 0.34275
DataValue, 0.34325, 0.000664950697683, -0.00011327608081000001, 0.34325, 0.34325
DataValue, 0.34375, 0.00055016682017600008, -0.00011334813461900002, 0.34375, 0.34375
DataValue, 0.34425, 0.00064161332557000007, -0.00011339459160800001, 0.34425, 0.34425
DataValue, 0.34475, 0.00059977377532100006, -0.00011315700976400001, 0.34475, 0.34475
DataValue, 0.34525, 0.00060939486138500009, -0.00011333212023600001, 0.34525, 0.34525
DataValue, 0.34575, 0.000611149938777, -0.00011333982547500001, 0.34575, 0.34575
DataValue, 0.34625, 0.000527174794115, -0.00011322134378100001, 0.34625, 0.34625
DataValue, 0.34675, 0.00046812999062200003, -0.00011339729098800001, 0.34675, 0.34675
DataValue, 0.34725, 0.000623787811492, -0.00011342429206700001, 0.34725, 0.34725
DataValue, 0.34775, 0.00054330163402500008, -0.000113364752906, 0.34775, 0.34775
DataValue, 0.34825, 0.000561127148103, -0.00011314429866600001, 0.34825, 0.34825
DataValue, 0.34875, 0.00047423393698400006, -0.00011289454414500001, 0.34875, 0.34875
DataValue, 0.34925, 0.000602868036367, -0.000113060479634, 0.34925, 0.34925
DataValue, 0.34975, 0.00060706888325500006, -0.00011312093556600001, 0.34975, 0.34975
DataValue, 0.35025, 0.000513775681611, -0.00011296023149000001, 0.35025, 0.35025
DataValue, 0.35075, 0.000553232908715, -0.00011275035649300001, 0.35075, 0.35075
DataValue, 0.35125, 0.000558364146855, -0.000112608315249, 0.35125, 0.35125
DataValue, 0.35175, 0.000603001972195, -0.00011267502850400001, 0.35175, 0.35175
DataValue, 0.35225, 0.00059618608793200007, -0.000112692840048, 0.35225, 0.35225
DataValue, 0.35275, 0.000541278743185, -0.000112815039756, 0.35275, 0.35275
DataValue, 0.35325, 0.000518300803378, -0.000113019865239, 0.35325, 0.35325
DataValue, 0.35375, 0.0005423782859, -0.000112840993097, 0.35375, 0.35375
DataValue, 0.35425, 0.00047733524115800005, -0.000112707675726, 0.35425, 0.35425
DataValue, 0.35475, 0.000523911381606, -0.00011288996756800001, 0.35475, 0.35475
DataValue, 0.35525, 0.000545909570064, -0.00011299536709000001, 0.35525, 0.35525
DataValue, 0.35575, 0.000532644393388, -0.00011312738206500002, 0.35575, 0.35575
DataValue, 0.35625, 0.00051464972784700006, -0.000113094749395, 0.35625, 0.35625
DataValue, 0.35675, 0.00055078708101100006, -0.000113196649181, 0.35675, 0.35675
DataValue, 0.35725, 0.00066882738610700009, -0.00011305803491300001, 0.35725, 0.35725
DataValue, 0.35775, 0.00056783022591800009, -0.000113063739263, 0.35775, 0.35775
DataValue, 0.35825, 0.00054233596893, -0.00011295179865600001, 0.35825, 0.35825
DataValue, 0.35875, 0.0006822969298810001, -0.000112686808279, 0.35875, 0.35875
DataValue, 0.35925, 0.000757877365686, -0.00011295062722600002, 0.35925, 0.35925
DataValue, 0.35975, 0.00062079221243, -0.00011300308688100001, 0.35975, 0.35975
DataValue, 0.36025, 0.00074438669253100009, -0.00011301328049700001, 0.36025, 0.36025
DataValue, 0.36075, 0.000714733847417, -0.00011308989633100001, 0.36075, 0.36075
DataValue, 0.36125, 0.00071997084887700006, -0.000113149086246, 0.36125, 0.36125
DataValue, 0.36175, 0.00069262995384600007, -0.00011311759590200001, 0.36175, 0.36175
DataValue, 0.36225, 0.00073059991700600007, -0.00011316619929900001, 0.36225, 0.36225
DataValue, 0.36275, 0.0007082211086530001, -0.00011321352940300001, 0.36275, 0.36275
DataValue, 0.36325, 0.000681465200614, -0.000113106274512, 0.36325, 0.36325
DataValue, 0.36375, 0.00064429175108700006, -0.00011296402954000002, 0.36375, 0.36375
DataValue, 0.36425, 0.000664837949444, -0.00011285141954400001, 0.36425, 0.36425
DataValue, 0.36475, 0.000768499390688, -0.000113012887596, 0.36475, 0.36475
DataValue, 0.36525, 0.000652961316518, -0.000113019501441, 0.36525, 0.36525
DataValue, 0.36575, 0.000624450331088, -0.000112938767415, 0.36575, 0.36575
DataValue, 0.36625, 0.000619016005658, -0.00011288690439000001, 0.36625, 0.36625
DataValue, 0.36675, 0.00058713590260600006, -0.00011283641652000001, 0.36675, 0.36675
DataValue, 0.36725, 0.000578698934987, -0.00011277348676200001, 0.36725, 0.36725
DataValue, 0.36775, 0.00059088569833, -0.00011283486674100001, 0.36775, 0.36775
DataValue, 0.36825, 0.000536929816008, -0.00011288504902000002, 0.36825, 0.36825
DataValue, 0.36875, 0.00042301288340200005, -0.00011316039308400001, 0.36875, 0.36875
DataValue, 0.36925, 0.000495259417221, -0.00011306604574200001, 0.36925, 0.36925
DataValue, 0.36975, 0.00054518354591, -0.00011287949746500001, 0.36975, 0.36975
DataValue, 0.37025, 0.00058036233531300009, -0.00011288237874400001, 0.37025, 0.37025
DataValue, 0.37075, 0.00058547948719900008, -0.000112923902634, 0.37075, 0.37075
DataValue, 0.37125, 0.00063635519472900008, -0.00011318727047200001, 0.37125, 0.37125
DataValue, 0.37175, 0.00070294889155800007, -0.00011318282486200001, 0.37175, 0.37175
DataValue, 0.37225, 0.000541257555597, -0.00011280526814500001, 0.37225, 0.37225
DataValue, 0.37275, 0.000667607993819, -0.00011276452278300002, 0.37275, 0.37275
DataValue, 0.37325, 0.00062024244107300008, -0.000112902918772, 0.37325, 0.37325
DataValue, 0.37375, 0.000674275797792, -0.00011297233868400001, 0.37375, 0.37375
DataValue, 0.37425, 0.000597024860326, -0.00011299774632800001, 0.37425, 0.37425
DataValue, 0.37475, 0.00048945855815000008, -0.00011301432823500001, 0.37475, 0.37475
DataValue, 0.37525000000000003, 0.000583005486988, -0.00011278198508100001, 0.37525000000000003, 0.37525000000000003
DataValue, 0.37575000000000003, 0.000542716588825, -0.000113125359348, 0.37575000000000003, 0.37575000000000003
DataValue, 0.37625000000000003, 0.00053128402214500006, -0.00011318070028200002, 0.37625000000000003, 0.37625000000000003
DataValue, 0.37675000000000003, 0.000509335193783, -0.00011302913480900001, 0.37675000000000003, 0.37675000000000003
DataValue, 0.37725000000000003, 0.00050934928003700008, -0.00011312057176800001, 0.37725000000000003, 0.37725000000000003
DataValue, 0.37775000000000003, 0.00048611761303600005, -0.00011315511073900001, 0.37775000000000003, 0.37775000000000003
DataValue, 0.37825000000000003, 0.000535033817869, -0.000113039677672, 0.37825000000000003, 0.37825000000000003
DataValue, 0.37875000000000003, 0.000597511185333, -0.00011299262405400001, 0.37875000000000003, 0.37875000000000003
DataValue, 0.37925000000000003, 0.00062433758284900006, -0.000112857182103, 0.37925000000000003, 0.37925000000000003
DataValue, 0.37975000000000003, 0.00054941966664, -0.000113013666123, 0.37975000000000003, 0.37975000000000003
DataValue, 0.38025000000000003, 0.0006324009737, -0.00011293001443800001, 0.38025000000000003, 0.38025000000000003
DataValue, 0.38075000000000003, 0.00060124689480300008, -0.00011305744556000001, 0.38075000000000003, 0.38075000000000003
DataValue, 0.38125000000000003, 0.00059686979511800007, -0.000113152469567, 0.38125000000000003, 0.38125000000000003
DataValue, 0.38175000000000003, 0.000542772992048, -0.000112982110295, 0.38175000000000003, 0.38175000000000003
DataValue, 0.38225000000000003, 0.000550906872377, -0.000113045600301, 0.38225000000000003, 0.38225000000000003
DataValue, 0.38275000000000003, 0.0005892997724, -0.00011298512981700001, 0.38275000000000003, 0.38275000000000003
DataValue, 0.38325000000000004, 0.000631872389931, -0.00011312376591400001, 0.38325000000000004, 0.38325000000000004
DataValue, 0.38375000000000004, 0.00069509691093100009, -0.000112986890599, 0.38375000000000004, 0.38375000000000004
DataValue, 0.38425000000000004, 0.000744950550143, -0.00011313686263700001, 0.38425000000000004, 0.38425000000000004
DataValue, 0.38475000000000004, 0.000700340955518, -0.00011304712825200001, 0.38475000000000004, 0.38475000000000004
DataValue, 0.38525000000000004, 0.00066003797110200007, -0.00011303083738300001, 0.38525000000000004, 0.38525000000000004
DataValue, 0.38575000000000004, 0.000615816039499, -0.00011282380728500001, 0.38575000000000004, 0.38575000000000004
DataValue, 0.38625000000000004, 0.00065320095745800008, -0.00011278087913500002, 0.38625000000000004, 0.38625000000000004
DataValue, 0.38675000000000004, 0.000582843378652, -0.000112931898911, 0.38675000000000004, 0.38675000000000004
DataValue, 0.38725000000000004, 0.00056025316007400009, -0.00011301860649800001, 0.38725000000000004, 0.38725000000000004
DataValue, 0.38775000000000004, 0.000619988713879, -0.00011298024037400001, 0.38775000000000004, 0.38775000000000004
DataValue, 0.38825000000000004, 0.00065707758767500008, -0.00011295761214600001, 0.38825000000000004, 0.38825000000000004
DataValue, 0.38875000000000004, 0.000572129734792, -0.00011275699944200002, 0.38875000000000004, 0.38875000000000004
DataValue, 0.38925000000000004, 0.000563728041016, -0.00011271541734500001, 0.38925000000000004, 0.38925000000000004
DataValue, 0.38975000000000004, 0.00071138585917700009, -0.00011279680620600001, 0.38975000000000004, 0.38975000000000004
DataValue, 0.39025000000000004, 0.000601831881795, -0.00011284672655200001, 0.39025000000000004, 0.39025000000000004
DataValue, 0.39075000000000004, 0.000664422055706, -0.00011283990170300001, 0.39075000000000004, 0.39075000000000004
DataValue, 0.39125000000000004, 0.00073273561429200006, -0.00011270003597000001, 0.39125000000000004, 0.39125000000000004
DataValue, 0.39175000000000004, 0.000575068988837, -0.000112844769319, 0.39175000000000004, 0.39175000000000004
DataValue, 0.39225000000000004, 0.000667918124236, -0.00011280499893500001, 0.39225000000000004, 0.39225000000000004
DataValue, 0.39275000000000004, 0.000620214268565, -0.00011296734737700001, 0.39275000000000004, 0.39275000000000004
DataValue, 0.39325000000000004, 0.00064871110953400009, -0.00011277040903200001, 0.39325000000000004, 0.39325000000000004
DataValue, 0.39375000000000004, 0.00047891409485600005, -0.00011264032218600001, 0.39375000000000004, 0.39375000000000004
DataValue, 0.39425000000000004, 0.00055146374506900007, -0.00011268049274800001, 0.39425000000000004, 0.39425000000000004
DataValue, 0.39475000000000005, 0.00061897368868800006, -0.00011263096530500001, 0.39475000000000005, 0.39475000000000005
