
SetupTitle, I/V Sweep
PrimitiveTest, I/V Sweep
TestParameter, Context.MainFrame, B1500A
TestParameter, Channel.UnitType, SMU, SMU
TestParameter, Channel.Unit, SMU1:HR/AS, SMU2:HR/AS
TestParameter, Channel.IName, Ig, Id
TestParameter, Channel.VName, Vg, Vd
TestParameter, Channel.Mode, V, V
TestParameter, Channel.Func, VAR2, VAR1
TestParameter, Channel.Index, 
TestParameter, Channel.Time, 
TestParameter, Measurement.Port.Unit, SMU1:HR/AS, SMU2:HR/AS
TestParameter, Measurement.Port.SeriesResistor, NONE, NONE
TestParameter, Measurement.Port.Filter, ON, ON
TestParameter, Measurement.Port.OutputVoltageComparison, 0, 0
TestParameter, Measurement.Primary.Locus, Single
TestParameter, Measurement.Primary.Scale, LINEAR
TestParameter, Measurement.Primary.Start, 0
TestParameter, Measurement.Primary.Stop, -0.5
TestParameter, Measurement.Primary.Step, -0.005
TestParameter, Measurement.Primary.Compliance, 0.1
TestParameter, Measurement.Primary.PowerCompliance, 0
TestParameter, Measurement.Aborting.Condition, CONTINUE AT ANY
TestParameter, Measurement.PostOutput.Value, START
TestParameter, Measurement.PostOutput.Retention, OFF
TestParameter, Measurement.Secondary.Start, 0
TestParameter, Measurement.Secondary.Count, 6
TestParameter, Measurement.Secondary.Step, -0.1
TestParameter, Measurement.Secondary.Compliance, 0.0001
TestParameter, Measurement.Secondary.PowerCompliance, 0
TestParameter, Measurement.Bias.Source, 0, 0
TestParameter, Measurement.Bias.Compliance, 0.0001, 0.1
TestParameter, Measurement.Monitor.Unit, SMU1:HR/AS, SMU2:HR/AS
TestParameter, Measurement.Monitor.Adc, HR ADC, HR ADC
TestParameter, Measurement.Monitor.Measurement, Compliance Side, Compliance Side
TestParameter, Measurement.Monitor.RangingMode, LIMITED, LIMITED
TestParameter, Measurement.Monitor.RangeBoundary, 1nA, 1nA
TestParameter, Measurement.Monitor.RangeRating, BY FULL RANGE, BY FULL RANGE
TestParameter, Measurement.Monitor.RangeRatingCoeff, 50, 50
TestParameter, Measurement.Timing.Hold, 0
TestParameter, Measurement.Timing.Delay, 0
TestParameter, Measurement.Adc.HighSpeed.Mode, AUTO
TestParameter, Measurement.Adc.HighSpeed.Coeff, 1
TestParameter, Measurement.Adc.HighResolution.AutoZero, OFF
TestParameter, Measurement.Adc.HighResolution.Mode, AUTO
TestParameter, Measurement.Adc.HighResolution.Coeff, 6
TestParameter, Measurement.WaitTime.Source.Coeff, 1
TestParameter, Measurement.WaitTime.Source.Offset, 0
TestParameter, Measurement.WaitTime.Monitor.Coeff, 1
TestParameter, Measurement.WaitTime.Monitor.Offset, 0
TestParameter, Output.Graph.Enabled, true
TestParameter, Output.Graph.AutoScaling, false
TestParameter, Output.Graph.XAxis.Data, Vd
TestParameter, Output.Graph.XAxis.Scale, Linear
TestParameter, Output.Graph.XAxis.Left, 0
TestParameter, Output.Graph.XAxis.Right, -0.5
TestParameter, Output.Graph.XAxis.RunTimeAutoScale, true
TestParameter, Output.Graph.YAxis.Data, Id
TestParameter, Output.Graph.YAxis.Scale, Linear
TestParameter, Output.Graph.YAxis.Bottom, -0.1
TestParameter, Output.Graph.YAxis.Top, 0.1
TestParameter, Output.Graph.YAxis.Group, 
TestParameter, Output.Graph.YAxis.RunTimeAutoScale, true
TestParameter, Output.List.Data, Vd, Vg, Id
TestParameter, AutoAnalysis.Interpolation, false
TestParameter, AutoAnalysis.Var2StepCount, 1
TestParameter, AutoAnalysis.Var2StepScript, 
TestParameter, AutoAnalysis.Line1.Enabled, false
TestParameter, AutoAnalysis.Line1.Type, 1
TestParameter, AutoAnalysis.Line1.Fix, True
TestParameter, AutoAnalysis.Line1.YAxis, 0
TestParameter, AutoAnalysis.Line1.Point1.Type, 0
TestParameter, AutoAnalysis.Line1.Point1.XY.X, 
TestParameter, AutoAnalysis.Line1.Point1.XY.Y, 
TestParameter, AutoAnalysis.Line1.Point1.Data.Var, 
TestParameter, AutoAnalysis.Line1.Point1.Data.Condition, 
TestParameter, AutoAnalysis.Line1.Point1.Data.Start, false
TestParameter, AutoAnalysis.Line1.Point1.Data.StartVar, 
TestParameter, AutoAnalysis.Line1.Point1.Data.StartCondition, 
TestParameter, AutoAnalysis.Line1.Point2.Type, 0
TestParameter, AutoAnalysis.Line1.Point2.XY.X, 
TestParameter, AutoAnalysis.Line1.Point2.XY.Y, 
TestParameter, AutoAnalysis.Line1.Point2.Data.Var, 
TestParameter, AutoAnalysis.Line1.Point2.Data.Condition, 
TestParameter, AutoAnalysis.Line1.Point2.Data.Start, false
TestParameter, AutoAnalysis.Line1.Point2.Data.StartVar, 
TestParameter, AutoAnalysis.Line1.Point2.Data.StartCondition, 
TestParameter, AutoAnalysis.Line1.GradientExpr, 0
TestParameter, AutoAnalysis.Line2.Enabled, false
TestParameter, AutoAnalysis.Line2.Type, 1
TestParameter, AutoAnalysis.Line2.Fix, True
TestParameter, AutoAnalysis.Line2.YAxis, 0
TestParameter, AutoAnalysis.Line2.Point1.Type, 0
TestParameter, AutoAnalysis.Line2.Point1.XY.X, 
TestParameter, AutoAnalysis.Line2.Point1.XY.Y, 
TestParameter, AutoAnalysis.Line2.Point1.Data.Var, 
TestParameter, AutoAnalysis.Line2.Point1.Data.Condition, 
TestParameter, AutoAnalysis.Line2.Point1.Data.Start, false
TestParameter, AutoAnalysis.Line2.Point1.Data.StartVar, 
TestParameter, AutoAnalysis.Line2.Point1.Data.StartCondition, 
TestParameter, AutoAnalysis.Line2.Point2.Type, 0
TestParameter, AutoAnalysis.Line2.Point2.XY.X, 
TestParameter, AutoAnalysis.Line2.Point2.XY.Y, 
TestParameter, AutoAnalysis.Line2.Point2.Data.Var, 
TestParameter, AutoAnalysis.Line2.Point2.Data.Condition, 
TestParameter, AutoAnalysis.Line2.Point2.Data.Start, false
TestParameter, AutoAnalysis.Line2.Point2.Data.StartVar, 
TestParameter, AutoAnalysis.Line2.Point2.Data.StartCondition, 
TestParameter, AutoAnalysis.Line2.GradientExpr, 0
TestParameter, AutoAnalysis.Marker.Enabled, false
TestParameter, AutoAnalysis.Marker.Data.Var, 
TestParameter, AutoAnalysis.Marker.Data.Condition, 
TestParameter, AutoAnalysis.Marker.Data.Start, false
TestParameter, AutoAnalysis.Marker.Data.StartVar, 
TestParameter, AutoAnalysis.Marker.Data.StartCondition, 
MetaData, TestRecord.EntryPoint, true
MetaData, TestRecord.RecordTime, 05/22/2024 01:13:05
MetaData, TestRecord.TestTarget, 
MetaData, TestRecord.IterationIndex, 17
MetaData, TestRecord.Preservation, true
MetaData, TestRecord.Flag, 
MetaData, TestRecord.Remarks, s12c4_output
MetaData, TestRecord.LinkKey, b16ea6f5-5def-4f61-a58f-c48e3b792a08
MetaData, TestRecord.Parameters, 
Dimension1, 101, 101, 101
Dimension2, 6, 6, 6
DataName, Vd, Vg, Id
DataValue, 0, 0, 2.6010999999999997E-08
DataValue, -0.005, 0, -1.2867999999999999E-07
DataValue, -0.01, 0, -3.1344E-07
DataValue, -0.015000000000000001, 0, -3.8172E-07
DataValue, -0.02, 0, -4.8546E-07
DataValue, -0.025, 0, -6.3858E-07
DataValue, -0.030000000000000002, 0, -7.1338E-07
DataValue, -0.035, 0, -7.47E-07
DataValue, -0.04, 0, -8.5794E-07
DataValue, -0.045000000000000005, 0, -9.5992E-07
DataValue, -0.05, 0, -9.7132E-07
DataValue, -0.055, 0, -1.02174E-06
DataValue, -0.060000000000000005, 0, -1.12756E-06
DataValue, -0.065, 0, -1.0759000000000002E-06
DataValue, -0.07, 0, -1.0868000000000001E-06
DataValue, -0.075, 0, -1.1323000000000002E-06
DataValue, -0.08, 0, -1.2296E-06
DataValue, -0.085, 0, -1.2139000000000001E-06
DataValue, -0.090000000000000011, 0, -1.2411E-06
DataValue, -0.095, 0, -1.3250000000000002E-06
DataValue, -0.1, 0, -1.2981000000000001E-06
DataValue, -0.10500000000000001, 0, -1.3147E-06
DataValue, -0.11, 0, -1.3848E-06
DataValue, -0.115, 0, -1.3601000000000001E-06
DataValue, -0.12000000000000001, 0, -1.3594E-06
DataValue, -0.125, 0, -1.4272E-06
DataValue, -0.13, 0, -1.4313000000000002E-06
DataValue, -0.135, 0, -1.3871000000000002E-06
DataValue, -0.14, 0, -1.4413E-06
DataValue, -0.14500000000000002, 0, -1.4684000000000002E-06
DataValue, -0.15, 0, -1.4223000000000001E-06
DataValue, -0.155, 0, -1.4257000000000002E-06
DataValue, -0.16, 0, -1.481E-06
DataValue, -0.165, 0, -1.4469E-06
DataValue, -0.17, 0, -1.4183E-06
DataValue, -0.17500000000000002, 0, -1.4697E-06
DataValue, -0.18000000000000002, 0, -1.4684000000000002E-06
DataValue, -0.185, 0, -1.4175000000000002E-06
DataValue, -0.19, 0, -1.4652000000000002E-06
DataValue, -0.195, 0, -1.4839E-06
DataValue, -0.2, 0, -1.4315000000000002E-06
DataValue, -0.20500000000000002, 0, -1.4385E-06
DataValue, -0.21000000000000002, 0, -1.4942000000000002E-06
DataValue, -0.215, 0, -1.4555E-06
DataValue, -0.22, 0, -1.4307000000000001E-06
DataValue, -0.225, 0, -1.4823000000000002E-06
DataValue, -0.23, 0, -1.4888000000000003E-06
DataValue, -0.23500000000000001, 0, -1.4394000000000001E-06
DataValue, -0.24000000000000002, 0, -1.4869000000000001E-06
DataValue, -0.24500000000000002, 0, -1.5103000000000002E-06
DataValue, -0.25, 0, -1.4668E-06
DataValue, -0.255, 0, -1.4784000000000001E-06
DataValue, -0.26, 0, -1.5353000000000002E-06
DataValue, -0.265, 0, -1.4990000000000002E-06
DataValue, -0.27, 0, -1.4816000000000001E-06
DataValue, -0.275, 0, -1.5415000000000002E-06
DataValue, -0.28, 0, -1.5349000000000001E-06
DataValue, -0.28500000000000003, 0, -1.5415000000000002E-06
DataValue, -0.29000000000000004, 0, -1.5755000000000002E-06
DataValue, -0.29500000000000004, 0, -1.5278000000000002E-06
DataValue, -0.3, 0, -1.5718000000000001E-06
DataValue, -0.305, 0, -1.6054000000000001E-06
DataValue, -0.31, 0, -1.5620000000000003E-06
DataValue, -0.315, 0, -1.5819000000000003E-06
DataValue, -0.32, 0, -1.6423000000000001E-06
DataValue, -0.325, 0, -1.6016000000000003E-06
DataValue, -0.33, 0, -1.5942000000000001E-06
DataValue, -0.335, 0, -1.6528E-06
DataValue, -0.34, 0, -1.6594000000000002E-06
DataValue, -0.34500000000000003, 0, -1.6159E-06
DataValue, -0.35000000000000003, 0, -1.6798000000000002E-06
DataValue, -0.35500000000000004, 0, -1.6986000000000001E-06
DataValue, -0.36000000000000004, 0, -1.6592000000000001E-06
DataValue, -0.365, 0, -1.7046000000000002E-06
DataValue, -0.37, 0, -1.7240000000000001E-06
DataValue, -0.375, 0, -1.6809E-06
DataValue, -0.38, 0, -1.7328000000000002E-06
DataValue, -0.385, 0, -1.7560000000000002E-06
DataValue, -0.39, 0, -1.7079000000000002E-06
DataValue, -0.395, 0, -1.7587000000000002E-06
DataValue, -0.4, 0, -1.7869000000000002E-06
DataValue, -0.405, 0, -1.7388000000000002E-06
DataValue, -0.41000000000000003, 0, -1.7898000000000002E-06
DataValue, -0.41500000000000004, 0, -1.8144000000000002E-06
DataValue, -0.42000000000000004, 0, -1.7656E-06
DataValue, -0.42500000000000004, 0, -1.8162000000000003E-06
DataValue, -0.43, 0, -1.8451000000000001E-06
DataValue, -0.435, 0, -1.7973000000000001E-06
DataValue, -0.44, 0, -1.8369000000000002E-06
DataValue, -0.445, 0, -1.8724000000000003E-06
DataValue, -0.45, 0, -1.8262000000000002E-06
DataValue, -0.455, 0, -1.8458000000000002E-06
DataValue, -0.46, 0, -1.9032000000000003E-06
DataValue, -0.465, 0, -1.8568000000000002E-06
DataValue, -0.47000000000000003, 0, -1.8648000000000001E-06
DataValue, -0.47500000000000003, 0, -1.9296E-06
DataValue, -0.48000000000000004, 0, -1.8895000000000003E-06
DataValue, -0.48500000000000004, 0, -1.8883000000000002E-06
DataValue, -0.49000000000000005, 0, -1.9539E-06
DataValue, -0.49500000000000005, 0, -1.9160000000000004E-06
DataValue, -0.5, 0, -1.9011E-06
DataValue, 0, -0.1, 5.7119E-08
DataValue, -0.005, -0.1, -1.3716000000000001E-06
DataValue, -0.01, -0.1, -2.8317000000000003E-06
DataValue, -0.015000000000000001, -0.1, -4.0830000000000005E-06
DataValue, -0.02, -0.1, -5.1793000000000005E-06
DataValue, -0.025, -0.1, -6.2808000000000009E-06
DataValue, -0.030000000000000002, -0.1, -7.2181E-06
DataValue, -0.035, -0.1, -8.0155000000000014E-06
DataValue, -0.04, -0.1, -8.8411E-06
DataValue, -0.045000000000000005, -0.1, -9.5355E-06
DataValue, -0.05, -0.1, -1.00932E-05
DataValue, -0.055, -0.1, -1.0699600000000002E-05
DataValue, -0.060000000000000005, -0.1, -1.11913E-05
DataValue, -0.065, -0.1, -1.1132000000000001E-05
DataValue, -0.07, -0.1, -1.1834E-05
DataValue, -0.075, -0.1, -1.2202000000000001E-05
DataValue, -0.08, -0.1, -1.2582E-05
DataValue, -0.085, -0.1, -1.2952E-05
DataValue, -0.090000000000000011, -0.1, -1.3262000000000001E-05
DataValue, -0.095, -0.1, -1.3466000000000001E-05
DataValue, -0.1, -0.1, -1.365E-05
DataValue, -0.10500000000000001, -0.1, -1.3818E-05
DataValue, -0.11, -0.1, -1.4058E-05
DataValue, -0.115, -0.1, -1.417E-05
DataValue, -0.12000000000000001, -0.1, -1.4176000000000001E-05
DataValue, -0.125, -0.1, -1.4396E-05
DataValue, -0.13, -0.1, -1.4526000000000001E-05
DataValue, -0.135, -0.1, -1.4478000000000001E-05
DataValue, -0.14, -0.1, -1.4594000000000001E-05
DataValue, -0.14500000000000002, -0.1, -1.4736000000000001E-05
DataValue, -0.15, -0.1, -1.4716000000000001E-05
DataValue, -0.155, -0.1, -1.4764000000000001E-05
DataValue, -0.16, -0.1, -1.4814E-05
DataValue, -0.165, -0.1, -1.4842000000000001E-05
DataValue, -0.17, -0.1, -1.4912E-05
DataValue, -0.17500000000000002, -0.1, -1.4902E-05
DataValue, -0.18000000000000002, -0.1, -1.4862000000000001E-05
DataValue, -0.185, -0.1, -1.4966E-05
DataValue, -0.19, -0.1, -1.4988000000000001E-05
DataValue, -0.195, -0.1, -1.4884E-05
DataValue, -0.2, -0.1, -1.4950000000000001E-05
DataValue, -0.20500000000000002, -0.1, -1.5002000000000001E-05
DataValue, -0.21000000000000002, -0.1, -1.4762E-05
DataValue, -0.215, -0.1, -1.4912E-05
DataValue, -0.22, -0.1, -1.4934000000000001E-05
DataValue, -0.225, -0.1, -1.488E-05
DataValue, -0.23, -0.1, -1.4904E-05
DataValue, -0.23500000000000001, -0.1, -1.4964000000000001E-05
DataValue, -0.24000000000000002, -0.1, -1.4932E-05
DataValue, -0.24500000000000002, -0.1, -1.4912E-05
DataValue, -0.25, -0.1, -1.4950000000000001E-05
DataValue, -0.255, -0.1, -1.4992E-05
DataValue, -0.26, -0.1, -1.4924E-05
DataValue, -0.265, -0.1, -1.4952E-05
DataValue, -0.27, -0.1, -1.5018000000000001E-05
DataValue, -0.275, -0.1, -1.5004E-05
DataValue, -0.28, -0.1, -1.4966E-05
DataValue, -0.28500000000000003, -0.1, -1.5054E-05
DataValue, -0.29000000000000004, -0.1, -1.5084E-05
DataValue, -0.29500000000000004, -0.1, -1.5068E-05
DataValue, -0.3, -0.1, -1.5082E-05
DataValue, -0.305, -0.1, -1.5152E-05
DataValue, -0.31, -0.1, -1.5178000000000001E-05
DataValue, -0.315, -0.1, -1.5138E-05
DataValue, -0.32, -0.1, -1.5226000000000001E-05
DataValue, -0.325, -0.1, -1.5272000000000002E-05
DataValue, -0.33, -0.1, -1.5238E-05
DataValue, -0.335, -0.1, -1.5266E-05
DataValue, -0.34, -0.1, -1.5348E-05
DataValue, -0.34500000000000003, -0.1, -1.5354E-05
DataValue, -0.35000000000000003, -0.1, -1.5338E-05
DataValue, -0.35500000000000004, -0.1, -1.537E-05
DataValue, -0.36000000000000004, -0.1, -1.5446E-05
DataValue, -0.365, -0.1, -1.5432E-05
DataValue, -0.37, -0.1, -1.5426E-05
DataValue, -0.375, -0.1, -1.5516000000000002E-05
DataValue, -0.38, -0.1, -1.5546E-05
DataValue, -0.385, -0.1, -1.5534E-05
DataValue, -0.39, -0.1, -1.5558E-05
DataValue, -0.395, -0.1, -1.5646E-05
DataValue, -0.4, -0.1, -1.5666000000000002E-05
DataValue, -0.405, -0.1, -1.5666000000000002E-05
DataValue, -0.41000000000000003, -0.1, -1.5694E-05
DataValue, -0.41500000000000004, -0.1, -1.5792E-05
DataValue, -0.42000000000000004, -0.1, -1.5788000000000002E-05
DataValue, -0.42500000000000004, -0.1, -1.5792E-05
DataValue, -0.43, -0.1, -1.5852E-05
DataValue, -0.435, -0.1, -1.5924000000000002E-05
DataValue, -0.44, -0.1, -1.5914E-05
DataValue, -0.445, -0.1, -1.5884E-05
DataValue, -0.45, -0.1, -1.598E-05
DataValue, -0.455, -0.1, -1.6060000000000002E-05
DataValue, -0.46, -0.1, -1.602E-05
DataValue, -0.465, -0.1, -1.604E-05
DataValue, -0.47000000000000003, -0.1, -1.6132E-05
DataValue, -0.47500000000000003, -0.1, -1.6168000000000002E-05
DataValue, -0.48000000000000004, -0.1, -1.6158E-05
DataValue, -0.48500000000000004, -0.1, -1.6186E-05
DataValue, -0.49000000000000005, -0.1, -1.6256E-05
DataValue, -0.49500000000000005, -0.1, -1.6298000000000002E-05
DataValue, -0.5, -0.1, -1.6298000000000002E-05
DataValue, 0, -0.2, 5.0400999999999996E-08
DataValue, -0.005, -0.2, -4.609E-06
DataValue, -0.01, -0.2, -9.1537E-06
DataValue, -0.015000000000000001, -0.2, -1.3364000000000001E-05
DataValue, -0.02, -0.2, -1.7556E-05
DataValue, -0.025, -0.2, -2.146E-05
DataValue, -0.030000000000000002, -0.2, -2.5272E-05
DataValue, -0.035, -0.2, -2.8794000000000002E-05
DataValue, -0.04, -0.2, -3.2184E-05
DataValue, -0.045000000000000005, -0.2, -3.5432E-05
DataValue, -0.05, -0.2, -3.8358E-05
DataValue, -0.055, -0.2, -4.12E-05
DataValue, -0.060000000000000005, -0.2, -4.3722E-05
DataValue, -0.065, -0.2, -4.6280000000000004E-05
DataValue, -0.07, -0.2, -4.8594E-05
DataValue, -0.075, -0.2, -5.074E-05
DataValue, -0.08, -0.2, -5.2256E-05
DataValue, -0.085, -0.2, -5.4420000000000004E-05
DataValue, -0.090000000000000011, -0.2, -5.6078E-05
DataValue, -0.095, -0.2, -5.7602E-05
DataValue, -0.1, -0.2, -5.9048E-05
DataValue, -0.10500000000000001, -0.2, -6.0384E-05
DataValue, -0.11, -0.2, -6.1586E-05
DataValue, -0.115, -0.2, -6.2584E-05
DataValue, -0.12000000000000001, -0.2, -6.3634000000000008E-05
DataValue, -0.125, -0.2, -6.4438000000000009E-05
DataValue, -0.13, -0.2, -6.516E-05
DataValue, -0.135, -0.2, -6.5908E-05
DataValue, -0.14, -0.2, -6.6616E-05
DataValue, -0.14500000000000002, -0.2, -6.7062E-05
DataValue, -0.15, -0.2, -6.7552E-05
DataValue, -0.155, -0.2, -6.802E-05
DataValue, -0.16, -0.2, -6.8366E-05
DataValue, -0.165, -0.2, -6.8574E-05
DataValue, -0.17, -0.2, -6.8866E-05
DataValue, -0.17500000000000002, -0.2, -6.9226E-05
DataValue, -0.18000000000000002, -0.2, -6.9376000000000008E-05
DataValue, -0.185, -0.2, -6.9552E-05
DataValue, -0.19, -0.2, -6.9766E-05
DataValue, -0.195, -0.2, -6.978E-05
DataValue, -0.2, -0.2, -6.9958E-05
DataValue, -0.20500000000000002, -0.2, -7.0078E-05
DataValue, -0.21000000000000002, -0.2, -7.0294E-05
DataValue, -0.215, -0.2, -7.0228E-05
DataValue, -0.22, -0.2, -7.0158E-05
DataValue, -0.225, -0.2, -7.0296E-05
DataValue, -0.23, -0.2, -7.0406E-05
DataValue, -0.23500000000000001, -0.2, -7.0356E-05
DataValue, -0.24000000000000002, -0.2, -7.0238E-05
DataValue, -0.24500000000000002, -0.2, -7.0596E-05
DataValue, -0.25, -0.2, -7.0762E-05
DataValue, -0.255, -0.2, -7.0652E-05
DataValue, -0.26, -0.2, -7.0876E-05
DataValue, -0.265, -0.2, -7.1014000000000008E-05
DataValue, -0.27, -0.2, -7.0874E-05
DataValue, -0.275, -0.2, -7.1052E-05
DataValue, -0.28, -0.2, -7.111E-05
DataValue, -0.28500000000000003, -0.2, -7.1002000000000009E-05
DataValue, -0.29000000000000004, -0.2, -7.0998E-05
DataValue, -0.29500000000000004, -0.2, -7.0928E-05
DataValue, -0.3, -0.2, -7.0852E-05
DataValue, -0.305, -0.2, -7.0992E-05
DataValue, -0.31, -0.2, -7.1024E-05
DataValue, -0.315, -0.2, -7.0754000000000007E-05
DataValue, -0.32, -0.2, -7.085E-05
DataValue, -0.325, -0.2, -7.0834E-05
DataValue, -0.33, -0.2, -7.071E-05
DataValue, -0.335, -0.2, -7.0848E-05
DataValue, -0.34, -0.2, -7.0936E-05
DataValue, -0.34500000000000003, -0.2, -7.0810000000000008E-05
DataValue, -0.35000000000000003, -0.2, -7.0874E-05
DataValue, -0.35500000000000004, -0.2, -7.0938E-05
DataValue, -0.36000000000000004, -0.2, -7.087E-05
DataValue, -0.365, -0.2, -7.0916E-05
DataValue, -0.37, -0.2, -7.095E-05
DataValue, -0.375, -0.2, -7.0958000000000007E-05
DataValue, -0.38, -0.2, -7.1108E-05
DataValue, -0.385, -0.2, -7.1128E-05
DataValue, -0.39, -0.2, -7.1146E-05
DataValue, -0.395, -0.2, -7.1242E-05
DataValue, -0.4, -0.2, -7.1280000000000009E-05
DataValue, -0.405, -0.2, -7.1102E-05
DataValue, -0.41000000000000003, -0.2, -7.117E-05
DataValue, -0.41500000000000004, -0.2, -7.1292000000000008E-05
DataValue, -0.42000000000000004, -0.2, -7.1284E-05
DataValue, -0.42500000000000004, -0.2, -7.1298000000000008E-05
DataValue, -0.43, -0.2, -7.1364E-05
DataValue, -0.435, -0.2, -7.1374E-05
DataValue, -0.44, -0.2, -7.15E-05
DataValue, -0.445, -0.2, -7.1444E-05
DataValue, -0.45, -0.2, -7.1462E-05
DataValue, -0.455, -0.2, -7.1618E-05
DataValue, -0.46, -0.2, -7.161E-05
DataValue, -0.465, -0.2, -7.1466E-05
DataValue, -0.47000000000000003, -0.2, -7.1568E-05
DataValue, -0.47500000000000003, -0.2, -7.1668E-05
DataValue, -0.48000000000000004, -0.2, -7.1662E-05
DataValue, -0.48500000000000004, -0.2, -7.169E-05
DataValue, -0.49000000000000005, -0.2, -7.177E-05
DataValue, -0.49500000000000005, -0.2, -7.1778E-05
DataValue, -0.5, -0.2, -7.186E-05
DataValue, 0, -0.3, 3.8773399999999994E-08
DataValue, -0.005, -0.3, -6.6438000000000007E-06
DataValue, -0.01, -0.3, -1.3294E-05
