
SetupTitle, I/V Sweep
PrimitiveTest, I/V Sweep
TestParameter, Context.MainFrame, B1500A
TestParameter, Channel.UnitType, SMU, SMU
TestParameter, Channel.Unit, SMU1:HR/AS, SMU2:HR/AS
TestParameter, Channel.IName, Ig, Id
TestParameter, Channel.VName, Vg, Vd
TestParameter, Channel.Mode, V, V
TestParameter, Channel.Func, VAR2, VAR1
TestParameter, Channel.Index, 
TestParameter, Channel.Time, 
TestParameter, Measurement.Port.Unit, SMU1:HR/AS, SMU2:HR/AS
TestParameter, Measurement.Port.SeriesResistor, NONE, NONE
TestParameter, Measurement.Port.Filter, ON, ON
TestParameter, Measurement.Port.OutputVoltageComparison, 0, 0
TestParameter, Measurement.Primary.Locus, Single
TestParameter, Measurement.Primary.Scale, LINEAR
TestParameter, Measurement.Primary.Start, 0
TestParameter, Measurement.Primary.Stop, -0.5
TestParameter, Measurement.Primary.Step, -0.005
TestParameter, Measurement.Primary.Compliance, 0.1
TestParameter, Measurement.Primary.PowerCompliance, 0
TestParameter, Measurement.Aborting.Condition, CONTINUE AT ANY
TestParameter, Measurement.PostOutput.Value, START
TestParameter, Measurement.PostOutput.Retention, OFF
TestParameter, Measurement.Secondary.Start, 0
TestParameter, Measurement.Secondary.Count, 6
TestParameter, Measurement.Secondary.Step, -0.1
TestParameter, Measurement.Secondary.Compliance, 0.0001
TestParameter, Measurement.Secondary.PowerCompliance, 0
TestParameter, Measurement.Bias.Source, 0, 0
TestParameter, Measurement.Bias.Compliance, 0.0001, 0.1
TestParameter, Measurement.Monitor.Unit, SMU1:HR/AS, SMU2:HR/AS
TestParameter, Measurement.Monitor.Adc, HR ADC, HR ADC
TestParameter, Measurement.Monitor.Measurement, Compliance Side, Compliance Side
TestParameter, Measurement.Monitor.RangingMode, LIMITED, LIMITED
TestParameter, Measurement.Monitor.RangeBoundary, 1nA, 1nA
TestParameter, Measurement.Monitor.RangeRating, BY FULL RANGE, BY FULL RANGE
TestParameter, Measurement.Monitor.RangeRatingCoeff, 50, 50
TestParameter, Measurement.Timing.Hold, 0
TestParameter, Measurement.Timing.Delay, 0
TestParameter, Measurement.Adc.HighSpeed.Mode, AUTO
TestParameter, Measurement.Adc.HighSpeed.Coeff, 1
TestParameter, Measurement.Adc.HighResolution.AutoZero, OFF
TestParameter, Measurement.Adc.HighResolution.Mode, AUTO
TestParameter, Measurement.Adc.HighResolution.Coeff, 6
TestParameter, Measurement.WaitTime.Source.Coeff, 1
TestParameter, Measurement.WaitTime.Source.Offset, 0
TestParameter, Measurement.WaitTime.Monitor.Coeff, 1
TestParameter, Measurement.WaitTime.Monitor.Offset, 0
TestParameter, Output.Graph.Enabled, true
TestParameter, Output.Graph.AutoScaling, false
TestParameter, Output.Graph.XAxis.Data, Vd
TestParameter, Output.Graph.XAxis.Scale, Linear
TestParameter, Output.Graph.XAxis.Left, 0
TestParameter, Output.Graph.XAxis.Right, -0.5
TestParameter, Output.Graph.XAxis.RunTimeAutoScale, true
TestParameter, Output.Graph.YAxis.Data, Id
TestParameter, Output.Graph.YAxis.Scale, Linear
TestParameter, Output.Graph.YAxis.Bottom, -0.1
TestParameter, Output.Graph.YAxis.Top, 0.1
TestParameter, Output.Graph.YAxis.Group, 
TestParameter, Output.Graph.YAxis.RunTimeAutoScale, true
TestParameter, Output.List.Data, Vd, Vg, Id
TestParameter, AutoAnalysis.Interpolation, false
TestParameter, AutoAnalysis.Var2StepCount, 1
TestParameter, AutoAnalysis.Var2StepScript, 
TestParameter, AutoAnalysis.Line1.Enabled, false
TestParameter, AutoAnalysis.Line1.Type, 1
TestParameter, AutoAnalysis.Line1.Fix, True
TestParameter, AutoAnalysis.Line1.YAxis, 0
TestParameter, AutoAnalysis.Line1.Point1.Type, 0
TestParameter, AutoAnalysis.Line1.Point1.XY.X, 
TestParameter, AutoAnalysis.Line1.Point1.XY.Y, 
TestParameter, AutoAnalysis.Line1.Point1.Data.Var, 
TestParameter, AutoAnalysis.Line1.Point1.Data.Condition, 
TestParameter, AutoAnalysis.Line1.Point1.Data.Start, false
TestParameter, AutoAnalysis.Line1.Point1.Data.StartVar, 
TestParameter, AutoAnalysis.Line1.Point1.Data.StartCondition, 
TestParameter, AutoAnalysis.Line1.Point2.Type, 0
TestParameter, AutoAnalysis.Line1.Point2.XY.X, 
TestParameter, AutoAnalysis.Line1.Point2.XY.Y, 
TestParameter, AutoAnalysis.Line1.Point2.Data.Var, 
TestParameter, AutoAnalysis.Line1.Point2.Data.Condition, 
TestParameter, AutoAnalysis.Line1.Point2.Data.Start, false
TestParameter, AutoAnalysis.Line1.Point2.Data.StartVar, 
TestParameter, AutoAnalysis.Line1.Point2.Data.StartCondition, 
TestParameter, AutoAnalysis.Line1.GradientExpr, 0
TestParameter, AutoAnalysis.Line2.Enabled, false
TestParameter, AutoAnalysis.Line2.Type, 1
TestParameter, AutoAnalysis.Line2.Fix, True
TestParameter, AutoAnalysis.Line2.YAxis, 0
TestParameter, AutoAnalysis.Line2.Point1.Type, 0
TestParameter, AutoAnalysis.Line2.Point1.XY.X, 
TestParameter, AutoAnalysis.Line2.Point1.XY.Y, 
TestParameter, AutoAnalysis.Line2.Point1.Data.Var, 
TestParameter, AutoAnalysis.Line2.Point1.Data.Condition, 
TestParameter, AutoAnalysis.Line2.Point1.Data.Start, false
TestParameter, AutoAnalysis.Line2.Point1.Data.StartVar, 
TestParameter, AutoAnalysis.Line2.Point1.Data.StartCondition, 
TestParameter, AutoAnalysis.Line2.Point2.Type, 0
TestParameter, AutoAnalysis.Line2.Point2.XY.X, 
TestParameter, AutoAnalysis.Line2.Point2.XY.Y, 
TestParameter, AutoAnalysis.Line2.Point2.Data.Var, 
TestParameter, AutoAnalysis.Line2.Point2.Data.Condition, 
TestParameter, AutoAnalysis.Line2.Point2.Data.Start, false
TestParameter, AutoAnalysis.Line2.Point2.Data.StartVar, 
TestParameter, AutoAnalysis.Line2.Point2.Data.StartCondition, 
TestParameter, AutoAnalysis.Line2.GradientExpr, 0
TestParameter, AutoAnalysis.Marker.Enabled, false
TestParameter, AutoAnalysis.Marker.Data.Var, 
TestParameter, AutoAnalysis.Marker.Data.Condition, 
TestParameter, AutoAnalysis.Marker.Data.Start, false
TestParameter, AutoAnalysis.Marker.Data.StartVar, 
TestParameter, AutoAnalysis.Marker.Data.StartCondition, 
MetaData, TestRecord.EntryPoint, true
MetaData, TestRecord.RecordTime, 05/22/2024 01:24:41
MetaData, TestRecord.TestTarget, 
MetaData, TestRecord.IterationIndex, 26
MetaData, TestRecord.Preservation, true
MetaData, TestRecord.Flag, 
MetaData, TestRecord.Remarks, s11c5_output
MetaData, TestRecord.LinkKey, 7ab29491-cdbf-45a2-9abc-44da53aa8d20
MetaData, TestRecord.Parameters, 
Dimension1, 101, 101, 101
Dimension2, 6, 6, 6
DataName, Vd, Vg, Id
DataValue, 0, 0, 1.0775999999999999E-09
DataValue, -0.005, 0, -2.4372599999999998E-08
DataValue, -0.01, 0, -6.92078E-08
DataValue, -0.015000000000000001, 0, -1.1683999999999999E-07
DataValue, -0.02, 0, -1.8122E-07
DataValue, -0.025, 0, -2.8205999999999997E-07
DataValue, -0.030000000000000002, 0, -2.9488E-07
DataValue, -0.035, 0, -2.8406E-07
DataValue, -0.04, 0, -3.7204E-07
DataValue, -0.045000000000000005, 0, -4.1354E-07
DataValue, -0.05, 0, -3.8842E-07
DataValue, -0.055, 0, -4.2883999999999997E-07
DataValue, -0.060000000000000005, 0, -5.0198E-07
DataValue, -0.065, 0, -5.0456E-07
DataValue, -0.07, 0, -4.8936E-07
DataValue, -0.075, 0, -5.6874E-07
DataValue, -0.08, 0, -5.9944E-07
DataValue, -0.085, 0, -5.6578E-07
DataValue, -0.090000000000000011, 0, -6.1266E-07
DataValue, -0.095, 0, -6.8408E-07
DataValue, -0.1, 0, -6.635E-07
DataValue, -0.10500000000000001, 0, -6.5617999999999994E-07
DataValue, -0.11, 0, -7.3226E-07
DataValue, -0.115, 0, -7.3965999999999994E-07
DataValue, -0.12000000000000001, 0, -7.1435999999999995E-07
DataValue, -0.125, 0, -7.9006E-07
DataValue, -0.13, 0, -8.2201999999999995E-07
DataValue, -0.135, 0, -7.8908E-07
DataValue, -0.14, 0, -8.1491999999999994E-07
DataValue, -0.14500000000000002, 0, -8.9038E-07
DataValue, -0.15, 0, -8.595E-07
DataValue, -0.155, 0, -8.6148E-07
DataValue, -0.16, 0, -9.2644E-07
DataValue, -0.165, 0, -9.4702E-07
DataValue, -0.17, 0, -9.0858E-07
DataValue, -0.17500000000000002, 0, -9.3284E-07
DataValue, -0.18000000000000002, 0, -1.00196E-06
DataValue, -0.185, 0, -9.8636E-07
DataValue, -0.19, 0, -9.5448E-07
DataValue, -0.195, 0, -1.01404E-06
DataValue, -0.2, 0, -1.0504599999999999E-06
DataValue, -0.20500000000000002, 0, -1.0143199999999999E-06
DataValue, -0.21000000000000002, 0, -9.9964E-07
DataValue, -0.215, 0, -1.05892E-06
DataValue, -0.22, 0, -1.0818E-06
DataValue, -0.225, 0, -1.03518E-06
DataValue, -0.23, 0, -1.03424E-06
DataValue, -0.23500000000000001, 0, -1.08644E-06
DataValue, -0.24000000000000002, 0, -1.0938E-06
DataValue, -0.24500000000000002, 0, -1.05328E-06
DataValue, -0.25, 0, -1.05748E-06
DataValue, -0.255, 0, -1.11578E-06
DataValue, -0.26, 0, -1.10828E-06
DataValue, -0.265, 0, -1.06172E-06
DataValue, -0.27, 0, -1.08184E-06
DataValue, -0.275, 0, -1.13398E-06
DataValue, -0.28, 0, -1.11766E-06
DataValue, -0.28500000000000003, 0, -1.0664E-06
DataValue, -0.29000000000000004, 0, -1.10082E-06
DataValue, -0.29500000000000004, 0, -1.1477399999999999E-06
DataValue, -0.3, 0, -1.1102E-06
DataValue, -0.305, 0, -1.0785599999999999E-06
DataValue, -0.31, 0, -1.12096E-06
DataValue, -0.315, 0, -1.1235000000000001E-06
DataValue, -0.32, 0, -1.1607000000000002E-06
DataValue, -0.325, 0, -1.1036000000000001E-06
DataValue, -0.33, 0, -1.1113E-06
DataValue, -0.335, 0, -1.1714000000000001E-06
DataValue, -0.34, 0, -1.1345000000000001E-06
DataValue, -0.34500000000000003, 0, -1.1043000000000002E-06
DataValue, -0.35000000000000003, 0, -1.1619E-06
DataValue, -0.35500000000000004, 0, -1.1066000000000001E-06
DataValue, -0.36000000000000004, 0, -1.1661000000000002E-06
DataValue, -0.365, 0, -1.1703E-06
DataValue, -0.37, 0, -1.1147E-06
DataValue, -0.375, 0, -1.1751000000000002E-06
DataValue, -0.38, 0, -1.1795E-06
DataValue, -0.385, 0, -1.1246000000000002E-06
DataValue, -0.39, 0, -1.1834000000000002E-06
DataValue, -0.395, 0, -1.1907E-06
DataValue, -0.4, 0, -1.1402000000000001E-06
DataValue, -0.405, 0, -1.1789E-06
DataValue, -0.41000000000000003, 0, -1.2077E-06
DataValue, -0.41500000000000004, 0, -1.1522000000000002E-06
DataValue, -0.42000000000000004, 0, -1.1697000000000002E-06
DataValue, -0.42500000000000004, 0, -1.2258000000000002E-06
DataValue, -0.43, 0, -1.1751000000000002E-06
DataValue, -0.435, 0, -1.1672E-06
DataValue, -0.44, 0, -1.2246E-06
DataValue, -0.445, 0, -1.2161E-06
DataValue, -0.45, 0, -1.1686000000000001E-06
DataValue, -0.455, 0, -1.2234000000000002E-06
DataValue, -0.46, 0, -1.2473000000000001E-06
DataValue, -0.465, 0, -1.1969000000000001E-06
DataValue, -0.47000000000000003, 0, -1.2051000000000001E-06
DataValue, -0.47500000000000003, 0, -1.2631E-06
DataValue, -0.48000000000000004, 0, -1.2118000000000002E-06
DataValue, -0.48500000000000004, 0, -1.2072E-06
DataValue, -0.49000000000000005, 0, -1.2634E-06
DataValue, -0.49500000000000005, 0, -1.2496E-06
DataValue, -0.5, 0, -1.2088000000000002E-06
DataValue, 0, -0.1, 9.9599999999999992E-08
DataValue, -0.005, -0.1, -1.2208E-07
DataValue, -0.01, -0.1, -2.9842E-07
DataValue, -0.015000000000000001, -0.1, -3.723E-07
DataValue, -0.02, -0.1, -5.0682E-07
DataValue, -0.025, -0.1, -6.9606E-07
DataValue, -0.030000000000000002, -0.1, -7.8564E-07
DataValue, -0.035, -0.1, -8.7574E-07
DataValue, -0.04, -0.1, -1.0588599999999999E-06
DataValue, -0.045000000000000005, -0.1, -1.1234000000000001E-06
DataValue, -0.05, -0.1, -1.2875000000000002E-06
DataValue, -0.055, -0.1, -1.3553000000000002E-06
DataValue, -0.060000000000000005, -0.1, -1.5379000000000001E-06
DataValue, -0.065, -0.1, -1.6635000000000003E-06
DataValue, -0.07, -0.1, -1.7253000000000002E-06
DataValue, -0.075, -0.1, -1.9027000000000002E-06
DataValue, -0.08, -0.1, -2.0261000000000004E-06
DataValue, -0.085, -0.1, -2.0858E-06
DataValue, -0.090000000000000011, -0.1, -2.2636000000000002E-06
DataValue, -0.095, -0.1, -2.3832000000000003E-06
DataValue, -0.1, -0.1, -2.4428E-06
DataValue, -0.10500000000000001, -0.1, -2.6189000000000005E-06
DataValue, -0.11, -0.1, -2.7387E-06
DataValue, -0.115, -0.1, -2.7958000000000004E-06
DataValue, -0.12000000000000001, -0.1, -2.9680000000000002E-06
DataValue, -0.125, -0.1, -3.0878000000000003E-06
DataValue, -0.13, -0.1, -3.142E-06
DataValue, -0.135, -0.1, -3.3108E-06
DataValue, -0.14, -0.1, -3.4294E-06
DataValue, -0.14500000000000002, -0.1, -3.4896000000000004E-06
DataValue, -0.15, -0.1, -3.6259000000000003E-06
DataValue, -0.155, -0.1, -3.7804000000000003E-06
DataValue, -0.16, -0.1, -3.8277000000000006E-06
DataValue, -0.165, -0.1, -3.9323000000000004E-06
DataValue, -0.17, -0.1, -4.0924000000000008E-06
DataValue, -0.17500000000000002, -0.1, -4.1676000000000006E-06
DataValue, -0.18000000000000002, -0.1, -4.2213000000000006E-06
DataValue, -0.185, -0.1, -4.3772E-06
DataValue, -0.19, -0.1, -4.4797000000000005E-06
DataValue, -0.195, -0.1, -4.5141000000000005E-06
DataValue, -0.2, -0.1, -4.6182E-06
DataValue, -0.20500000000000002, -0.1, -4.7467000000000006E-06
DataValue, -0.21000000000000002, -0.1, -4.7676000000000007E-06
DataValue, -0.215, -0.1, -4.8410000000000007E-06
DataValue, -0.22, -0.1, -4.9597E-06
DataValue, -0.225, -0.1, -4.9907E-06
DataValue, -0.23, -0.1, -5.0112E-06
DataValue, -0.23500000000000001, -0.1, -5.124E-06
DataValue, -0.24000000000000002, -0.1, -5.1692E-06
DataValue, -0.24500000000000002, -0.1, -5.1608000000000006E-06
DataValue, -0.25, -0.1, -5.2258000000000009E-06
DataValue, -0.255, -0.1, -5.3046000000000008E-06
DataValue, -0.26, -0.1, -5.2810000000000008E-06
DataValue, -0.265, -0.1, -5.2982E-06
DataValue, -0.27, -0.1, -5.3748000000000006E-06
DataValue, -0.275, -0.1, -5.3732000000000005E-06
DataValue, -0.28, -0.1, -5.3444000000000009E-06
DataValue, -0.28500000000000003, -0.1, -5.4136E-06
DataValue, -0.29000000000000004, -0.1, -5.4371000000000008E-06
DataValue, -0.29500000000000004, -0.1, -5.3949000000000006E-06
DataValue, -0.3, -0.1, -5.4254000000000006E-06
DataValue, -0.305, -0.1, -5.4857000000000007E-06
DataValue, -0.31, -0.1, -5.4365E-06
DataValue, -0.315, -0.1, -5.4485000000000004E-06
DataValue, -0.32, -0.1, -5.5098E-06
DataValue, -0.325, -0.1, -5.497800000000001E-06
DataValue, -0.33, -0.1, -5.4586000000000006E-06
DataValue, -0.335, -0.1, -5.5232000000000008E-06
DataValue, -0.34, -0.1, -5.5256000000000009E-06
DataValue, -0.34500000000000003, -0.1, -5.4810000000000005E-06
DataValue, -0.35000000000000003, -0.1, -5.5227000000000005E-06
DataValue, -0.35500000000000004, -0.1, -5.567E-06
DataValue, -0.36000000000000004, -0.1, -5.5156E-06
DataValue, -0.365, -0.1, -5.5281000000000005E-06
DataValue, -0.37, -0.1, -5.5941E-06
DataValue, -0.375, -0.1, -5.5661000000000008E-06
DataValue, -0.38, -0.1, -5.5385E-06
DataValue, -0.385, -0.1, -5.619100000000001E-06
DataValue, -0.39, -0.1, -5.5537000000000007E-06
DataValue, -0.395, -0.1, -5.6237000000000009E-06
DataValue, -0.4, -0.1, -5.6272000000000009E-06
DataValue, -0.405, -0.1, -5.5805E-06
DataValue, -0.41000000000000003, -0.1, -5.6507000000000008E-06
DataValue, -0.41500000000000004, -0.1, -5.6528E-06
DataValue, -0.42000000000000004, -0.1, -5.6084E-06
DataValue, -0.42500000000000004, -0.1, -5.6817E-06
DataValue, -0.43, -0.1, -5.6838000000000005E-06
DataValue, -0.435, -0.1, -5.6438000000000009E-06
DataValue, -0.44, -0.1, -5.7164000000000009E-06
DataValue, -0.445, -0.1, -5.7155000000000006E-06
DataValue, -0.45, -0.1, -5.6735000000000008E-06
DataValue, -0.455, -0.1, -5.7492000000000008E-06
DataValue, -0.46, -0.1, -5.7479000000000005E-06
DataValue, -0.465, -0.1, -5.7084E-06
DataValue, -0.47000000000000003, -0.1, -5.7888E-06
DataValue, -0.47500000000000003, -0.1, -5.7896000000000004E-06
DataValue, -0.48000000000000004, -0.1, -5.7486E-06
DataValue, -0.48500000000000004, -0.1, -5.7918E-06
DataValue, -0.49000000000000005, -0.1, -5.8494E-06
DataValue, -0.49500000000000005, -0.1, -5.8066000000000004E-06
DataValue, -0.5, -0.1, -5.805E-06
DataValue, 0, -0.2, 1.1764E-07
DataValue, -0.005, -0.2, -2.6808E-07
DataValue, -0.01, -0.2, -5.6382E-07
DataValue, -0.015000000000000001, -0.2, -7.8508E-07
DataValue, -0.02, -0.2, -1.0875199999999999E-06
DataValue, -0.025, -0.2, -1.354E-06
DataValue, -0.030000000000000002, -0.2, -1.7447000000000002E-06
DataValue, -0.035, -0.2, -1.9863000000000004E-06
DataValue, -0.04, -0.2, -2.2984000000000003E-06
DataValue, -0.045000000000000005, -0.2, -2.6675000000000003E-06
DataValue, -0.05, -0.2, -2.9231000000000004E-06
DataValue, -0.055, -0.2, -3.2475000000000002E-06
DataValue, -0.060000000000000005, -0.2, -3.6342000000000003E-06
DataValue, -0.065, -0.2, -3.909E-06
DataValue, -0.07, -0.2, -4.2561000000000006E-06
DataValue, -0.075, -0.2, -4.6642E-06
DataValue, -0.08, -0.2, -4.9622000000000005E-06
DataValue, -0.085, -0.2, -5.3364E-06
DataValue, -0.090000000000000011, -0.2, -5.7733E-06
DataValue, -0.095, -0.2, -6.0944000000000005E-06
DataValue, -0.1, -0.2, -6.4976E-06
DataValue, -0.10500000000000001, -0.2, -6.9534000000000011E-06
DataValue, -0.11, -0.2, -7.3313000000000004E-06
DataValue, -0.115, -0.2, -7.7209000000000009E-06
DataValue, -0.12000000000000001, -0.2, -8.2003E-06
DataValue, -0.125, -0.2, -8.6381000000000012E-06
DataValue, -0.13, -0.2, -9.0172E-06
DataValue, -0.135, -0.2, -9.5003000000000012E-06
DataValue, -0.14, -0.2, -9.9959E-06
DataValue, -0.14500000000000002, -0.2, -1.03832E-05
DataValue, -0.15, -0.2, -1.0915200000000002E-05
DataValue, -0.155, -0.2, -1.1394600000000001E-05
DataValue, -0.16, -0.2, -1.1994E-05
DataValue, -0.165, -0.2, -1.2368E-05
DataValue, -0.17, -0.2, -1.2828E-05
DataValue, -0.17500000000000002, -0.2, -1.3208000000000001E-05
DataValue, -0.18000000000000002, -0.2, -1.3628E-05
DataValue, -0.185, -0.2, -1.4168E-05
DataValue, -0.19, -0.2, -1.4614000000000001E-05
DataValue, -0.195, -0.2, -1.4998000000000001E-05
DataValue, -0.2, -0.2, -1.5448000000000002E-05
DataValue, -0.20500000000000002, -0.2, -1.5934E-05
DataValue, -0.21000000000000002, -0.2, -1.637E-05
DataValue, -0.215, -0.2, -1.673E-05
DataValue, -0.22, -0.2, -1.7138E-05
DataValue, -0.225, -0.2, -1.7598E-05
DataValue, -0.23, -0.2, -1.7990000000000002E-05
DataValue, -0.23500000000000001, -0.2, -1.8318E-05
DataValue, -0.24000000000000002, -0.2, -1.8730000000000002E-05
DataValue, -0.24500000000000002, -0.2, -1.9042E-05
DataValue, -0.25, -0.2, -1.9304E-05
DataValue, -0.255, -0.2, -1.963E-05
DataValue, -0.26, -0.2, -1.995E-05
DataValue, -0.265, -0.2, -2.0136E-05
DataValue, -0.27, -0.2, -2.0358E-05
DataValue, -0.275, -0.2, -2.0646000000000002E-05
DataValue, -0.28, -0.2, -2.0798E-05
DataValue, -0.28500000000000003, -0.2, -2.0916E-05
DataValue, -0.29000000000000004, -0.2, -2.1112E-05
DataValue, -0.29500000000000004, -0.2, -2.1282E-05
DataValue, -0.3, -0.2, -2.1318E-05
DataValue, -0.305, -0.2, -2.1414000000000002E-05
DataValue, -0.31, -0.2, -2.1572E-05
DataValue, -0.315, -0.2, -2.16E-05
DataValue, -0.32, -0.2, -2.1606E-05
DataValue, -0.325, -0.2, -2.1712E-05
DataValue, -0.33, -0.2, -2.1784E-05
DataValue, -0.335, -0.2, -2.1732E-05
DataValue, -0.34, -0.2, -2.178E-05
DataValue, -0.34500000000000003, -0.2, -2.1868E-05
DataValue, -0.35000000000000003, -0.2, -2.1844E-05
DataValue, -0.35500000000000004, -0.2, -2.1814E-05
DataValue, -0.36000000000000004, -0.2, -2.1896000000000002E-05
DataValue, -0.365, -0.2, -2.1922E-05
DataValue, -0.37, -0.2, -2.1858E-05
DataValue, -0.375, -0.2, -2.1894E-05
DataValue, -0.38, -0.2, -2.1962E-05
DataValue, -0.385, -0.2, -2.1924000000000002E-05
DataValue, -0.39, -0.2, -2.1886E-05
DataValue, -0.395, -0.2, -2.1962E-05
DataValue, -0.4, -0.2, -2.1982E-05
DataValue, -0.405, -0.2, -2.1904000000000002E-05
DataValue, -0.41000000000000003, -0.2, -2.1954E-05
DataValue, -0.41500000000000004, -0.2, -2.2014E-05
DataValue, -0.42000000000000004, -0.2, -2.1986E-05
DataValue, -0.42500000000000004, -0.2, -2.1958000000000002E-05
DataValue, -0.43, -0.2, -2.2052E-05
DataValue, -0.435, -0.2, -2.2060000000000002E-05
DataValue, -0.44, -0.2, -2.2006000000000002E-05
DataValue, -0.445, -0.2, -2.205E-05
DataValue, -0.45, -0.2, -2.2124E-05
DataValue, -0.455, -0.2, -2.2096E-05
DataValue, -0.46, -0.2, -2.2066000000000002E-05
DataValue, -0.465, -0.2, -2.2134000000000002E-05
DataValue, -0.47000000000000003, -0.2, -2.2206E-05
DataValue, -0.47500000000000003, -0.2, -2.2178E-05
DataValue, -0.48000000000000004, -0.2, -2.2152E-05
DataValue, -0.48500000000000004, -0.2, -2.2218E-05
DataValue, -0.49000000000000005, -0.2, -2.23E-05
DataValue, -0.49500000000000005, -0.2, -2.23E-05
DataValue, -0.5, -0.2, -2.2270000000000002E-05
