
SetupTitle, I/V Sweep
PrimitiveTest, I/V Sweep
TestParameter, Context.MainFrame, B1500A
TestParameter, Channel.UnitType, SMU, SMU
TestParameter, Channel.Unit, SMU1:HR/AS, SMU2:HR/AS
TestParameter, Channel.IName, Ig, Id
TestParameter, Channel.VName, Vg, Vd
TestParameter, Channel.Mode, V, V
TestParameter, Channel.Func, VAR2, VAR1
TestParameter, Channel.Index, 
TestParameter, Channel.Time, 
TestParameter, Measurement.Port.Unit, SMU1:HR/AS, SMU2:HR/AS
TestParameter, Measurement.Port.SeriesResistor, NONE, NONE
TestParameter, Measurement.Port.Filter, ON, ON
TestParameter, Measurement.Port.OutputVoltageComparison, 0, 0
TestParameter, Measurement.Primary.Locus, Single
TestParameter, Measurement.Primary.Scale, LINEAR
TestParameter, Measurement.Primary.Start, 0
TestParameter, Measurement.Primary.Stop, -0.5
TestParameter, Measurement.Primary.Step, -0.005
TestParameter, Measurement.Primary.Compliance, 0.1
TestParameter, Measurement.Primary.PowerCompliance, 0
TestParameter, Measurement.Aborting.Condition, CONTINUE AT ANY
TestParameter, Measurement.PostOutput.Value, START
TestParameter, Measurement.PostOutput.Retention, OFF
TestParameter, Measurement.Secondary.Start, 0
TestParameter, Measurement.Secondary.Count, 6
TestParameter, Measurement.Secondary.Step, -0.1
TestParameter, Measurement.Secondary.Compliance, 0.0001
TestParameter, Measurement.Secondary.PowerCompliance, 0
TestParameter, Measurement.Bias.Source, 0, 0
TestParameter, Measurement.Bias.Compliance, 0.0001, 0.1
TestParameter, Measurement.Monitor.Unit, SMU1:HR/AS, SMU2:HR/AS
TestParameter, Measurement.Monitor.Adc, HR ADC, HR ADC
TestParameter, Measurement.Monitor.Measurement, Compliance Side, Compliance Side
TestParameter, Measurement.Monitor.RangingMode, LIMITED, LIMITED
TestParameter, Measurement.Monitor.RangeBoundary, 1nA, 1nA
TestParameter, Measurement.Monitor.RangeRating, BY FULL RANGE, BY FULL RANGE
TestParameter, Measurement.Monitor.RangeRatingCoeff, 50, 50
TestParameter, Measurement.Timing.Hold, 0
TestParameter, Measurement.Timing.Delay, 0
TestParameter, Measurement.Adc.HighSpeed.Mode, AUTO
TestParameter, Measurement.Adc.HighSpeed.Coeff, 1
TestParameter, Measurement.Adc.HighResolution.AutoZero, OFF
TestParameter, Measurement.Adc.HighResolution.Mode, AUTO
TestParameter, Measurement.Adc.HighResolution.Coeff, 6
TestParameter, Measurement.WaitTime.Source.Coeff, 1
TestParameter, Measurement.WaitTime.Source.Offset, 0
TestParameter, Measurement.WaitTime.Monitor.Coeff, 1
TestParameter, Measurement.WaitTime.Monitor.Offset, 0
TestParameter, Output.Graph.Enabled, true
TestParameter, Output.Graph.AutoScaling, false
TestParameter, Output.Graph.XAxis.Data, Vd
TestParameter, Output.Graph.XAxis.Scale, Linear
TestParameter, Output.Graph.XAxis.Left, 0
TestParameter, Output.Graph.XAxis.Right, -0.5
TestParameter, Output.Graph.XAxis.RunTimeAutoScale, true
TestParameter, Output.Graph.YAxis.Data, Id
TestParameter, Output.Graph.YAxis.Scale, Linear
TestParameter, Output.Graph.YAxis.Bottom, -0.1
TestParameter, Output.Graph.YAxis.Top, 0.1
TestParameter, Output.Graph.YAxis.Group, 
TestParameter, Output.Graph.YAxis.RunTimeAutoScale, true
TestParameter, Output.List.Data, Vd, Vg, Id
TestParameter, AutoAnalysis.Interpolation, false
TestParameter, AutoAnalysis.Var2StepCount, 1
TestParameter, AutoAnalysis.Var2StepScript, 
TestParameter, AutoAnalysis.Line1.Enabled, false
TestParameter, AutoAnalysis.Line1.Type, 1
TestParameter, AutoAnalysis.Line1.Fix, True
TestParameter, AutoAnalysis.Line1.YAxis, 0
TestParameter, AutoAnalysis.Line1.Point1.Type, 0
TestParameter, AutoAnalysis.Line1.Point1.XY.X, 
TestParameter, AutoAnalysis.Line1.Point1.XY.Y, 
TestParameter, AutoAnalysis.Line1.Point1.Data.Var, 
TestParameter, AutoAnalysis.Line1.Point1.Data.Condition, 
TestParameter, AutoAnalysis.Line1.Point1.Data.Start, false
TestParameter, AutoAnalysis.Line1.Point1.Data.StartVar, 
TestParameter, AutoAnalysis.Line1.Point1.Data.StartCondition, 
TestParameter, AutoAnalysis.Line1.Point2.Type, 0
TestParameter, AutoAnalysis.Line1.Point2.XY.X, 
TestParameter, AutoAnalysis.Line1.Point2.XY.Y, 
TestParameter, AutoAnalysis.Line1.Point2.Data.Var, 
TestParameter, AutoAnalysis.Line1.Point2.Data.Condition, 
TestParameter, AutoAnalysis.Line1.Point2.Data.Start, false
TestParameter, AutoAnalysis.Line1.Point2.Data.StartVar, 
TestParameter, AutoAnalysis.Line1.Point2.Data.StartCondition, 
TestParameter, AutoAnalysis.Line1.GradientExpr, 0
TestParameter, AutoAnalysis.Line2.Enabled, false
TestParameter, AutoAnalysis.Line2.Type, 1
TestParameter, AutoAnalysis.Line2.Fix, True
TestParameter, AutoAnalysis.Line2.YAxis, 0
TestParameter, AutoAnalysis.Line2.Point1.Type, 0
TestParameter, AutoAnalysis.Line2.Point1.XY.X, 
TestParameter, AutoAnalysis.Line2.Point1.XY.Y, 
TestParameter, AutoAnalysis.Line2.Point1.Data.Var, 
TestParameter, AutoAnalysis.Line2.Point1.Data.Condition, 
TestParameter, AutoAnalysis.Line2.Point1.Data.Start, false
TestParameter, AutoAnalysis.Line2.Point1.Data.StartVar, 
TestParameter, AutoAnalysis.Line2.Point1.Data.StartCondition, 
TestParameter, AutoAnalysis.Line2.Point2.Type, 0
TestParameter, AutoAnalysis.Line2.Point2.XY.X, 
TestParameter, AutoAnalysis.Line2.Point2.XY.Y, 
TestParameter, AutoAnalysis.Line2.Point2.Data.Var, 
TestParameter, AutoAnalysis.Line2.Point2.Data.Condition, 
TestParameter, AutoAnalysis.Line2.Point2.Data.Start, false
TestParameter, AutoAnalysis.Line2.Point2.Data.StartVar, 
TestParameter, AutoAnalysis.Line2.Point2.Data.StartCondition, 
TestParameter, AutoAnalysis.Line2.GradientExpr, 0
TestParameter, AutoAnalysis.Marker.Enabled, false
TestParameter, AutoAnalysis.Marker.Data.Var, 
TestParameter, AutoAnalysis.Marker.Data.Condition, 
TestParameter, AutoAnalysis.Marker.Data.Start, false
TestParameter, AutoAnalysis.Marker.Data.StartVar, 
TestParameter, AutoAnalysis.Marker.Data.StartCondition, 
MetaData, TestRecord.EntryPoint, true
MetaData, TestRecord.RecordTime, 05/22/2024 01:23:25
MetaData, TestRecord.TestTarget, 
MetaData, TestRecord.IterationIndex, 24
MetaData, TestRecord.Preservation, true
MetaData, TestRecord.Flag, 
MetaData, TestRecord.Remarks, s11c3_output
MetaData, TestRecord.LinkKey, 84c7e755-9c67-47fd-a37e-cdcd4bdadf26
MetaData, TestRecord.Parameters, 
Dimension1, 101, 101, 101
Dimension2, 6, 6, 6
DataName, Vd, Vg, Id
DataValue, 0, 0, 5.0413599999999996E-08
DataValue, -0.005, 0, -4.0925799999999994E-08
DataValue, -0.01, 0, 5.1038E-09
DataValue, -0.015000000000000001, 0, -7.0755999999999989E-08
DataValue, -0.02, 0, -3.91494E-08
DataValue, -0.025, 0, -8.7081999999999985E-08
DataValue, -0.030000000000000002, 0, -9.9306399999999985E-08
DataValue, -0.035, 0, -1.5101999999999999E-07
DataValue, -0.04, 0, -1.69E-07
DataValue, -0.045000000000000005, 0, -1.265E-07
DataValue, -0.05, 0, -1.7394E-07
DataValue, -0.055, 0, -2.2742E-07
DataValue, -0.060000000000000005, 0, -1.8656E-07
DataValue, -0.065, 0, -1.975E-07
DataValue, -0.07, 0, -2.717E-07
DataValue, -0.075, 0, -2.3232E-07
DataValue, -0.08, 0, -2.277E-07
DataValue, -0.085, 0, -2.9727999999999997E-07
DataValue, -0.090000000000000011, 0, -3.0264E-07
DataValue, -0.095, 0, -2.5791999999999997E-07
DataValue, -0.1, 0, -3.1498E-07
DataValue, -0.10500000000000001, 0, -3.5354E-07
DataValue, -0.11, 0, -3.102E-07
DataValue, -0.115, 0, -3.2178E-07
DataValue, -0.12000000000000001, 0, -3.8432E-07
DataValue, -0.125, 0, -3.5776E-07
DataValue, -0.13, 0, -3.3972E-07
DataValue, -0.135, 0, -3.9718E-07
DataValue, -0.14, 0, -4.3536E-07
DataValue, -0.14500000000000002, 0, -3.9046E-07
DataValue, -0.15, 0, -3.9538E-07
DataValue, -0.155, 0, -4.6186E-07
DataValue, -0.16, 0, -4.4712E-07
DataValue, -0.165, 0, -4.0814E-07
DataValue, -0.17, 0, -4.542E-07
DataValue, -0.17500000000000002, 0, -4.9982E-07
DataValue, -0.18000000000000002, 0, -4.4178E-07
DataValue, -0.185, 0, -4.5906E-07
DataValue, -0.19, 0, -5.1761999999999995E-07
DataValue, -0.195, 0, -4.7134E-07
DataValue, -0.2, 0, -4.5446E-07
DataValue, -0.20500000000000002, 0, -5.1194E-07
DataValue, -0.21000000000000002, 0, -5.1716E-07
DataValue, -0.215, 0, -4.6333999999999997E-07
DataValue, -0.22, 0, -4.8632E-07
DataValue, -0.225, 0, -5.3298E-07
DataValue, -0.23, 0, -4.7612E-07
DataValue, -0.23500000000000001, 0, -4.7178E-07
DataValue, -0.24000000000000002, 0, -5.25E-07
DataValue, -0.24500000000000002, 0, -5.0702E-07
DataValue, -0.25, 0, -4.5796E-07
DataValue, -0.255, 0, -5.1158E-07
DataValue, -0.26, 0, -5.21E-07
DataValue, -0.265, 0, -4.6819999999999997E-07
DataValue, -0.27, 0, -4.7673999999999997E-07
DataValue, -0.275, 0, -5.2662E-07
DataValue, -0.28, 0, -5.112E-07
DataValue, -0.28500000000000003, 0, -4.5486E-07
DataValue, -0.29000000000000004, 0, -5.1038E-07
DataValue, -0.29500000000000004, 0, -5.1564E-07
DataValue, -0.3, 0, -4.6162E-07
DataValue, -0.305, 0, -4.7894E-07
DataValue, -0.31, 0, -5.2656E-07
DataValue, -0.315, 0, -4.7211999999999997E-07
DataValue, -0.32, 0, -4.6164E-07
DataValue, -0.325, 0, -5.1384E-07
DataValue, -0.33, 0, -5.0262E-07
DataValue, -0.335, 0, -4.4852E-07
DataValue, -0.34, 0, -4.9796E-07
DataValue, -0.34500000000000003, 0, -5.1944E-07
DataValue, -0.35000000000000003, 0, -4.6706E-07
DataValue, -0.35500000000000004, 0, -4.5454E-07
DataValue, -0.36000000000000004, 0, -5.0778E-07
DataValue, -0.365, 0, -5.1222E-07
DataValue, -0.37, 0, -4.6651999999999997E-07
DataValue, -0.375, 0, -4.6371999999999997E-07
DataValue, -0.38, 0, -5.215E-07
DataValue, -0.385, 0, -5.0656E-07
DataValue, -0.39, 0, -4.5717999999999997E-07
DataValue, -0.395, 0, -4.8482E-07
DataValue, -0.4, 0, -5.2912E-07
DataValue, -0.405, 0, -4.9644E-07
DataValue, -0.41000000000000003, 0, -4.5814E-07
DataValue, -0.41500000000000004, 0, -5.11E-07
DataValue, -0.42000000000000004, 0, -5.2556E-07
DataValue, -0.42500000000000004, 0, -4.6984E-07
DataValue, -0.43, 0, -4.7194E-07
DataValue, -0.435, 0, -5.3204E-07
DataValue, -0.44, 0, -5.0936E-07
DataValue, -0.445, 0, -4.6258E-07
DataValue, -0.45, 0, -5.0026E-07
DataValue, -0.455, 0, -5.3776E-07
DataValue, -0.46, 0, -5.0326E-07
DataValue, -0.465, 0, -4.6906E-07
DataValue, -0.47000000000000003, 0, -5.169E-07
DataValue, -0.47500000000000003, 0, -5.4034E-07
DataValue, -0.48000000000000004, 0, -4.8922E-07
DataValue, -0.48500000000000004, 0, -4.7622E-07
DataValue, -0.49000000000000005, 0, -5.2928E-07
DataValue, -0.49500000000000005, 0, -5.3714E-07
DataValue, -0.5, 0, -4.9292E-07
DataValue, 0, -0.1, 4.2653799999999995E-08
DataValue, -0.005, -0.1, 6.9206999999999992E-08
DataValue, -0.01, -0.1, -1.5832399999999998E-08
DataValue, -0.015000000000000001, -0.1, 2.8967399999999996E-08
DataValue, -0.02, -0.1, -4.4845599999999995E-08
DataValue, -0.025, -0.1, -5.85506E-08
DataValue, -0.030000000000000002, -0.1, -1.1532E-07
DataValue, -0.035, -0.1, -1.6548E-07
DataValue, -0.04, -0.1, -1.3618E-07
DataValue, -0.045000000000000005, -0.1, -1.835E-07
DataValue, -0.05, -0.1, -2.5944E-07
DataValue, -0.055, -0.1, -2.3106E-07
DataValue, -0.060000000000000005, -0.1, -2.4156E-07
DataValue, -0.065, -0.1, -3.2036E-07
DataValue, -0.07, -0.1, -3.6038E-07
DataValue, -0.075, -0.1, -3.3656E-07
DataValue, -0.08, -0.1, -3.481E-07
DataValue, -0.085, -0.1, -4.3128E-07
DataValue, -0.090000000000000011, -0.1, -4.6522E-07
DataValue, -0.095, -0.1, -4.438E-07
DataValue, -0.1, -0.1, -4.7512E-07
DataValue, -0.10500000000000001, -0.1, -5.634E-07
DataValue, -0.11, -0.1, -5.5616E-07
DataValue, -0.115, -0.1, -5.5408E-07
DataValue, -0.12000000000000001, -0.1, -6.4132E-07
DataValue, -0.125, -0.1, -6.6966E-07
DataValue, -0.13, -0.1, -6.4584E-07
DataValue, -0.135, -0.1, -7.3132E-07
DataValue, -0.14, -0.1, -7.8486E-07
DataValue, -0.14500000000000002, -0.1, -7.6176E-07
DataValue, -0.15, -0.1, -8.0552E-07
DataValue, -0.155, -0.1, -8.9633999999999994E-07
DataValue, -0.16, -0.1, -8.8054E-07
DataValue, -0.165, -0.1, -8.9586E-07
DataValue, -0.17, -0.1, -9.8776E-07
DataValue, -0.17500000000000002, -0.1, -1.0165599999999999E-06
DataValue, -0.18000000000000002, -0.1, -9.955E-07
DataValue, -0.185, -0.1, -1.08022E-06
DataValue, -0.19, -0.1, -1.1889000000000002E-06
DataValue, -0.195, -0.1, -1.2582E-06
DataValue, -0.2, -0.1, -1.2329E-06
DataValue, -0.20500000000000002, -0.1, -1.2982000000000001E-06
DataValue, -0.21000000000000002, -0.1, -1.3617000000000002E-06
DataValue, -0.215, -0.1, -1.3338E-06
DataValue, -0.22, -0.1, -1.3944000000000002E-06
DataValue, -0.225, -0.1, -1.4571000000000002E-06
DataValue, -0.23, -0.1, -1.4237000000000002E-06
DataValue, -0.23500000000000001, -0.1, -1.4813000000000001E-06
DataValue, -0.24000000000000002, -0.1, -1.5380000000000001E-06
DataValue, -0.24500000000000002, -0.1, -1.5023000000000002E-06
DataValue, -0.25, -0.1, -1.5568E-06
DataValue, -0.255, -0.1, -1.6085000000000001E-06
DataValue, -0.26, -0.1, -1.5702000000000002E-06
DataValue, -0.265, -0.1, -1.6232000000000002E-06
DataValue, -0.27, -0.1, -1.6709000000000002E-06
DataValue, -0.275, -0.1, -1.6311000000000002E-06
DataValue, -0.28, -0.1, -1.6827000000000002E-06
DataValue, -0.28500000000000003, -0.1, -1.7292E-06
DataValue, -0.29000000000000004, -0.1, -1.6878000000000002E-06
DataValue, -0.29500000000000004, -0.1, -1.7400000000000003E-06
DataValue, -0.3, -0.1, -1.7846000000000002E-06
DataValue, -0.305, -0.1, -1.7429E-06
DataValue, -0.31, -0.1, -1.7968E-06
DataValue, -0.315, -0.1, -1.8401000000000002E-06
DataValue, -0.32, -0.1, -1.7997000000000001E-06
DataValue, -0.325, -0.1, -1.8315000000000002E-06
DataValue, -0.33, -0.1, -1.8971000000000002E-06
DataValue, -0.335, -0.1, -1.8584000000000003E-06
DataValue, -0.34, -0.1, -1.8743000000000002E-06
DataValue, -0.34500000000000003, -0.1, -1.9514E-06
DataValue, -0.35000000000000003, -0.1, -1.9318000000000003E-06
DataValue, -0.35500000000000004, -0.1, -1.9235000000000003E-06
DataValue, -0.36000000000000004, -0.1, -1.9919000000000004E-06
DataValue, -0.365, -0.1, -1.9990000000000003E-06
DataValue, -0.37, -0.1, -1.9635000000000003E-06
DataValue, -0.375, -0.1, -2.0319000000000004E-06
DataValue, -0.38, -0.1, -2.0632E-06
DataValue, -0.385, -0.1, -2.0237E-06
DataValue, -0.39, -0.1, -2.052E-06
DataValue, -0.395, -0.1, -2.1228000000000002E-06
DataValue, -0.4, -0.1, -2.0951E-06
DataValue, -0.405, -0.1, -2.0843E-06
DataValue, -0.41000000000000003, -0.1, -2.1621E-06
DataValue, -0.41500000000000004, -0.1, -2.1711000000000003E-06
DataValue, -0.42000000000000004, -0.1, -2.1347E-06
DataValue, -0.42500000000000004, -0.1, -2.1978000000000004E-06
DataValue, -0.43, -0.1, -2.2406E-06
DataValue, -0.435, -0.1, -2.2026000000000003E-06
DataValue, -0.44, -0.1, -2.2206000000000004E-06
DataValue, -0.445, -0.1, -2.289E-06
DataValue, -0.45, -0.1, -2.2762000000000003E-06
DataValue, -0.455, -0.1, -2.2681000000000004E-06
DataValue, -0.46, -0.1, -2.3503E-06
DataValue, -0.465, -0.1, -2.3575000000000003E-06
DataValue, -0.47000000000000003, -0.1, -2.325E-06
DataValue, -0.47500000000000003, -0.1, -2.3940000000000003E-06
DataValue, -0.48000000000000004, -0.1, -2.4334000000000003E-06
DataValue, -0.48500000000000004, -0.1, -2.4006000000000004E-06
DataValue, -0.49000000000000005, -0.1, -2.4267000000000004E-06
DataValue, -0.49500000000000005, -0.1, -2.4991000000000003E-06
DataValue, -0.5, -0.1, -2.487E-06
DataValue, 0, -0.2, 9.564E-08
DataValue, -0.005, -0.2, -1.0644939999999998E-07
DataValue, -0.01, -0.2, -3.1326E-07
DataValue, -0.015000000000000001, -0.2, -4.6966E-07
DataValue, -0.02, -0.2, -6.9206E-07
DataValue, -0.025, -0.2, -9.2932E-07
DataValue, -0.030000000000000002, -0.2, -1.06972E-06
DataValue, -0.035, -0.2, -1.5520000000000001E-06
DataValue, -0.04, -0.2, -1.8354000000000003E-06
DataValue, -0.045000000000000005, -0.2, -2.1640000000000004E-06
DataValue, -0.05, -0.2, -2.38E-06
DataValue, -0.055, -0.2, -2.6668000000000005E-06
DataValue, -0.060000000000000005, -0.2, -3.0226000000000005E-06
DataValue, -0.065, -0.2, -3.2664E-06
DataValue, -0.07, -0.2, -3.5884000000000002E-06
DataValue, -0.075, -0.2, -3.975E-06
DataValue, -0.08, -0.2, -4.2556E-06
DataValue, -0.085, -0.2, -4.6172000000000004E-06
DataValue, -0.090000000000000011, -0.2, -5.0468000000000005E-06
DataValue, -0.095, -0.2, -5.3672000000000009E-06
DataValue, -0.1, -0.2, -5.7747000000000008E-06
DataValue, -0.10500000000000001, -0.2, -6.2510000000000008E-06
DataValue, -0.11, -0.2, -6.6225000000000005E-06
DataValue, -0.115, -0.2, -7.076200000000001E-06
DataValue, -0.12000000000000001, -0.2, -7.6021000000000004E-06
DataValue, -0.125, -0.2, -8.0214E-06
DataValue, -0.13, -0.2, -8.5274E-06
DataValue, -0.135, -0.2, -9.1078000000000011E-06
DataValue, -0.14, -0.2, -9.5723000000000015E-06
DataValue, -0.14500000000000002, -0.2, -1.01326E-05
DataValue, -0.15, -0.2, -1.0758200000000002E-05
DataValue, -0.155, -0.2, -1.1269100000000002E-05
DataValue, -0.16, -0.2, -1.3214000000000001E-05
DataValue, -0.165, -0.2, -1.3806000000000001E-05
DataValue, -0.17, -0.2, -1.4380000000000001E-05
DataValue, -0.17500000000000002, -0.2, -1.5076000000000001E-05
DataValue, -0.18000000000000002, -0.2, -1.5796E-05
DataValue, -0.185, -0.2, -1.6416E-05
DataValue, -0.19, -0.2, -1.7098E-05
DataValue, -0.195, -0.2, -1.789E-05
DataValue, -0.2, -0.2, -1.8582E-05
DataValue, -0.20500000000000002, -0.2, -1.9306E-05
DataValue, -0.21000000000000002, -0.2, -2.0112E-05
DataValue, -0.215, -0.2, -2.0884000000000002E-05
DataValue, -0.22, -0.2, -2.156E-05
DataValue, -0.225, -0.2, -2.2362E-05
DataValue, -0.23, -0.2, -2.3224E-05
DataValue, -0.23500000000000001, -0.2, -2.3942000000000002E-05
DataValue, -0.24000000000000002, -0.2, -2.4690000000000002E-05
DataValue, -0.24500000000000002, -0.2, -2.5562E-05
DataValue, -0.25, -0.2, -2.6372E-05
DataValue, -0.255, -0.2, -2.7072E-05
DataValue, -0.26, -0.2, -2.7908E-05
DataValue, -0.265, -0.2, -2.8772E-05
DataValue, -0.27, -0.2, -2.9484E-05
DataValue, -0.275, -0.2, -3.0214000000000002E-05
DataValue, -0.28, -0.2, -3.1074E-05
DataValue, -0.28500000000000003, -0.2, -3.179E-05
DataValue, -0.29000000000000004, -0.2, -3.2416E-05
DataValue, -0.29500000000000004, -0.2, -3.31E-05
DataValue, -0.3, -0.2, -3.385E-05
DataValue, -0.305, -0.2, -3.4494E-05
DataValue, -0.31, -0.2, -3.499E-05
DataValue, -0.315, -0.2, -3.5622E-05
DataValue, -0.32, -0.2, -3.6292000000000004E-05
DataValue, -0.325, -0.2, -3.6712000000000004E-05
DataValue, -0.33, -0.2, -3.7082E-05
DataValue, -0.335, -0.2, -3.7706E-05
DataValue, -0.34, -0.2, -3.8158E-05
DataValue, -0.34500000000000003, -0.2, -3.845E-05
DataValue, -0.35000000000000003, -0.2, -3.879E-05
DataValue, -0.35500000000000004, -0.2, -3.9228000000000005E-05
DataValue, -0.36000000000000004, -0.2, -3.9606E-05
DataValue, -0.365, -0.2, -3.9842E-05
DataValue, -0.37, -0.2, -4.0118000000000005E-05
DataValue, -0.375, -0.2, -4.0516E-05
DataValue, -0.38, -0.2, -4.083E-05
DataValue, -0.385, -0.2, -4.0992E-05
DataValue, -0.39, -0.2, -4.1234E-05
DataValue, -0.395, -0.2, -4.1674E-05
DataValue, -0.4, -0.2, -4.1898000000000004E-05
DataValue, -0.405, -0.2, -4.2024E-05
DataValue, -0.41000000000000003, -0.2, -4.2352000000000004E-05
DataValue, -0.41500000000000004, -0.2, -4.27E-05
DataValue, -0.42000000000000004, -0.2, -4.29E-05
DataValue, -0.42500000000000004, -0.2, -4.3052E-05
DataValue, -0.43, -0.2, -4.3362E-05
DataValue, -0.435, -0.2, -4.3702E-05
DataValue, -0.44, -0.2, -4.3872E-05
DataValue, -0.445, -0.2, -4.4016E-05
DataValue, -0.45, -0.2, -4.4330000000000004E-05
DataValue, -0.455, -0.2, -4.4702E-05
DataValue, -0.46, -0.2, -4.481E-05
DataValue, -0.465, -0.2, -4.4968E-05
DataValue, -0.47000000000000003, -0.2, -4.5406E-05
DataValue, -0.47500000000000003, -0.2, -4.5662000000000004E-05
DataValue, -0.48000000000000004, -0.2, -4.5766E-05
DataValue, -0.48500000000000004, -0.2, -4.6002000000000004E-05
DataValue, -0.49000000000000005, -0.2, -4.636E-05
DataValue, -0.49500000000000005, -0.2, -4.661E-05
DataValue, -0.5, -0.2, -4.6732E-05
DataValue, 0, -0.3, 3.50014E-08
DataValue, -0.005, -0.3, -3.3310000000000004E-06
DataValue, -0.01, -0.3, -6.7195000000000006E-06
DataValue, -0.015000000000000001, -0.3, -1.01041E-05
DataValue, -0.02, -0.3, -1.5444E-05
DataValue, -0.025, -0.3, -1.937E-05
DataValue, -0.030000000000000002, -0.3, -2.3384000000000002E-05
DataValue, -0.035, -0.3, -2.7484E-05
DataValue, -0.04, -0.3, -3.1480000000000004E-05
